! 5/5/2016 5:09:10 PM
! C:\ANRITSUVNA\DATA\INFINEON-SP4T-STATE01-C-RX4.S2P
! CHANNEL.1
! TR.MEASUREMENT
! CORRECTED.DATA
# GHZ S RI R 50.0
! FREQ.GHZ         S11RE         S11IM         S21RE         S21IM         S12RE         S12IM         S22RE         S22IM         
!; PortSelection: Port_12
   0.010000000    -0.9731020    0.0882408     0.0000019    0.0000119    -0.0000110    0.0000157    -0.7866828    0.0221610 
   0.014987500    -0.9611941    0.1261132    -0.0000068   -0.0000119    -0.0000196    0.0000339    -0.7836685    0.0212236 
   0.019975000    -0.9479468    0.1624024    -0.0000039    0.0000207    -0.0000174    0.0000152    -0.7834641    0.0277372 
   0.024962500    -0.9332415    0.1971700    -0.0000215    0.0000227    -0.0000237    0.0000182    -0.7829142    0.0342895 
   0.029950000    -0.9171000    0.2297962    -0.0000409    0.0000243    -0.0000386    0.0000274    -0.7824081    0.0408454 
   0.034937500    -0.8996282    0.2604642    -0.0000545    0.0000345    -0.0000541    0.0000367    -0.7819366    0.0474383 
   0.039925000    -0.8809198    0.2898248    -0.0000609    0.0000435    -0.0000624    0.0000454    -0.7813504    0.0537708 
   0.044912500    -0.8613341    0.3171024    -0.0000808    0.0000618    -0.0000855    0.0000576    -0.7807078    0.0604066 
   0.049900000    -0.8403356    0.3429634    -0.0000960    0.0000622    -0.0000994    0.0000608    -0.7798644    0.0669668 
   0.054887500    -0.8182065    0.3669599    -0.0001135    0.0000769    -0.0001155    0.0000800    -0.7791604    0.0732385 
   0.059875000    -0.7958688    0.3894242    -0.0001273    0.0000999    -0.0001339    0.0000976    -0.7782708    0.0797771 
   0.064862500    -0.7730428    0.4100454    -0.0001540    0.0001111    -0.0001480    0.0001185    -0.7775657    0.0862647 
   0.069850000    -0.7493490    0.4291764    -0.0001708    0.0001402    -0.0001690    0.0001307    -0.7766968    0.0928537 
   0.074837500    -0.7256170    0.4463567    -0.0001924    0.0001511    -0.0001823    0.0001529    -0.7758089    0.0991572 
   0.079825000    -0.7017127    0.4621008    -0.0002105    0.0001764    -0.0002067    0.0001757    -0.7746770    0.1056651 
   0.084812500    -0.6775789    0.4759192    -0.0002302    0.0001966    -0.0002268    0.0002032    -0.7736707    0.1119267 
   0.089800000    -0.6532553    0.4887150    -0.0002546    0.0002302    -0.0002525    0.0002270    -0.7725160    0.1183112 
   0.094787500    -0.6290690    0.4998422    -0.0002846    0.0002550    -0.0002775    0.0002547    -0.7712851    0.1247458 
   0.099775000    -0.6051044    0.5098644    -0.0003144    0.0002966    -0.0003060    0.0002870    -0.7701797    0.1311039 
   0.104762500    -0.5813851    0.5183969    -0.0003119    0.0003445    -0.0003172    0.0003386    -0.7687516    0.1373925 
   0.109750000    -0.5581270    0.5259396    -0.0003233    0.0003685    -0.0003267    0.0003690    -0.7674239    0.1438922 
   0.114737500    -0.5351825    0.5321689    -0.0003384    0.0003888    -0.0003394    0.0003981    -0.7662208    0.1501973 
   0.119725000    -0.5128205    0.5372518    -0.0003502    0.0004238    -0.0003513    0.0004137    -0.7649134    0.1566332 
   0.124712500    -0.4904226    0.5410444    -0.0003679    0.0004465    -0.0003642    0.0004462    -0.7634175    0.1629102 
   0.129700000    -0.4684658    0.5439382    -0.0003864    0.0004886    -0.0003797    0.0004718    -0.7619868    0.1693000 
   0.134687500    -0.4472472    0.5461787    -0.0004027    0.0005135    -0.0003972    0.0005209    -0.7603129    0.1753265 
   0.139675000    -0.4263006    0.5476935    -0.0004158    0.0005593    -0.0004151    0.0005552    -0.7587988    0.1815844 
   0.144662500    -0.4058013    0.5483098    -0.0004366    0.0005947    -0.0004354    0.0005846    -0.7569683    0.1877360 
   0.149650000    -0.3859107    0.5483577    -0.0004418    0.0006318    -0.0004420    0.0006232    -0.7551723    0.1937909 
   0.154637500    -0.3668414    0.5477458    -0.0004604    0.0006679    -0.0004546    0.0006683    -0.7536566    0.2001289 
   0.159625000    -0.3482639    0.5464486    -0.0004681    0.0007123    -0.0004607    0.0007081    -0.7518252    0.2064042 
   0.164612500    -0.3304135    0.5444981    -0.0004843    0.0007510    -0.0004751    0.0007522    -0.7500455    0.2125547 
   0.169600000    -0.3130066    0.5420351    -0.0004910    0.0007895    -0.0004831    0.0007855    -0.7479070    0.2183722 
   0.174587500    -0.2957273    0.5391340    -0.0005071    0.0008406    -0.0004885    0.0008299    -0.7462032    0.2245304 
   0.179575000    -0.2792617    0.5357667    -0.0005206    0.0008806    -0.0005079    0.0008755    -0.7441923    0.2307336 
   0.184562500    -0.2636851    0.5321029    -0.0005251    0.0009252    -0.0005171    0.0009150    -0.7421744    0.2368098 
   0.189550000    -0.2483942    0.5280756    -0.0005404    0.0009696    -0.0005214    0.0009725    -0.7401732    0.2426556 
   0.194537500    -0.2337191    0.5236229    -0.0005388    0.0010050    -0.0005311    0.0010141    -0.7381313    0.2484671 
   0.199525000    -0.2195970    0.5187823    -0.0005460    0.0010581    -0.0005373    0.0010572    -0.7360293    0.2545491 
   0.204512500    -0.2060944    0.5136018    -0.0005516    0.0011029    -0.0005542    0.0010970    -0.7338755    0.2604381 
   0.209500000    -0.1929904    0.5081471    -0.0005558    0.0011481    -0.0005479    0.0011476    -0.7316657    0.2661290 
   0.214487500    -0.1801099    0.5023676    -0.0005525    0.0011929    -0.0005501    0.0011799    -0.7292089    0.2720219 
   0.219475000    -0.1678239    0.4966159    -0.0005543    0.0012347    -0.0005453    0.0012282    -0.7267073    0.2779430 
   0.224462500    -0.1557724    0.4905172    -0.0005529    0.0012793    -0.0005518    0.0012716    -0.7241417    0.2836841 
   0.229450000    -0.1443676    0.4845421    -0.0005575    0.0013280    -0.0005376    0.0013123    -0.7216474    0.2894830 
   0.234437500    -0.1332541    0.4784411    -0.0005627    0.0013737    -0.0005425    0.0013594    -0.7189418    0.2952860 
   0.239425000    -0.1225932    0.4721853    -0.0005542    0.0014280    -0.0005369    0.0014100    -0.7163022    0.3012666 
   0.244412500    -0.1128240    0.4658233    -0.0005522    0.0014728    -0.0005352    0.0014590    -0.7137135    0.3072682 
   0.249400000    -0.1029613    0.4592568    -0.0005538    0.0015172    -0.0005413    0.0015023    -0.7110746    0.3128209 
   0.254387500    -0.0934601    0.4525464    -0.0005473    0.0015592    -0.0005316    0.0015527    -0.7082356    0.3182591 
   0.259375000    -0.0844628    0.4458606    -0.0005426    0.0016004    -0.0005353    0.0015993    -0.7056585    0.3238111 
   0.264362500    -0.0754923    0.4392922    -0.0005375    0.0016436    -0.0005396    0.0016379    -0.7030284    0.3295733 
   0.269350000    -0.0674707    0.4328239    -0.0005408    0.0016929    -0.0005240    0.0016830    -0.7000269    0.3353575 
   0.274337500    -0.0593252    0.4263246    -0.0005332    0.0017349    -0.0005236    0.0017387    -0.6976486    0.3407353 
   0.279325000    -0.0517822    0.4197050    -0.0005296    0.0017816    -0.0005244    0.0017811    -0.6948395    0.3463325 
   0.284312500    -0.0444358    0.4129583    -0.0005311    0.0018306    -0.0005170    0.0018288    -0.6921567    0.3518910 
   0.289300000    -0.0379420    0.4062976    -0.0005132    0.0018802    -0.0005155    0.0018796    -0.6891996    0.3574169 
   0.294287500    -0.0312290    0.3994446    -0.0005126    0.0019321    -0.0005012    0.0019279    -0.6863122    0.3626494 
   0.299275000    -0.0249145    0.3925255    -0.0005044    0.0019818    -0.0004883    0.0019728    -0.6831896    0.3680173 
   0.304262500    -0.0186520    0.3856912    -0.0004944    0.0020325    -0.0004827    0.0020299    -0.6799421    0.3734964 
   0.309250000    -0.0129962    0.3788212    -0.0004786    0.0020791    -0.0004612    0.0020695    -0.6766399    0.3788554 
   0.314237500    -0.0072664    0.3722300    -0.0004637    0.0021297    -0.0004487    0.0021127    -0.6729413    0.3841248 
   0.319225000    -0.0020089    0.3655040    -0.0004472    0.0021707    -0.0004250    0.0021652    -0.6695747    0.3896925 
   0.324212500     0.0030203    0.3588876    -0.0004344    0.0022157    -0.0004171    0.0022004    -0.6660081    0.3953413 
   0.329200000     0.0078318    0.3523471    -0.0004186    0.0022618    -0.0004023    0.0022377    -0.6624358    0.4007855 
   0.334187500     0.0124482    0.3455276    -0.0003982    0.0023039    -0.0003911    0.0022779    -0.6588407    0.4057183 
   0.339175000     0.0168769    0.3389851    -0.0003974    0.0023465    -0.0003939    0.0023311    -0.6551457    0.4112072 
   0.344162500     0.0209493    0.3324856    -0.0003786    0.0023941    -0.0003817    0.0023780    -0.6514221    0.4164495 
   0.349150000     0.0248469    0.3261048    -0.0003649    0.0024365    -0.0003753    0.0024159    -0.6478855    0.4218454 
   0.354137500     0.0288032    0.3196932    -0.0003518    0.0024670    -0.0003571    0.0024669    -0.6440564    0.4269802 
   0.359125000     0.0324653    0.3134114    -0.0003450    0.0025116    -0.0003422    0.0025254    -0.6405562    0.4325071 
   0.364112500     0.0357988    0.3074209    -0.0003402    0.0025559    -0.0003450    0.0025762    -0.6370436    0.4378119 
   0.369100000     0.0387755    0.3012546    -0.0003368    0.0026041    -0.0003300    0.0026110    -0.6335798    0.4430042 
   0.374087500     0.0416895    0.2951545    -0.0003283    0.0026501    -0.0003157    0.0026565    -0.6299057    0.4477283 
   0.379075000     0.0444372    0.2888771    -0.0003228    0.0026977    -0.0002866    0.0027103    -0.6266109    0.4527151 
   0.384062500     0.0470621    0.2827579    -0.0003016    0.0027643    -0.0002789    0.0027527    -0.6229329    0.4575424 
   0.389050000     0.0496365    0.2767513    -0.0002908    0.0028121    -0.0002612    0.0027990    -0.6191880    0.4626109 
   0.394037500     0.0519208    0.2707801    -0.0002739    0.0028724    -0.0002330    0.0028473    -0.6152588    0.4672350 
   0.399025000     0.0542942    0.2647944    -0.0002423    0.0029319    -0.0002006    0.0029017    -0.6111263    0.4719810 
   0.404012500     0.0562921    0.2590996    -0.0002114    0.0029830    -0.0001911    0.0029459    -0.6070190    0.4769425 
   0.409000000     0.0582655    0.2532849    -0.0001785    0.0030400    -0.0001705    0.0029907    -0.6030133    0.4819975 
   0.413987500     0.0598860    0.2477020    -0.0001524    0.0030850    -0.0001430    0.0030289    -0.5990716    0.4867824 
   0.418975000     0.0616036    0.2419634    -0.0001070    0.0031224    -0.0001213    0.0030820    -0.5949890    0.4913915 
   0.423962500     0.0630362    0.2364140    -0.0000852    0.0031662    -0.0001041    0.0031282    -0.5903288    0.4959379 
   0.428950000     0.0646121    0.2307547    -0.0000614    0.0031981    -0.0000824    0.0031592    -0.5861551    0.5008403 
   0.433937500     0.0660029    0.2255247    -0.0000232    0.0032276    -0.0000590    0.0032080    -0.5814710    0.5052359 
   0.438925000     0.0672638    0.2200895     0.0000002    0.0032498    -0.0000296    0.0032560    -0.5770897    0.5100122 
   0.443912500     0.0683620    0.2149406     0.0000207    0.0032970    -0.0000143    0.0033043    -0.5725604    0.5146106 
   0.448900000     0.0692273    0.2097763     0.0000329    0.0033209    -0.0000030    0.0033475    -0.5682019    0.5192235 
   0.453887500     0.0699823    0.2048950     0.0000385    0.0033578     0.0000159    0.0033862    -0.5639732    0.5238589 
   0.458875000     0.0706801    0.1998156     0.0000540    0.0034035     0.0000507    0.0034319    -0.5598584    0.5282341 
   0.463862500     0.0711931    0.1947480     0.0000606    0.0034518     0.0000886    0.0034927    -0.5557148    0.5324656 
   0.468850000     0.0717638    0.1897022     0.0000691    0.0035013     0.0000984    0.0035315    -0.5511508    0.5368280 
   0.473837500     0.0723908    0.1849803     0.0000841    0.0035602     0.0001231    0.0035685    -0.5466981    0.5411932 
   0.478825000     0.0727717    0.1802475     0.0001180    0.0036278     0.0001755    0.0036225    -0.5422416    0.5453697 
   0.483812500     0.0729791    0.1756798     0.0001510    0.0036890     0.0002118    0.0036746    -0.5376251    0.5496221 
   0.488800000     0.0731320    0.1710177     0.0001898    0.0037566     0.0002372    0.0037175    -0.5330327    0.5541769 
   0.493787500     0.0731658    0.1666790     0.0002337    0.0038138     0.0002682    0.0037565    -0.5283118    0.5587246 
   0.498775000     0.0732481    0.1621232     0.0002945    0.0038634     0.0003158    0.0037909    -0.5240013    0.5628484 
   0.503762500     0.0731266    0.1577367     0.0003453    0.0038990     0.0003490    0.0038455    -0.5191982    0.5671123 
   0.508750000     0.0727888    0.1533950     0.0003842    0.0039192     0.0003610    0.0038796    -0.5143864    0.5709884 
   0.513737500     0.0725531    0.1491095     0.0004257    0.0039418     0.0003819    0.0039062    -0.5091672    0.5752180 
   0.518725000     0.0722960    0.1449098     0.0004670    0.0039652     0.0004295    0.0039373    -0.5043617    0.5790915 
   0.523712500     0.0718531    0.1408426     0.0005042    0.0039803     0.0004485    0.0039847    -0.4991286    0.5830346 
   0.528700000     0.0711756    0.1368381     0.0005140    0.0040014     0.0004668    0.0040180    -0.4939874    0.5871022 
   0.533687500     0.0707040    0.1328714     0.0005284    0.0040251     0.0004712    0.0040588    -0.4890137    0.5912924 
   0.538675000     0.0698972    0.1290541     0.0005408    0.0040613     0.0004975    0.0040910    -0.4842225    0.5951971 
   0.543662500     0.0692004    0.1250867     0.0005455    0.0040879     0.0005348    0.0041441    -0.4795288    0.5986325 
   0.548650000     0.0683632    0.1212220     0.0005480    0.0041453     0.0005389    0.0041905    -0.4747722    0.6020041 
   0.553637500     0.0676292    0.1174744     0.0005497    0.0041934     0.0005726    0.0042401    -0.4697432    0.6057099 
   0.558625000     0.0668531    0.1136857     0.0005689    0.0042574     0.0006106    0.0042818    -0.4648247    0.6092040 
   0.563612500     0.0659927    0.1100805     0.0005901    0.0043222     0.0006612    0.0043377    -0.4597087    0.6126071 
   0.568600000     0.0650535    0.1063473     0.0006235    0.0043954     0.0006939    0.0043853    -0.4548390    0.6163213 
   0.573587500     0.0642027    0.1030186     0.0006641    0.0044720     0.0007308    0.0044311    -0.4494902    0.6201247 
   0.578575000     0.0632347    0.0996445     0.0007083    0.0045271     0.0007713    0.0044650    -0.4445744    0.6239334 
   0.583562500     0.0621237    0.0961418     0.0007599    0.0045908     0.0008243    0.0045156    -0.4398882    0.6271781 
   0.588550000     0.0611732    0.0929142     0.0008330    0.0046467     0.0008561    0.0045511    -0.4350285    0.6303282 
   0.593537500     0.0600491    0.0896390     0.0009006    0.0046847     0.0008888    0.0045916    -0.4295024    0.6335457 
   0.598525000     0.0589702    0.0865731     0.0009635    0.0047087     0.0009412    0.0046230    -0.4241973    0.6370961 
   0.603512500     0.0576967    0.0834268     0.0010256    0.0047319     0.0009847    0.0046697    -0.4187870    0.6404142 
   0.608500000     0.0563577    0.0805482     0.0010850    0.0047534     0.0010157    0.0047047    -0.4133280    0.6437208 
   0.613487500     0.0550512    0.0776566     0.0011235    0.0047699     0.0010506    0.0047365    -0.4075534    0.6469622 
   0.618475000     0.0536042    0.0748433     0.0011584    0.0047866     0.0010992    0.0047698    -0.4022558    0.6503394 
   0.623462500     0.0522460    0.0719635     0.0011958    0.0047853     0.0011293    0.0047980    -0.3969260    0.6532392 
   0.628450000     0.0506760    0.0692928     0.0012215    0.0048155     0.0011689    0.0048340    -0.3915725    0.6562819 
   0.633437500     0.0491513    0.0665995     0.0012488    0.0048388     0.0011987    0.0048742    -0.3859157    0.6590602 
   0.638425000     0.0476653    0.0638567     0.0012603    0.0048707     0.0012427    0.0049089    -0.3801125    0.6619776 
   0.643412500     0.0461413    0.0613390     0.0012904    0.0049012     0.0012950    0.0049436    -0.3744390    0.6646484 
   0.648400000     0.0445270    0.0586612     0.0013249    0.0049483     0.0013337    0.0049818    -0.3689320    0.6676096 
   0.653387500     0.0429016    0.0562113     0.0013425    0.0050065     0.0013634    0.0050243    -0.3628940    0.6704917 
   0.658375000     0.0413732    0.0537580     0.0013750    0.0050765     0.0014089    0.0050690    -0.3573992    0.6734887 
   0.663362500     0.0396069    0.0513974     0.0014232    0.0051234     0.0014544    0.0050976    -0.3520391    0.6763183 
   0.668350000     0.0379687    0.0488745     0.0014631    0.0051797     0.0015041    0.0051332    -0.3469335    0.6789800 
   0.673337500     0.0363972    0.0466279     0.0015207    0.0052330     0.0015348    0.0051822    -0.3414946    0.6814523 
   0.678325000     0.0345524    0.0444205     0.0015775    0.0052837     0.0015693    0.0052220    -0.3357779    0.6841245 
   0.683312500     0.0328826    0.0422508     0.0016335    0.0053222     0.0016162    0.0052666    -0.3299998    0.6870017 
   0.688300000     0.0313129    0.0400385     0.0017073    0.0053605     0.0016696    0.0052990    -0.3244469    0.6895055 
   0.693287500     0.0297091    0.0381259     0.0017678    0.0053790     0.0016989    0.0053363    -0.3186717    0.6918923 
   0.698275000     0.0281082    0.0362131     0.0018115    0.0054115     0.0017359    0.0053817    -0.3124444    0.6945578 
   0.703262500     0.0261480    0.0344864     0.0018712    0.0054296     0.0017901    0.0054343    -0.3070264    0.6971349 
   0.708250000     0.0243863    0.0326928     0.0019243    0.0054510     0.0018457    0.0054551    -0.3012401    0.6995327 
   0.713237500     0.0227254    0.0309351     0.0019567    0.0054711     0.0018894    0.0055020    -0.2953197    0.7014615 
   0.718225000     0.0207638    0.0292371     0.0019888    0.0054913     0.0019172    0.0055420    -0.2891798    0.7035900 
   0.723212500     0.0189215    0.0277324     0.0020321    0.0055115     0.0019892    0.0055533    -0.2832852    0.7055426 
   0.728200000     0.0170739    0.0262027     0.0020767    0.0055513     0.0020391    0.0055966    -0.2774040    0.7075555 
   0.733187500     0.0149089    0.0246208     0.0021043    0.0055794     0.0020994    0.0056432    -0.2712941    0.7094693 
   0.738175000     0.0130583    0.0231479     0.0021422    0.0056124     0.0021220    0.0056749    -0.2648935    0.7116286 
   0.743162500     0.0110805    0.0216411     0.0021673    0.0056594     0.0021836    0.0056954    -0.2588218    0.7134085 
   0.748150000     0.0090346    0.0202172     0.0022227    0.0057061     0.0022388    0.0057417    -0.2533035    0.7153471 
   0.753137500     0.0070653    0.0188024     0.0022741    0.0057430     0.0022934    0.0057753    -0.2474562    0.7170216 
   0.758125000     0.0050136    0.0174084     0.0023120    0.0057938     0.0023196    0.0057992    -0.2416788    0.7190663 
   0.763112500     0.0032228    0.0160982     0.0023746    0.0058270     0.0023805    0.0058276    -0.2357363    0.7208143 
   0.768100000     0.0011514    0.0146944     0.0024277    0.0058663     0.0024268    0.0058604    -0.2297845    0.7226627 
   0.773087500    -0.0007756    0.0135933     0.0024992    0.0059011     0.0024865    0.0059031    -0.2241204    0.7244456 
   0.778075000    -0.0026372    0.0124257     0.0025493    0.0059322     0.0025168    0.0059446    -0.2179395    0.7262110 
   0.783062500    -0.0046509    0.0112703     0.0025997    0.0059672     0.0025742    0.0059677    -0.2121239    0.7281128 
   0.788050000    -0.0066398    0.0102351     0.0026716    0.0059899     0.0026252    0.0060081    -0.2063587    0.7301311 
   0.793037500    -0.0084798    0.0092043     0.0027246    0.0060150     0.0026872    0.0060266    -0.2004719    0.7316862 
