! 5/5/2016 5:06:18 PM
! C:\ANRITSUVNA\DATA\INFINEON-SP4T-STATE01-C-RX1.S2P
! CHANNEL.1
! TR.MEASUREMENT
! CORRECTED.DATA
# GHZ S RI R 50.0
! FREQ.GHZ         S11RE         S11IM         S21RE         S21IM         S12RE         S12IM         S22RE         S22IM         
!; PortSelection: Port_12
   0.010000000    -0.9731997    0.0878273     0.0279030    0.0707185     0.0268507    0.0705871    -0.8828133    0.0894993 
   0.014987500    -0.9614759    0.1262188     0.0347358    0.1007362     0.0347978    0.1007488    -0.8707959    0.1212682 
   0.019975000    -0.9482303    0.1623347     0.0464089    0.1293598     0.0465462    0.1294731    -0.8580418    0.1561185 
   0.024962500    -0.9335505    0.1971941     0.0597195    0.1562541     0.0596587    0.1563822    -0.8438178    0.1898702 
   0.029950000    -0.9174847    0.2299267     0.0742482    0.1814759     0.0742398    0.1814681    -0.8284266    0.2215863 
   0.034937500    -0.9001324    0.2607376     0.0898065    0.2053608     0.0898452    0.2053429    -0.8115767    0.2513600 
   0.039925000    -0.8814490    0.2901577     0.1064438    0.2275049     0.1066601    0.2273512    -0.7933122    0.2795084 
   0.044912500    -0.8617450    0.3174161     0.1242280    0.2480263     0.1242811    0.2479670    -0.7742940    0.3061101 
   0.049900000    -0.8407354    0.3432982     0.1430189    0.2669601     0.1429763    0.2668338    -0.7534869    0.3307761 
   0.054887500    -0.8187280    0.3675908     0.1624702    0.2845928     0.1622567    0.2844493    -0.7321358    0.3540419 
   0.059875000    -0.7962236    0.3900444     0.1823899    0.3006307     0.1822862    0.3005413    -0.7099809    0.3758174 
   0.064862500    -0.7734809    0.4106580     0.2030393    0.3153010     0.2029164    0.3151786    -0.6878116    0.3956817 
   0.069850000    -0.7497226    0.4298000     0.2240519    0.3284409     0.2236374    0.3284120    -0.6648792    0.4138494 
   0.074837500    -0.7259641    0.4470072     0.2452127    0.3401184     0.2448442    0.3401056    -0.6417312    0.4303705 
   0.079825000    -0.7020628    0.4627310     0.2664527    0.3502305     0.2661904    0.3503149    -0.6182780    0.4453990 
   0.084812500    -0.6779034    0.4767095     0.2880817    0.3588641     0.2877361    0.3589098    -0.5948496    0.4587191 
   0.089800000    -0.6535372    0.4895586     0.3097031    0.3661191     0.3095945    0.3663658    -0.5707222    0.4707658 
   0.094787500    -0.6292809    0.5008519     0.3315035    0.3722132     0.3312624    0.3723573    -0.5471596    0.4814878 
   0.099775000    -0.6053416    0.5109004     0.3528400    0.3769040     0.3526668    0.3770110    -0.5237595    0.4907126 
   0.104762500    -0.5814872    0.5195618     0.3741765    0.3805301     0.3739793    0.3807521    -0.5005899    0.4988433 
   0.109750000    -0.5581688    0.5272650     0.3948721    0.3829598     0.3946834    0.3831684    -0.4777749    0.5057166 
   0.114737500    -0.5351472    0.5335223     0.4153078    0.3844570     0.4151331    0.3845459    -0.4553108    0.5114759 
   0.119725000    -0.5125576    0.5386690     0.4349526    0.3848933     0.4350215    0.3849868    -0.4333209    0.5159016 
   0.124712500    -0.4901141    0.5424926     0.4545596    0.3842472     0.4544899    0.3841623    -0.4115743    0.5189481 
   0.129700000    -0.4679692    0.5453969     0.4735874    0.3828152     0.4738111    0.3828331    -0.3900498    0.5215208 
   0.134687500    -0.4467304    0.5476531     0.4924808    0.3808841     0.4924505    0.3804443    -0.3690450    0.5228668 
   0.139675000    -0.4256565    0.5490577     0.5106784    0.3781293     0.5107066    0.3777079    -0.3489042    0.5236619 
   0.144662500    -0.4051648    0.5496514     0.5286989    0.3745385     0.5284543    0.3745104    -0.3289812    0.5236065 
   0.149650000    -0.3851739    0.5496408     0.5461864    0.3705592     0.5456272    0.3703921    -0.3097661    0.5229595 
   0.154637500    -0.3660676    0.5490187     0.5630743    0.3658115     0.5625664    0.3656402    -0.2908666    0.5219176 
   0.159625000    -0.3474506    0.5476487     0.5793457    0.3605124     0.5788680    0.3604316    -0.2728204    0.5199981 
   0.164612500    -0.3295791    0.5456319     0.5952318    0.3547253     0.5945857    0.3544431    -0.2551538    0.5176442 
   0.169600000    -0.3121142    0.5431516     0.6105272    0.3481247     0.6098270    0.3479666    -0.2382016    0.5144430 
   0.174587500    -0.2947708    0.5402622     0.6254745    0.3409146     0.6248475    0.3411199    -0.2213142    0.5111523 
   0.179575000    -0.2783295    0.5367873     0.6396676    0.3336592     0.6392300    0.3340169    -0.2053532    0.5073673 
   0.184562500    -0.2627065    0.5330191     0.6534789    0.3260224     0.6527998    0.3263456    -0.1897730    0.5031279 
   0.189550000    -0.2473657    0.5290527     0.6667933    0.3181913     0.6662365    0.3188001    -0.1747167    0.4985892 
   0.194537500    -0.2325447    0.5245217     0.6794925    0.3099852     0.6789992    0.3106837    -0.1603739    0.4938943 
   0.199525000    -0.2183166    0.5196522     0.6917273    0.3015983     0.6911630    0.3023997    -0.1466879    0.4885805 
   0.204512500    -0.2047498    0.5143201     0.7033210    0.2929707     0.7029017    0.2936689    -0.1334711    0.4830626 
   0.209500000    -0.1915616    0.5089446     0.7144590    0.2837779     0.7145377    0.2848235    -0.1207060    0.4771432 
   0.214487500    -0.1786466    0.5031061     0.7255563    0.2745227     0.7254506    0.2753290    -0.1082443    0.4708962 
   0.219475000    -0.1662183    0.4973393     0.7358783    0.2652059     0.7360891    0.2657587    -0.0962514    0.4644558 
   0.224462500    -0.1542572    0.4912193     0.7460021    0.2556378     0.7458479    0.2561769    -0.0847880    0.4579748 
   0.229450000    -0.1427447    0.4852960     0.7554126    0.2458905     0.7556297    0.2463787    -0.0739057    0.4515474 
   0.234437500    -0.1315724    0.4791003     0.7645484    0.2359199     0.7645526    0.2364647    -0.0634391    0.4449195 
   0.239425000    -0.1208443    0.4727282     0.7731009    0.2262951     0.7731966    0.2263698    -0.0535198    0.4381287 
   0.244412500    -0.1107737    0.4663935     0.7811989    0.2165869     0.7810433    0.2166243    -0.0439438    0.4314779 
   0.249400000    -0.1008336    0.4597881     0.7887569    0.2066328     0.7889203    0.2065695    -0.0347685    0.4244002 
   0.254387500    -0.0912366    0.4528660     0.7962267    0.1966227     0.7962022    0.1967077    -0.0258621    0.4171982 
   0.259375000    -0.0819631    0.4462600     0.8035486    0.1868791     0.8033679    0.1870342    -0.0176371    0.4101067 
   0.264362500    -0.0730753    0.4392561     0.8105500    0.1773554     0.8102587    0.1775758    -0.0092121    0.4030432 
   0.269350000    -0.0649149    0.4326558     0.8176700    0.1676697     0.8172084    0.1678195    -0.0011871    0.3957592 
   0.274337500    -0.0566253    0.4259107     0.8243964    0.1577899     0.8239688    0.1583228     0.0063546    0.3886929 
   0.279325000    -0.0492913    0.4190810     0.8310367    0.1480338     0.8306315    0.1486120     0.0135943    0.3816255 
   0.284312500    -0.0420301    0.4121865     0.8374949    0.1376608     0.8370031    0.1386511     0.0204816    0.3744557 
   0.289300000    -0.0356298    0.4052807     0.8434603    0.1272316     0.8432449    0.1285265     0.0269620    0.3670534 
   0.294287500    -0.0290498    0.3984541     0.8492222    0.1163312     0.8493256    0.1180944     0.0333053    0.3597395 
   0.299275000    -0.0228819    0.3914820     0.8544407    0.1055027     0.8546212    0.1071701     0.0393655    0.3524224 
   0.304262500    -0.0166943    0.3846367     0.8591915    0.0943300     0.8599008    0.0964100     0.0453637    0.3450519 
   0.309250000    -0.0111284    0.3778616     0.8632668    0.0830893     0.8644202    0.0852173     0.0508841    0.3379872 
   0.314237500    -0.0055458    0.3713678     0.8668662    0.0721293     0.8684309    0.0742254     0.0563487    0.3308402 
   0.319225000    -0.0003313    0.3647551     0.8700091    0.0615391     0.8716860    0.0629681     0.0611702    0.3239084 
   0.324212500     0.0046823    0.3584785     0.8725402    0.0509578     0.8743933    0.0523240     0.0659457    0.3172219 
   0.329200000     0.0094374    0.3520272     0.8748455    0.0409903     0.8770663    0.0418938     0.0704262    0.3104414 
   0.334187500     0.0141986    0.3455251     0.8768089    0.0313231     0.8791324    0.0316735     0.0745171    0.3036621 
   0.339175000     0.0187886    0.3389927     0.8792578    0.0220455     0.8812828    0.0217705     0.0784558    0.2969469 
   0.344162500     0.0232163    0.3325596     0.8814775    0.0130070     0.8832012    0.0123476     0.0821890    0.2901069 
   0.349150000     0.0274427    0.3260033     0.8841470    0.0041446     0.8852273    0.0031558     0.0857547    0.2834305 
   0.354137500     0.0314450    0.3195946     0.8867624   -0.0046088     0.8873829   -0.0058421     0.0890238    0.2767815 
   0.359125000     0.0352740    0.3132540     0.8894888   -0.0134558     0.8896475   -0.0149149     0.0918701    0.2703411 
   0.364112500     0.0388029    0.3069201     0.8926144   -0.0227447     0.8920318   -0.0239624     0.0945941    0.2637418 
   0.369100000     0.0418569    0.3006476     0.8957197   -0.0321420     0.8945761   -0.0331512     0.0971453    0.2573771 
   0.374087500     0.0446665    0.2943705     0.8984511   -0.0419959     0.8970958   -0.0427495     0.0993904    0.2509282 
   0.379075000     0.0473043    0.2881658     0.9009953   -0.0522854     0.8995734   -0.0524584     0.1014545    0.2443633 
   0.384062500     0.0498793    0.2819763     0.9029958   -0.0630085     0.9013687   -0.0625422     0.1035182    0.2378097 
   0.389050000     0.0522762    0.2757878     0.9044868   -0.0736751     0.9032007   -0.0729685     0.1057289    0.2312261 
   0.394037500     0.0543901    0.2698743     0.9052103   -0.0845916     0.9045002   -0.0832178     0.1077244    0.2249348 
   0.399025000     0.0565765    0.2641192     0.9051734   -0.0950114     0.9050624   -0.0934832     0.1095396    0.2185140 
   0.404012500     0.0584126    0.2585116     0.9049521   -0.1054656     0.9050490   -0.1037656     0.1113655    0.2122397 
   0.409000000     0.0600675    0.2528272     0.9043623   -0.1150705     0.9051300   -0.1134182     0.1129455    0.2061606 
   0.413987500     0.0616728    0.2473387     0.9032992   -0.1242313     0.9048104   -0.1227150     0.1145870    0.2001829 
   0.418975000     0.0632535    0.2418123     0.9024910   -0.1331762     0.9041089   -0.1318848     0.1158088    0.1941157 
   0.423962500     0.0649806    0.2364352     0.9015571   -0.1414089     0.9034184   -0.1405252     0.1171193    0.1880484 
   0.428950000     0.0664665    0.2308550     0.9010732   -0.1492704     0.9027330   -0.1487103     0.1182071    0.1821188 
   0.433937500     0.0679179    0.2252636     0.9007463   -0.1571392     0.9022682   -0.1568165     0.1192045    0.1765127 
   0.438925000     0.0692565    0.2198910     0.9006354   -0.1647006     0.9021276   -0.1648837     0.1198806    0.1709665 
   0.443912500     0.0703879    0.2145192     0.9012541   -0.1728867     0.9023311   -0.1728476     0.1202111    0.1655507 
   0.448900000     0.0713230    0.2090709     0.9018589   -0.1807980     0.9026077   -0.1810756     0.1204684    0.1602024 
   0.453887500     0.0720688    0.2038381     0.9023172   -0.1891779     0.9031918   -0.1893613     0.1204748    0.1552750 
   0.458875000     0.0727774    0.1985876     0.9031104   -0.1981591     0.9035722   -0.1981810     0.1203452    0.1503105 
   0.463862500     0.0732880    0.1935992     0.9035063   -0.2074678     0.9038122   -0.2072535     0.1202331    0.1452280 
   0.468850000     0.0738019    0.1884782     0.9032169   -0.2169929     0.9035826   -0.2165183     0.1200825    0.1400984 
   0.473837500     0.0744329    0.1835476     0.9025650   -0.2267004     0.9030679   -0.2260142     0.1199134    0.1351561 
   0.478825000     0.0746627    0.1786723     0.9010004   -0.2365348     0.9018447   -0.2359549     0.1199167    0.1300992 
   0.483812500     0.0749698    0.1738184     0.8993708   -0.2457437     0.9002968   -0.2455098     0.1194166    0.1251391 
   0.488800000     0.0750816    0.1693795     0.8970800   -0.2552544     0.8983777   -0.2551350     0.1190861    0.1201981 
   0.493787500     0.0750365    0.1650321     0.8946496   -0.2640637     0.8963172   -0.2640775     0.1185477    0.1154229 
   0.498775000     0.0749389    0.1607157     0.8919200   -0.2723575     0.8935719   -0.2727799     0.1181463    0.1107633 
   0.503762500     0.0748181    0.1566063     0.8892572   -0.2798602     0.8909702   -0.2809407     0.1177892    0.1059911 
   0.508750000     0.0747524    0.1526306     0.8866988   -0.2871818     0.8882321   -0.2885341     0.1174061    0.1012855 
   0.513737500     0.0745381    0.1485941     0.8841907   -0.2943309     0.8855866   -0.2959807     0.1169077    0.0966608 
   0.518725000     0.0743827    0.1445430     0.8822837   -0.3012632     0.8831711   -0.3030676     0.1161754    0.0921754 
   0.523712500     0.0740462    0.1405414     0.8801783   -0.3080540     0.8806201   -0.3102322     0.1156059    0.0876335 
   0.528700000     0.0737021    0.1364436     0.8786603   -0.3150716     0.8786221   -0.3173346     0.1147566    0.0832209 
   0.533687500     0.0730274    0.1323322     0.8775803   -0.3223743     0.8774062   -0.3242766     0.1138302    0.0792733 
   0.538675000     0.0722344    0.1282932     0.8766987   -0.3296641     0.8759667   -0.3313252     0.1126846    0.0753691 
   0.543662500     0.0713746    0.1244052     0.8754667   -0.3374398     0.8746402   -0.3386037     0.1112274    0.0714384 
   0.548650000     0.0705659    0.1204408     0.8740277   -0.3453774     0.8730093   -0.3460269     0.1100145    0.0675653 
   0.553637500     0.0697934    0.1164447     0.8721060   -0.3536225     0.8715063   -0.3540988     0.1086221    0.0639145 
   0.558625000     0.0688318    0.1125851     0.8699785   -0.3621267     0.8696648   -0.3619672     0.1071497    0.0600457 
   0.563612500     0.0679609    0.1086165     0.8674364   -0.3705123     0.8670942   -0.3703871     0.1056973    0.0564629 
   0.568600000     0.0671748    0.1047122     0.8644429   -0.3790119     0.8644674   -0.3787557     0.1041097    0.0529839 
   0.573587500     0.0658765    0.1010458     0.8615370   -0.3870800     0.8616102   -0.3871577     0.1023713    0.0491585 
   0.578575000     0.0648330    0.0976244     0.8582006   -0.3948306     0.8585345   -0.3949719     0.1007008    0.0458678 
   0.583562500     0.0636688    0.0940343     0.8546419   -0.4020104     0.8552818   -0.4025748     0.0989194    0.0424162 
   0.588550000     0.0624168    0.0907456     0.8508995   -0.4089445     0.8512342   -0.4096448     0.0972733    0.0388952 
   0.593537500     0.0613501    0.0876669     0.8472179   -0.4156716     0.8473498   -0.4167066     0.0957404    0.0355260 
   0.598525000     0.0603510    0.0847669     0.8436766   -0.4221868     0.8438992   -0.4235864     0.0942287    0.0319880 
   0.603512500     0.0591299    0.0819317     0.8400235   -0.4288444     0.8399940   -0.4303013     0.0926554    0.0286747 
   0.608500000     0.0579861    0.0792091     0.8371246   -0.4351901     0.8362333   -0.4365709     0.0909863    0.0253271 
   0.613487500     0.0569167    0.0763627     0.8342197   -0.4414920     0.8328823   -0.4429871     0.0896509    0.0220295 
   0.618475000     0.0557454    0.0736638     0.8314892   -0.4481151     0.8302135   -0.4491300     0.0879958    0.0188839 
   0.623462500     0.0545374    0.0712177     0.8288848   -0.4544779     0.8274220   -0.4551735     0.0862780    0.0158143 
   0.628450000     0.0530488    0.0686473     0.8261467   -0.4609284     0.8245059   -0.4611841     0.0846562    0.0126652 
   0.633437500     0.0516638    0.0661723     0.8231030   -0.4677460     0.8212659   -0.4676068     0.0829345    0.0098958 
   0.638425000     0.0501477    0.0634868     0.8196787   -0.4744641     0.8182827   -0.4742320     0.0811115    0.0071158 
   0.643412500     0.0486403    0.0611043     0.8165764   -0.4816788     0.8151159   -0.4809609     0.0794456    0.0046473 
   0.648400000     0.0471401    0.0585450     0.8125870   -0.4886256     0.8117879   -0.4877986     0.0772946    0.0021919 
   0.653387500     0.0455256    0.0560307     0.8091128   -0.4954259     0.8082627   -0.4947107     0.0751527   -0.0001739 
   0.658375000     0.0438505    0.0535698     0.8051500   -0.5023093     0.8053346   -0.5016065     0.0728198   -0.0025252 
   0.663362500     0.0417793    0.0509780     0.8012372   -0.5089701     0.8017741   -0.5080566     0.0706440   -0.0047244 
   0.668350000     0.0401073    0.0482683     0.7972941   -0.5150838     0.7978276   -0.5145163     0.0680696   -0.0069000 
   0.673337500     0.0382571    0.0458743     0.7932762   -0.5211660     0.7934777   -0.5209431     0.0656382   -0.0090701 
   0.678325000     0.0361680    0.0432863     0.7889326   -0.5270480     0.7891520   -0.5273600     0.0631807   -0.0112305 
   0.683312500     0.0344304    0.0411760     0.7845167   -0.5329260     0.7849302   -0.5334679     0.0606957   -0.0133781 
   0.688300000     0.0327661    0.0390091     0.7807612   -0.5387169     0.7804445   -0.5394558     0.0583485   -0.0154340 
   0.693287500     0.0310062    0.0368101     0.7767234   -0.5444909     0.7762871   -0.5451421     0.0560034   -0.0172423 
   0.698275000     0.0293139    0.0348419     0.7727963   -0.5505534     0.7723481   -0.5512241     0.0536713   -0.0192872 
   0.703262500     0.0274512    0.0329789     0.7692031   -0.5563104     0.7689232   -0.5566329     0.0512936   -0.0212554 
   0.708250000     0.0258393    0.0311302     0.7656178   -0.5619597     0.7647552   -0.5623795     0.0490150   -0.0231657 
   0.713237500     0.0243077    0.0293216     0.7618723   -0.5674950     0.7607267   -0.5677197     0.0469078   -0.0250413 
   0.718225000     0.0225376    0.0276667     0.7576255   -0.5734845     0.7565175   -0.5735381     0.0447235   -0.0268803 
   0.723212500     0.0207498    0.0260787     0.7536683   -0.5795914     0.7525820   -0.5793630     0.0426085   -0.0287085 
   0.728200000     0.0191533    0.0245706     0.7491508   -0.5854893     0.7482653   -0.5849287     0.0403961   -0.0303583 
   0.733187500     0.0173400    0.0229441     0.7448640   -0.5913682     0.7439595   -0.5906633     0.0382725   -0.0321374 
   0.738175000     0.0154252    0.0216219     0.7402472   -0.5972469     0.7396131   -0.5964838     0.0360457   -0.0337591 
   0.743162500     0.0135542    0.0200626     0.7359031   -0.6030205     0.7358183   -0.6022689     0.0338893   -0.0353927 
   0.748150000     0.0117308    0.0185922     0.7317685   -0.6084416     0.7316993   -0.6078888     0.0316022   -0.0368967 
   0.753137500     0.0095251    0.0172615     0.7268263   -0.6140223     0.7268255   -0.6129107     0.0292909   -0.0381462 
   0.758125000     0.0074442    0.0157932     0.7221925   -0.6188707     0.7220170   -0.6182855     0.0267370   -0.0392592 
   0.763112500     0.0055460    0.0146362     0.7171489   -0.6241255     0.7174503   -0.6235042     0.0242249   -0.0403960 
   0.768100000     0.0032684    0.0133074     0.7124202   -0.6291791     0.7128058   -0.6288725     0.0217505   -0.0415239 
   0.773087500     0.0011117    0.0121011     0.7080701   -0.6341767     0.7080042   -0.6341037     0.0191399   -0.0426101 
   0.778075000    -0.0010821    0.0111616     0.7037420   -0.6391730     0.7032806   -0.6393459     0.0164474   -0.0436035 
   0.783062500    -0.0033165    0.0099244     0.6990864   -0.6442600     0.6992019   -0.6445662     0.0139450   -0.0445885 
   0.788050000    -0.0053770    0.0089423     0.6948515   -0.6494337     0.6947962   -0.6495310     0.0111644   -0.0453733 
   0.793037500    -0.0074673    0.0078883     0.6907172   -0.6543785     0.6900456   -0.6544073     0.0087223   -0.0462511 
