! 5/10/2016 1:40:00 PM
! C:\ANRITSUVNA\DATA\INFINEON-SP2T-STATE0-C-RX1.S2P
! CHANNEL.1
! TR.MEASUREMENT
! CORRECTED.DATA
# GHZ S RI R 50.0
! FREQ.GHZ         S11RE         S11IM         S21RE         S21IM         S12RE         S12IM         S22RE         S22IM         
!; PortSelection: Port_12
   0.010000000     0.0302569   -0.0019302     0.9667029   -0.0083002     0.9659727   -0.0081171     0.0302561   -0.0025141 
   0.029950000     0.0298029   -0.0024614     0.9651887   -0.0192626     0.9650318   -0.0190461     0.0298848   -0.0024456 
   0.049900000     0.0294472   -0.0038633     0.9645265   -0.0311712     0.9642040   -0.0309998     0.0296684   -0.0037185 
   0.069850000     0.0292445   -0.0053140     0.9634276   -0.0429486     0.9633576   -0.0428277     0.0293630   -0.0051493 
   0.089800000     0.0290680   -0.0066346     0.9622159   -0.0549152     0.9624385   -0.0547779     0.0292456   -0.0064544 
   0.109750000     0.0285512   -0.0082105     0.9611619   -0.0665951     0.9612908   -0.0664483     0.0290818   -0.0079630 
   0.129700000     0.0277305   -0.0096147     0.9601022   -0.0780959     0.9600847   -0.0777527     0.0286808   -0.0094217 
   0.149650000     0.0273115   -0.0107206     0.9587637   -0.0896687     0.9584689   -0.0894951     0.0284502   -0.0103781 
   0.169600000     0.0272522   -0.0117778     0.9571295   -0.1010971     0.9572275   -0.1010835     0.0279378   -0.0114068 
   0.189550000     0.0271957   -0.0131336     0.9553415   -0.1125223     0.9551074   -0.1125765     0.0269267   -0.0125464 
   0.209500000     0.0268594   -0.0146937     0.9535766   -0.1242137     0.9536989   -0.1238685     0.0257205   -0.0140908 
   0.229450000     0.0266881   -0.0162210     0.9516555   -0.1355354     0.9518741   -0.1352745     0.0250662   -0.0152714 
   0.249400000     0.0261878   -0.0174284     0.9499303   -0.1467353     0.9499508   -0.1466957     0.0246161   -0.0165216 
   0.269350000     0.0257242   -0.0185365     0.9478705   -0.1582440     0.9477801   -0.1580228     0.0240244   -0.0174355 
   0.289300000     0.0249005   -0.0197911     0.9454929   -0.1696503     0.9455091   -0.1694342     0.0230836   -0.0184873 
   0.309250000     0.0241412   -0.0213900     0.9427978   -0.1807957     0.9428351   -0.1806170     0.0222999   -0.0199670 
   0.329200000     0.0232374   -0.0224408     0.9402682   -0.1918986     0.9407518   -0.1914036     0.0218809   -0.0212669 
   0.349150000     0.0225960   -0.0231379     0.9381771   -0.2027141     0.9382361   -0.2024985     0.0216113   -0.0220614 
   0.369100000     0.0221972   -0.0234488     0.9353251   -0.2143186     0.9352832   -0.2142625     0.0211966   -0.0219139 
   0.389050000     0.0217715   -0.0243594     0.9322011   -0.2254075     0.9320165   -0.2252863     0.0200226   -0.0223921 
   0.409000000     0.0211869   -0.0258961     0.9290337   -0.2363143     0.9289692   -0.2358281     0.0185235   -0.0234900 
   0.428950000     0.0202320   -0.0274280     0.9262914   -0.2468907     0.9261326   -0.2465575     0.0174233   -0.0250391 
   0.448900000     0.0188463   -0.0284917     0.9232194   -0.2584658     0.9232765   -0.2582265     0.0167239   -0.0264662 
   0.468850000     0.0174199   -0.0288059     0.9195589   -0.2695538     0.9194544   -0.2694131     0.0166114   -0.0270777 
   0.488800000     0.0167299   -0.0293248     0.9153261   -0.2802464     0.9151971   -0.2799882     0.0159272   -0.0274336 
   0.508750000     0.0163983   -0.0302456     0.9120255   -0.2900274     0.9119124   -0.2898144     0.0149036   -0.0277807 
   0.528700000     0.0152458   -0.0319572     0.9087381   -0.3010321     0.9090544   -0.3007038     0.0127412   -0.0285172 
   0.548650000     0.0141982   -0.0331486     0.9051808   -0.3124540     0.9055303   -0.3122308     0.0110864   -0.0296040 
   0.568600000     0.0126505   -0.0345455     0.9000547   -0.3234005     0.9003403   -0.3235640     0.0098111   -0.0307781 
   0.588550000     0.0112661   -0.0352633     0.8962184   -0.3328558     0.8958149   -0.3331147     0.0087503   -0.0314982 
   0.608500000     0.0101782   -0.0363281     0.8922783   -0.3431408     0.8919595   -0.3431355     0.0072617   -0.0317802 
   0.628450000     0.0090941   -0.0379344     0.8888606   -0.3541004     0.8887193   -0.3538290     0.0050670   -0.0325123 
   0.648400000     0.0073004   -0.0392785     0.8834439   -0.3651472     0.8837404   -0.3651946     0.0028067   -0.0333959 
   0.668350000     0.0053965   -0.0408351     0.8788375   -0.3755285     0.8787622   -0.3754915     0.0009157   -0.0349749 
   0.688300000     0.0035896   -0.0415962     0.8739015   -0.3854202     0.8734276   -0.3852224    -0.0000975   -0.0356907 
   0.708250000     0.0020971   -0.0424283     0.8696926   -0.3956091     0.8697621   -0.3952125    -0.0012582   -0.0360404 
   0.728200000     0.0003666   -0.0432821     0.8647292   -0.4065757     0.8648694   -0.4061967    -0.0029454   -0.0360971 
   0.748150000    -0.0015611   -0.0447589     0.8593000   -0.4169562     0.8591838   -0.4169513    -0.0056332   -0.0365839 
   0.768100000    -0.0036142   -0.0459658     0.8535072   -0.4265049     0.8533517   -0.4260732    -0.0076953   -0.0374800 
   0.788050000    -0.0055490   -0.0466033     0.8487968   -0.4364537     0.8489894   -0.4358833    -0.0093041   -0.0381692 
   0.808000000    -0.0076083   -0.0468636     0.8434472   -0.4465261     0.8436915   -0.4463499    -0.0109022   -0.0382057 
   0.827950000    -0.0092358   -0.0480553     0.8374985   -0.4572790     0.8377435   -0.4570135    -0.0128344   -0.0382888 
   0.847900000    -0.0110650   -0.0491417     0.8313206   -0.4665866     0.8314101   -0.4662023    -0.0153640   -0.0381492 
   0.867850000    -0.0131505   -0.0502083     0.8257145   -0.4757705     0.8259985   -0.4758480    -0.0177298   -0.0384264 
   0.887800000    -0.0155581   -0.0501040     0.8204638   -0.4857818     0.8205988   -0.4857878    -0.0201158   -0.0384868 
   0.907750000    -0.0174483   -0.0503228     0.8140886   -0.4961476     0.8135699   -0.4964965    -0.0215867   -0.0390803 
   0.927700000    -0.0196436   -0.0504650     0.8074884   -0.5056460     0.8067476   -0.5047716    -0.0230300   -0.0386323 
   0.947650000    -0.0215725   -0.0509925     0.8010067   -0.5145401     0.8011446   -0.5133891    -0.0246407   -0.0385080 
   0.967600000    -0.0238690   -0.0511529     0.7951091   -0.5239658     0.7959557   -0.5237173    -0.0270882   -0.0377549 
   0.987550000    -0.0265250   -0.0511369     0.7882217   -0.5338534     0.7882751   -0.5344354    -0.0294869   -0.0379478 
   1.007500000    -0.0291860   -0.0510755     0.7807230   -0.5427981     0.7802707   -0.5426467    -0.0318698   -0.0380974 
   1.027450000    -0.0312111   -0.0510582     0.7740679   -0.5507661     0.7743691   -0.5498570    -0.0335374   -0.0378485 
   1.047400000    -0.0332965   -0.0509229     0.7686726   -0.5598850     0.7702684   -0.5600181    -0.0350795   -0.0371861 
   1.067350000    -0.0358944   -0.0508518     0.7615454   -0.5700604     0.7620510   -0.5717038    -0.0375125   -0.0361238 
   1.087300000    -0.0387420   -0.0506684     0.7534133   -0.5796057     0.7524721   -0.5807396    -0.0399118   -0.0358853 
   1.107250000    -0.0416644   -0.0502979     0.7457535   -0.5869082     0.7441882   -0.5864987    -0.0425354   -0.0353669 
   1.127200000    -0.0442552   -0.0497257     0.7401668   -0.5960029     0.7405362   -0.5948102    -0.0447040   -0.0347336 
   1.147150000    -0.0468351   -0.0491329     0.7326578   -0.6057828     0.7338291   -0.6061718    -0.0470532   -0.0337166 
   1.167100000    -0.0493137   -0.0487625     0.7228619   -0.6151474     0.7231158   -0.6168089    -0.0495065   -0.0327478 
   1.187050000    -0.0520609   -0.0479275     0.7150803   -0.6214916     0.7135674   -0.6222857    -0.0519829   -0.0325209 
   1.207000000    -0.0547659   -0.0463185     0.7096700   -0.6299247     0.7083969   -0.6289343    -0.0545825   -0.0316295 
   1.226950000    -0.0574394   -0.0450108     0.7024190   -0.6403161     0.7018143   -0.6384854    -0.0564526   -0.0308767 
   1.246900000    -0.0594086   -0.0443225     0.6915756   -0.6509552     0.6929613   -0.6493576    -0.0581966   -0.0294713 
   1.266850000    -0.0621103   -0.0437558     0.6802610   -0.6561701     0.6822605   -0.6561077    -0.0605192   -0.0273653 
   1.286800000    -0.0648073   -0.0427083     0.6733477   -0.6605877     0.6745690   -0.6623632    -0.0632854   -0.0258617 
   1.306750000    -0.0674482   -0.0406396     0.6688149   -0.6684672     0.6679680   -0.6704021    -0.0654043   -0.0248294 
   1.326700000    -0.0706345   -0.0383936     0.6602118   -0.6796233     0.6585605   -0.6799459    -0.0680386   -0.0238206 
   1.346650000    -0.0734051   -0.0366135     0.6504842   -0.6875508     0.6494200   -0.6861187    -0.0703029   -0.0222626 
   1.366600000    -0.0762108   -0.0354616     0.6404011   -0.6938758     0.6403595   -0.6937992    -0.0726088   -0.0201031 
   1.386550000    -0.0789579   -0.0342037     0.6335395   -0.7011405     0.6324392   -0.7012050    -0.0751092   -0.0180505 
   1.406500000    -0.0812430   -0.0322687     0.6238542   -0.7098793     0.6225443   -0.7091125    -0.0776771   -0.0160827 
   1.426450000    -0.0844006   -0.0296876     0.6136269   -0.7165939     0.6130601   -0.7151873    -0.0802314   -0.0146654 
   1.446400000    -0.0870956   -0.0269887     0.6038192   -0.7216443     0.6042255   -0.7213663    -0.0825016   -0.0131582 
   1.466350000    -0.0894578   -0.0248907     0.5967340   -0.7292451     0.5962500   -0.7291721    -0.0844231   -0.0108874 
   1.486300000    -0.0917467   -0.0229870     0.5866258   -0.7374278     0.5852774   -0.7366021    -0.0864023   -0.0083261 
   1.506250000    -0.0942151   -0.0206995     0.5755956   -0.7441424     0.5757707   -0.7420552    -0.0890276   -0.0056091 
   1.526200000    -0.0962733   -0.0178736     0.5659094   -0.7476531     0.5661272   -0.7476031    -0.0914201   -0.0040335 
   1.546150000    -0.0983970   -0.0145560     0.5578151   -0.7546133     0.5576838   -0.7538456    -0.0935430   -0.0020354 
   1.566100000    -0.1008313   -0.0113371     0.5484301   -0.7614399     0.5476747   -0.7597898    -0.0952357    0.0004856 
   1.586050000    -0.1028976   -0.0083869     0.5375909   -0.7680576     0.5394632   -0.7664280    -0.0970591    0.0034811 
   1.606000000    -0.1052547   -0.0057348     0.5274262   -0.7722799     0.5290391   -0.7740129    -0.0989506    0.0064131 
   1.625950000    -0.1067907   -0.0030005     0.5180017   -0.7781892     0.5164109   -0.7807101    -0.1007627    0.0093091 
   1.645900000    -0.1086758    0.0009237     0.5081806   -0.7839574     0.5047446   -0.7821831    -0.1027071    0.0119316 
   1.665850000    -0.1105170    0.0050748     0.4974932   -0.7894776     0.4987190   -0.7850145    -0.1041344    0.0149005 
   1.685800000    -0.1126236    0.0082621     0.4880109   -0.7935464     0.4919956   -0.7939162    -0.1055185    0.0178961 
   1.705750000    -0.1142539    0.0114246     0.4776270   -0.7991893     0.4772922   -0.8033920    -0.1069976    0.0209973 
   1.725700000    -0.1158848    0.0151315     0.4673118   -0.8034244     0.4612830   -0.8029857    -0.1091364    0.0242197 
   1.745650000    -0.1173378    0.0198829     0.4574969   -0.8067374     0.4553854   -0.8003936    -0.1106947    0.0278829 
   1.765600000    -0.1181307    0.0243651     0.4499282   -0.8118474     0.4549266   -0.8069324    -0.1116566    0.0310302 
   1.785550000    -0.1192731    0.0276207     0.4393517   -0.8191084     0.4436998   -0.8213623    -0.1125302    0.0337305 
   1.805500000    -0.1207426    0.0311232     0.4260881   -0.8238811     0.4245045   -0.8266513    -0.1139099    0.0372207 
   1.825450000    -0.1226152    0.0362232     0.4140886   -0.8235230     0.4115819   -0.8217589    -0.1157557    0.0413006 
   1.845400000    -0.1222785    0.0408206     0.4084482   -0.8254473     0.4098930   -0.8228325    -0.1163308    0.0448330 
   1.865350000    -0.1226613    0.0447328     0.4008860   -0.8327648     0.4019988   -0.8339254    -0.1169898    0.0473909 
   1.885300000    -0.1226981    0.0489054     0.3881118   -0.8406236     0.3853190   -0.8405480    -0.1175104    0.0505704 
   1.905250000    -0.1236581    0.0530610     0.3731408   -0.8416448     0.3714184   -0.8368418    -0.1180401    0.0550855 
   1.925200000    -0.1234811    0.0573444     0.3643156   -0.8414688     0.3677471   -0.8369858    -0.1174617    0.0592324 
   1.945150000    -0.1232081    0.0618140     0.3567564   -0.8439780     0.3609050   -0.8443469    -0.1181524    0.0633837 
   1.965100000    -0.1235885    0.0664865     0.3462355   -0.8499157     0.3467204   -0.8501762    -0.1192711    0.0668287 
   1.985050000    -0.1229662    0.0716683     0.3345444   -0.8508897     0.3368617   -0.8483179    -0.1201993    0.0713610 
   2.005000000    -0.1223662    0.0765551     0.3259372   -0.8525289     0.3322217   -0.8529022    -0.1199922    0.0745936 
   2.024950000    -0.1211249    0.0798913     0.3184088   -0.8557267     0.3208012   -0.8619497    -0.1196662    0.0774778 
   2.044900000    -0.1201656    0.0840968     0.3076226   -0.8609553     0.3025331   -0.8637464    -0.1196293    0.0815745 
   2.064850000    -0.1187030    0.0891084     0.2970001   -0.8621522     0.2943491   -0.8560779    -0.1189769    0.0865284 
   2.084800000    -0.1173549    0.0939381     0.2877782   -0.8653903     0.2955945   -0.8613698    -0.1184630    0.0907011 
   2.104750000    -0.1162981    0.0982316     0.2779796   -0.8697247     0.2848911   -0.8771565    -0.1182600    0.0946477 
   2.124700000    -0.1151644    0.1022245     0.2638739   -0.8729298     0.2579305   -0.8811776    -0.1184755    0.0985017 
   2.144650000    -0.1130793    0.1080521     0.2537273   -0.8707919     0.2445046   -0.8652474    -0.1178872    0.1032571 
   2.164600000    -0.1094622    0.1124988     0.2475199   -0.8720922     0.2509735   -0.8604442    -0.1156777    0.1073907 
   2.184550000    -0.1080566    0.1167547     0.2398158   -0.8797458     0.2522210   -0.8772913    -0.1149784    0.1100124 
   2.204500000    -0.1069517    0.1214866     0.2220641   -0.8845831     0.2273720   -0.8922618    -0.1144791    0.1145879 
   2.224450000    -0.1053018    0.1263080     0.2079537   -0.8788677     0.2050088   -0.8815598    -0.1135181    0.1195820 
   2.244400000    -0.1017763    0.1317297     0.2028874   -0.8735054     0.2043473   -0.8698698    -0.1105997    0.1244275 
   2.264350000    -0.0986512    0.1344019     0.2016827   -0.8788540     0.2097387   -0.8796475    -0.1084558    0.1268516 
   2.284300000    -0.0975438    0.1386961     0.1894441   -0.8882084     0.1926032   -0.8958872    -0.1086577    0.1308403 
   2.304250000    -0.0951968    0.1433993     0.1725075   -0.8895992     0.1693366   -0.8931925    -0.1075988    0.1353383 
   2.324200000    -0.0916750    0.1480972     0.1608812   -0.8832507     0.1611249   -0.8819852    -0.1055270    0.1398599 
   2.344150000    -0.0872976    0.1508355     0.1573983   -0.8827179     0.1621956   -0.8851059    -0.1026345    0.1427092 
   2.364100000    -0.0838983    0.1539262     0.1509190   -0.8875635     0.1497652   -0.8942643    -0.1006751    0.1454064 
   2.384050000    -0.0805628    0.1578778     0.1392563   -0.8936484     0.1339016   -0.8938211    -0.0984582    0.1494950 
   2.404000000    -0.0761057    0.1618348     0.1254320   -0.8941565     0.1263250   -0.8890511    -0.0955715    0.1538784 
   2.423950000    -0.0726811    0.1656862     0.1131595   -0.8926980     0.1217361   -0.8941013    -0.0934940    0.1579984 
   2.443900000    -0.0685193    0.1693029     0.1055590   -0.8887306     0.1071671   -0.8993408    -0.0913657    0.1610016 
   2.463850000    -0.0643098    0.1726909     0.1018157   -0.8905128     0.0933352   -0.8952188    -0.0883656    0.1645516 
   2.483800000    -0.0592628    0.1750187     0.0948186   -0.8993286     0.0900725   -0.8928899    -0.0851686    0.1679319 
   2.503750000    -0.0554826    0.1793367     0.0746830   -0.9062789     0.0820285   -0.9022024    -0.0835879    0.1727346 
   2.523700000    -0.0511794    0.1834244     0.0565583   -0.8975633     0.0626148   -0.9055234    -0.0807772    0.1768395 
   2.543650000    -0.0459434    0.1865200     0.0539587   -0.8870105     0.0481999   -0.8945256    -0.0773719    0.1804915 
   2.563600000    -0.0404304    0.1871594     0.0594357   -0.8947020     0.0518875   -0.8898541    -0.0738472    0.1811633 
   2.583550000    -0.0383088    0.1894648     0.0430192   -0.9129277     0.0476237   -0.9038305    -0.0725345    0.1844389 
   2.603500000    -0.0328839    0.1942182     0.0135611   -0.9107253     0.0253104   -0.9136314    -0.0688075    0.1893765 
   2.623450000    -0.0275389    0.1961827     0.0019064   -0.8894349     0.0035437   -0.9009860    -0.0645788    0.1929305 
   2.643400000    -0.0214391    0.1974628     0.0145856   -0.8877507     0.0059763   -0.8915858    -0.0602387    0.1952062 
   2.663350000    -0.0182617    0.1990293     0.0078254   -0.9111481     0.0049046   -0.9018785    -0.0592979    0.1968288 
   2.683300000    -0.0127861    0.2041610    -0.0280555   -0.9205712    -0.0142445   -0.9136699    -0.0563655    0.2020114 
   2.703250000    -0.0062464    0.2049659    -0.0540488   -0.8920828    -0.0362138   -0.9028654    -0.0514117    0.2048706 
   2.723200000     0.0000688    0.2060383    -0.0395807   -0.8736455    -0.0352459   -0.8956056    -0.0456067    0.2070698 
   2.743150000     0.0041331    0.2069001    -0.0290157   -0.8906860    -0.0402271   -0.9053688    -0.0435365    0.2081739 
   2.763100000     0.0105366    0.2108351    -0.0529024   -0.9146487    -0.0637050   -0.9149020    -0.0412587    0.2127496 
   2.783050000     0.0180251    0.2107482    -0.0868081   -0.9001276    -0.0848837   -0.8974532    -0.0352916    0.2142329 
   2.803000000     0.0245018    0.2107683    -0.0860362   -0.8801807    -0.0792564   -0.8885452    -0.0293463    0.2153898 
   2.822950000     0.0288774    0.2103428    -0.0776378   -0.8868295    -0.0804265   -0.9024583    -0.0249814    0.2172070 
   2.842900000     0.0334157    0.2136781    -0.0961993   -0.9066963    -0.1092406   -0.9151596    -0.0224139    0.2229663 
   2.862850000     0.0417641    0.2124497    -0.1264741   -0.8947585    -0.1347400   -0.8910561    -0.0172055    0.2240363 
   2.882800000     0.0487181    0.2107355    -0.1269985   -0.8765867    -0.1254334   -0.8748962    -0.0127180    0.2240342 
   2.902750000     0.0533340    0.2092163    -0.1197708   -0.8844013    -0.1167009   -0.8915342    -0.0092590    0.2231304 
   2.922700000     0.0582448    0.2131071    -0.1421828   -0.9042212    -0.1468641   -0.9150865    -0.0052278    0.2285904 
   2.942650000     0.0655913    0.2109325    -0.1761270   -0.8877448    -0.1830410   -0.8926538     0.0035092    0.2299663 
   2.962600000     0.0707400    0.2092476    -0.1749440   -0.8622284    -0.1793034   -0.8662224     0.0079435    0.2312676 
   2.982550000     0.0767669    0.2069067    -0.1603701   -0.8693566    -0.1631158   -0.8752486     0.0107754    0.2308039 
   3.002500000     0.0821233    0.2094019    -0.1811836   -0.8939888    -0.1861150   -0.9023947     0.0123982    0.2343789 
   3.022450000     0.0911797    0.2067682    -0.2200282   -0.8785037    -0.2258337   -0.8869997     0.0206315    0.2347619 
   3.042400000     0.0955974    0.2055202    -0.2181712   -0.8454538    -0.2275642   -0.8558222     0.0255916    0.2346740 
   3.062350000     0.1012074    0.2029498    -0.1935089   -0.8527263    -0.2078739   -0.8590679     0.0311284    0.2339663 
   3.082300000     0.1051055    0.2046159    -0.2093523   -0.8904935    -0.2249957   -0.8874761     0.0312106    0.2373821 
   3.102250000     0.1166359    0.2009195    -0.2650501   -0.8859213    -0.2668814   -0.8785214     0.0403894    0.2399789 
   3.122200000     0.1202686    0.1959312    -0.2779449   -0.8372492    -0.2736826   -0.8454013     0.0436415    0.2363668 
   3.142150000     0.1256416    0.1938482    -0.2451593   -0.8247453    -0.2552917   -0.8447862     0.0499560    0.2361734 
