! 5/10/2016 1:42:42 PM
! C:\ANRITSUVNA\DATA\INFINEON-SP2T-STATE1-C-RX1.S2P
! CHANNEL.1
! TR.MEASUREMENT
! CORRECTED.DATA
# GHZ S RI R 50.0
! FREQ.GHZ         S11RE         S11IM         S21RE         S21IM         S12RE         S12IM         S22RE         S22IM         
!; PortSelection: Port_12
   0.010000000     0.0295954   -0.0018863    -0.0000188    0.0001438    -0.0000127    0.0001279    -0.6586773    0.0191471 
   0.029950000     0.0293367   -0.0024616    -0.0000387    0.0004056    -0.0000282    0.0003949    -0.6544845    0.0246521 
   0.049900000     0.0292863   -0.0036880    -0.0000275    0.0006787    -0.0000204    0.0006730    -0.6531957    0.0404912 
   0.069850000     0.0291465   -0.0052935    -0.0000159    0.0009570    -0.0000129    0.0009527    -0.6516829    0.0561251 
   0.089800000     0.0291863   -0.0066326     0.0000013    0.0012317     0.0000029    0.0012208    -0.6498072    0.0716617 
   0.109750000     0.0290678   -0.0080197    -0.0000001    0.0015196     0.0000097    0.0014992    -0.6476669    0.0869761 
   0.129700000     0.0287731   -0.0094181     0.0000319    0.0017930     0.0000327    0.0017843    -0.6451741    0.1021784 
   0.149650000     0.0284725   -0.0109158     0.0000620    0.0020733     0.0000646    0.0020554    -0.6421421    0.1174632 
   0.169600000     0.0282416   -0.0122303     0.0000821    0.0023489     0.0000851    0.0023463    -0.6388860    0.1332104 
   0.189550000     0.0278990   -0.0136404     0.0001092    0.0026248     0.0001193    0.0026273    -0.6355124    0.1483926 
   0.209500000     0.0272085   -0.0149861     0.0001405    0.0029078     0.0001460    0.0028969    -0.6321265    0.1630300 
   0.229450000     0.0270320   -0.0164539     0.0001900    0.0031852     0.0002003    0.0031635    -0.6278366    0.1772897 
   0.249400000     0.0265751   -0.0179473     0.0002344    0.0034728     0.0002310    0.0034557    -0.6232915    0.1919285 
   0.269350000     0.0262722   -0.0190871     0.0002793    0.0037470     0.0002862    0.0037446    -0.6180955    0.2064277 
   0.289300000     0.0252093   -0.0204961     0.0003175    0.0040186     0.0003328    0.0040259    -0.6134042    0.2207102 
   0.309250000     0.0246915   -0.0218827     0.0003647    0.0043254     0.0004087    0.0042946    -0.6080404    0.2341022 
   0.329200000     0.0240205   -0.0233053     0.0004593    0.0046303     0.0004567    0.0045744    -0.6020447    0.2479771 
   0.349150000     0.0235068   -0.0245437     0.0005620    0.0048773     0.0005195    0.0048582    -0.5952793    0.2620010 
   0.369100000     0.0226768   -0.0257383     0.0005864    0.0051107     0.0005936    0.0051311    -0.5884902    0.2767771 
   0.389050000     0.0217054   -0.0268879     0.0006193    0.0054231     0.0006655    0.0054036    -0.5818390    0.2905806 
   0.409000000     0.0208613   -0.0282573     0.0007372    0.0057463     0.0007499    0.0056785    -0.5750279    0.3038909 
   0.428950000     0.0198995   -0.0294292     0.0008543    0.0059859     0.0008193    0.0059620    -0.5680707    0.3164378 
   0.448900000     0.0188815   -0.0306070     0.0009129    0.0062012     0.0008919    0.0062502    -0.5601011    0.3292946 
   0.468850000     0.0175065   -0.0316092     0.0008981    0.0065100     0.0009824    0.0065401    -0.5517328    0.3423207 
   0.488800000     0.0162167   -0.0329313     0.0010069    0.0069113     0.0010848    0.0068219    -0.5426807    0.3560604 
   0.508750000     0.0150095   -0.0341729     0.0012257    0.0072223     0.0011850    0.0070942    -0.5344370    0.3694053 
   0.528700000     0.0137042   -0.0353624     0.0013896    0.0073865     0.0012980    0.0073757    -0.5261720    0.3817489 
   0.548650000     0.0125178   -0.0364605     0.0013965    0.0075967     0.0013986    0.0076437    -0.5181553    0.3930060 
   0.568600000     0.0109412   -0.0373078     0.0014223    0.0079695     0.0014007    0.0079758    -0.5085901    0.4042463 
   0.588550000     0.0092332   -0.0382445     0.0016138    0.0083781     0.0015175    0.0082058    -0.4989288    0.4159569 
   0.608500000     0.0074550   -0.0391006     0.0018766    0.0086096     0.0016467    0.0085440    -0.4888806    0.4279527 
   0.628450000     0.0056416   -0.0402210     0.0019948    0.0087625     0.0018010    0.0088069    -0.4800549    0.4391471 
   0.648400000     0.0041050   -0.0411375     0.0019730    0.0089912     0.0019773    0.0090967    -0.4704525    0.4489331 
   0.668350000     0.0022913   -0.0422151     0.0020435    0.0094142     0.0020242    0.0093479    -0.4605428    0.4587235 
   0.688300000     0.0004922   -0.0430779     0.0022340    0.0097272     0.0021493    0.0096165    -0.4491412    0.4685020 
   0.708250000    -0.0014320   -0.0437843     0.0024004    0.0099721     0.0022548    0.0099154    -0.4380060    0.4793298 
   0.728200000    -0.0034608   -0.0444909     0.0025474    0.0101283     0.0024009    0.0102003    -0.4269959    0.4893147 
   0.748150000    -0.0056178   -0.0452955     0.0026523    0.0104072     0.0026380    0.0104361    -0.4160814    0.4989285 
   0.768100000    -0.0077141   -0.0459766     0.0027627    0.0108044     0.0027285    0.0107538    -0.4050759    0.5074045 
   0.788050000    -0.0094344   -0.0467701     0.0030085    0.0110197     0.0029145    0.0110040    -0.3932029    0.5160914 
   0.808000000    -0.0117806   -0.0471433     0.0031789    0.0111928     0.0031278    0.0112408    -0.3814361    0.5248249 
   0.827950000    -0.0140145   -0.0478397     0.0033345    0.0113626     0.0033473    0.0114653    -0.3693854    0.5334563 
   0.847900000    -0.0162646   -0.0484479     0.0034203    0.0116317     0.0034293    0.0116132    -0.3578353    0.5412689 
   0.867850000    -0.0182872   -0.0491240     0.0035079    0.0118854     0.0034864    0.0118246    -0.3461180    0.5486475 
   0.887800000    -0.0201995   -0.0490401     0.0036361    0.0121343     0.0035198    0.0121430    -0.3346375    0.5562334 
   0.907750000    -0.0222528   -0.0493116     0.0037577    0.0124335     0.0036980    0.0125680    -0.3217790    0.5632858 
   0.927700000    -0.0245415   -0.0490948     0.0038861    0.0127471     0.0038876    0.0128906    -0.3087882    0.5706165 
   0.947650000    -0.0268137   -0.0491960     0.0041115    0.0131368     0.0040660    0.0131571    -0.2957087    0.5772139 
   0.967600000    -0.0290362   -0.0489268     0.0043122    0.0134030     0.0043244    0.0135642    -0.2831845    0.5840567 
   0.987550000    -0.0313341   -0.0486131     0.0044901    0.0136646     0.0045276    0.0138087    -0.2706589    0.5896249 
   1.007500000    -0.0337946   -0.0483836     0.0045857    0.0140240     0.0046837    0.0140626    -0.2573439    0.5952352 
   1.027450000    -0.0362365   -0.0481687     0.0048779    0.0144665     0.0048632    0.0143394    -0.2434976    0.6005161 
   1.047400000    -0.0386560   -0.0475073     0.0052732    0.0146953     0.0051739    0.0146666    -0.2299325    0.6064292 
   1.067350000    -0.0411449   -0.0469291     0.0055298    0.0147509     0.0054395    0.0149670    -0.2167992    0.6112107 
   1.087300000    -0.0437607   -0.0461371     0.0056040    0.0149629     0.0057139    0.0151811    -0.2034635    0.6159120 
   1.107250000    -0.0464272   -0.0454484     0.0058923    0.0154779     0.0059143    0.0154043    -0.1903048    0.6194682 
   1.127200000    -0.0490304   -0.0449939     0.0062762    0.0156657     0.0061217    0.0157832    -0.1759296    0.6237456 
   1.147150000    -0.0514752   -0.0440889     0.0065887    0.0157633     0.0064077    0.0160537    -0.1627047    0.6275041 
   1.167100000    -0.0537618   -0.0431152     0.0065346    0.0159104     0.0067615    0.0162118    -0.1486288    0.6309991 
   1.187050000    -0.0561844   -0.0421692     0.0067845    0.0164304     0.0069288    0.0164625    -0.1357130    0.6335453 
   1.207000000    -0.0587286   -0.0408900     0.0073695    0.0167877     0.0071940    0.0167865    -0.1215990    0.6361999 
   1.226950000    -0.0613458   -0.0396172     0.0078077    0.0165544     0.0075311    0.0169918    -0.1074721    0.6381426 
   1.246900000    -0.0638197   -0.0385035     0.0076673    0.0164828     0.0077724    0.0172980    -0.0929626    0.6408786 
   1.266850000    -0.0660175   -0.0370571     0.0074336    0.0170729     0.0081072    0.0174705    -0.0792775    0.6424076 
   1.286800000    -0.0683384   -0.0354848     0.0078415    0.0179888     0.0082946    0.0177546    -0.0652836    0.6439992 
   1.306750000    -0.0703578   -0.0333830     0.0086920    0.0181523     0.0086409    0.0179791    -0.0522203    0.6450948 
   1.326700000    -0.0730290   -0.0311544     0.0091630    0.0179990     0.0089960    0.0182086    -0.0377701    0.6455035 
   1.346650000    -0.0757089   -0.0293985     0.0091361    0.0180228     0.0092750    0.0184455    -0.0247308    0.6467218 
   1.366600000    -0.0784028   -0.0275501     0.0093860    0.0184818     0.0095737    0.0186640    -0.0094323    0.6463872 
   1.386550000    -0.0807517   -0.0256613     0.0097798    0.0185707     0.0100216    0.0188565     0.0033822    0.6467202 
   1.406500000    -0.0827158   -0.0236482     0.0100885    0.0185169     0.0102871    0.0189436     0.0169017    0.6463103 
   1.426450000    -0.0849444   -0.0211065     0.0101067    0.0188099     0.0104342    0.0192545     0.0297115    0.6458269 
   1.446400000    -0.0872933   -0.0185334     0.0103397    0.0193104     0.0107973    0.0194994     0.0438351    0.6441934 
   1.466350000    -0.0898798   -0.0162199     0.0109023    0.0194954     0.0111404    0.0196574     0.0580451    0.6429211 
   1.486300000    -0.0918698   -0.0139576     0.0111737    0.0193584     0.0114592    0.0197852     0.0717229    0.6410210 
   1.506250000    -0.0934209   -0.0115274     0.0111004    0.0195374     0.0116781    0.0199914     0.0843280    0.6403260 
   1.526200000    -0.0952709   -0.0087033     0.0112675    0.0199848     0.0120227    0.0200848     0.0985465    0.6370831 
   1.546150000    -0.0972005   -0.0055757     0.0116231    0.0203556     0.0122012    0.0203832     0.1104020    0.6354064 
   1.566100000    -0.0991881   -0.0022290     0.0119964    0.0205395     0.0124776    0.0206433     0.1240812    0.6324310 
   1.586050000    -0.1009906    0.0004312     0.0121250    0.0207980     0.0127414    0.0209915     0.1380689    0.6304008 
   1.606000000    -0.1025698    0.0034339     0.0123897    0.0211828     0.0131550    0.0213259     0.1505748    0.6273955 
   1.625950000    -0.1038541    0.0064323     0.0128234    0.0214788     0.0136408    0.0216521     0.1640672    0.6239262 
   1.645900000    -0.1050010    0.0099471     0.0131931    0.0218131     0.0139442    0.0217447     0.1767859    0.6195840 
   1.665850000    -0.1063408    0.0133348     0.0135007    0.0222651     0.0142889    0.0220788     0.1902568    0.6153545 
   1.685800000    -0.1077866    0.0166554     0.0138785    0.0224139     0.0148369    0.0223779     0.2032453    0.6113510 
   1.705750000    -0.1089452    0.0202850     0.0142899    0.0226421     0.0153424    0.0225302     0.2158799    0.6066000 
   1.725700000    -0.1097938    0.0237216     0.0145715    0.0230226     0.0156817    0.0225425     0.2278082    0.6017005 
   1.745650000    -0.1108729    0.0273643     0.0151054    0.0235489     0.0158969    0.0227961     0.2406030    0.5958244 
   1.765600000    -0.1116541    0.0312786     0.0159429    0.0237952     0.0163523    0.0231844     0.2536317    0.5906628 
   1.785550000    -0.1126610    0.0349873     0.0164873    0.0235247     0.0170932    0.0235233     0.2656395    0.5847581 
   1.805500000    -0.1132327    0.0386073     0.0163684    0.0235365     0.0175846    0.0233857     0.2774476    0.5792822 
   1.825450000    -0.1135026    0.0424527     0.0164344    0.0243663     0.0177605    0.0233810     0.2887290    0.5727397 
   1.845400000    -0.1136572    0.0464051     0.0174127    0.0252613     0.0181111    0.0238229     0.3007212    0.5662702 
   1.865350000    -0.1141468    0.0504139     0.0185351    0.0250143     0.0188921    0.0241286     0.3124658    0.5587737 
   1.885300000    -0.1141922    0.0543954     0.0188429    0.0245117     0.0196317    0.0241008     0.3247819    0.5512615 
   1.905250000    -0.1142951    0.0583084     0.0188072    0.0248281     0.0200737    0.0240891     0.3364923    0.5435640 
   1.925200000    -0.1138809    0.0619857     0.0194063    0.0255113     0.0204146    0.0242101     0.3482268    0.5358015 
   1.945150000    -0.1134384    0.0661118     0.0204185    0.0256287     0.0211253    0.0243069     0.3578846    0.5283886 
   1.965100000    -0.1134088    0.0706614     0.0207925    0.0252525     0.0214686    0.0240862     0.3675587    0.5207135 
   1.985050000    -0.1130548    0.0746015     0.0210604    0.0257274     0.0218879    0.0242175     0.3774297    0.5120286 
   2.005000000    -0.1128573    0.0785008     0.0218477    0.0260981     0.0223576    0.0243079     0.3879938    0.5027151 
   2.024950000    -0.1119337    0.0821065     0.0227001    0.0258040     0.0230118    0.0240691     0.3974152    0.4937902 
   2.044900000    -0.1107201    0.0864188     0.0229427    0.0253483     0.0232078    0.0236663     0.4074661    0.4853898 
   2.064850000    -0.1094610    0.0908415     0.0229251    0.0255837     0.0229661    0.0236810     0.4162380    0.4774745 
   2.084800000    -0.1083442    0.0953814     0.0233623    0.0261196     0.0229171    0.0243141     0.4260338    0.4689908 
   2.104750000    -0.1070196    0.0996551     0.0238935    0.0260447     0.0236840    0.0248628     0.4354433    0.4608941 
   2.124700000    -0.1051418    0.1034054     0.0237206    0.0262164     0.0243139    0.0248707     0.4456522    0.4518549 
   2.144650000    -0.1028795    0.1078760     0.0240584    0.0272936     0.0243074    0.0248187     0.4547649    0.4424181 
   2.164600000    -0.1005282    0.1120473     0.0253659    0.0282270     0.0244340    0.0256642     0.4645684    0.4316186 
   2.184550000    -0.0985380    0.1167538     0.0267834    0.0278773     0.0254950    0.0266441     0.4736800    0.4210890 
   2.204500000    -0.0966169    0.1208058     0.0269605    0.0270857     0.0269404    0.0265988     0.4829598    0.4094553 
   2.224450000    -0.0947929    0.1246170     0.0266434    0.0278582     0.0276122    0.0259744     0.4913423    0.3997414 
   2.244400000    -0.0923788    0.1280089     0.0280140    0.0292023     0.0277480    0.0260135     0.4984654    0.3869955 
   2.264350000    -0.0895378    0.1320985     0.0303764    0.0290329     0.0283785    0.0264444     0.5060834    0.3763404 
   2.284300000    -0.0871264    0.1360356     0.0310552    0.0275070     0.0295498    0.0263849     0.5124088    0.3647521 
   2.304250000    -0.0846670    0.1398634     0.0304496    0.0272545     0.0299895    0.0258389     0.5197015    0.3547079 
   2.324200000    -0.0821200    0.1433470     0.0305476    0.0283843     0.0299976    0.0259155     0.5255018    0.3428299 
   2.344150000    -0.0787550    0.1463501     0.0321396    0.0292335     0.0305379    0.0264734     0.5327858    0.3312696 
   2.364100000    -0.0750131    0.1496329     0.0336130    0.0288111     0.0316243    0.0266454     0.5392188    0.3185326 
   2.384050000    -0.0715044    0.1529109     0.0345242    0.0281367     0.0324387    0.0262987     0.5459682    0.3065093 
   2.404000000    -0.0679390    0.1565732     0.0350840    0.0277673     0.0328774    0.0262098     0.5516069    0.2946211 
   2.423950000    -0.0646304    0.1597792     0.0355379    0.0278103     0.0336465    0.0264457     0.5569636    0.2828023 
   2.443900000    -0.0609095    0.1628621     0.0361362    0.0280232     0.0344945    0.0260902     0.5611617    0.2702427 
   2.463850000    -0.0568388    0.1658794     0.0375275    0.0284598     0.0348788    0.0260785     0.5667967    0.2584052 
   2.483800000    -0.0522068    0.1687708     0.0397816    0.0275224     0.0356983    0.0263163     0.5718958    0.2453935 
   2.503750000    -0.0483802    0.1716106     0.0399418    0.0254674     0.0366989    0.0260750     0.5751013    0.2330175 
   2.523700000    -0.0445959    0.1748531     0.0387703    0.0255517     0.0376824    0.0254160     0.5784336    0.2204723 
   2.543650000    -0.0405988    0.1774044     0.0395416    0.0272202     0.0378841    0.0246311     0.5812581    0.2076569 
   2.563600000    -0.0364370    0.1796162     0.0427575    0.0267870     0.0378073    0.0246809     0.5841848    0.1950435 
   2.583550000    -0.0322799    0.1817597     0.0436931    0.0233161     0.0386855    0.0249585     0.5871322    0.1825489 
   2.603500000    -0.0273824    0.1844560     0.0411662    0.0219966     0.0394333    0.0243541     0.5904627    0.1703598 
   2.623450000    -0.0228243    0.1866263     0.0399101    0.0243987     0.0393385    0.0234858     0.5925571    0.1582446 
   2.643400000    -0.0181548    0.1888367     0.0429316    0.0261401     0.0387333    0.0237552     0.5954043    0.1465924 
   2.663350000    -0.0132497    0.1907337     0.0454233    0.0230691     0.0391838    0.0244736     0.5976099    0.1345254 
   2.683300000    -0.0080008    0.1928727     0.0426570    0.0204767     0.0401726    0.0246515     0.6003327    0.1217370 
   2.703250000    -0.0029741    0.1946181     0.0395816    0.0229096     0.0404197    0.0241621     0.6024470    0.1089475 
   2.723200000     0.0023490    0.1963363     0.0416080    0.0273596     0.0402390    0.0248685     0.6060628    0.0958331 
   2.743150000     0.0072602    0.1978850     0.0467117    0.0270447     0.0410849    0.0259153     0.6079378    0.0828172 
   2.763100000     0.0129839    0.1987571     0.0472913    0.0233741     0.0426150    0.0262800     0.6105672    0.0681993 
   2.783050000     0.0188756    0.1994222     0.0447682    0.0238342     0.0434524    0.0260133     0.6113870    0.0526903 
   2.803000000     0.0248527    0.2002315     0.0461293    0.0274243     0.0440560    0.0267479     0.6127425    0.0363616 
   2.822950000     0.0300562    0.2002858     0.0516814    0.0274138     0.0464481    0.0277467     0.6126153    0.0222214 
   2.842900000     0.0345326    0.2000843     0.0532436    0.0225183     0.0492678    0.0263207     0.6104295    0.0081295 
   2.862850000     0.0396645    0.2000274     0.0502287    0.0214577     0.0492727    0.0242786     0.6072793   -0.0043232 
   2.882800000     0.0459059    0.1995135     0.0509648    0.0245141     0.0485635    0.0246173     0.6063575   -0.0195363 
   2.902750000     0.0517243    0.1997363     0.0554797    0.0238237     0.0499811    0.0257960     0.6047148   -0.0344069 
   2.922700000     0.0567176    0.1998479     0.0560921    0.0192121     0.0529645    0.0251970     0.6028336   -0.0492858 
   2.942650000     0.0612850    0.1993996     0.0529930    0.0185645     0.0539604    0.0225168     0.6000144   -0.0618434 
   2.962600000     0.0663765    0.1982425     0.0534819    0.0217686     0.0530335    0.0215989     0.5967023   -0.0750967 
   2.982550000     0.0714956    0.1970147     0.0583431    0.0211966     0.0534419    0.0224411     0.5923902   -0.0876895 
   3.002500000     0.0773247    0.1963427     0.0587902    0.0158808     0.0556893    0.0221163     0.5885088   -0.1010177 
   3.022450000     0.0827029    0.1958553     0.0543673    0.0152067     0.0561978    0.0196740     0.5846861   -0.1141635 
   3.042400000     0.0879169    0.1953271     0.0540469    0.0197376     0.0545589    0.0188786     0.5813317   -0.1272964 
   3.062350000     0.0927630    0.1942127     0.0600266    0.0207352     0.0545046    0.0205168     0.5782636   -0.1400000 
   3.082300000     0.0982860    0.1925718     0.0623025    0.0141410     0.0568346    0.0212979     0.5734985   -0.1528032 
   3.102250000     0.1039497    0.1903192     0.0567969    0.0118699     0.0586805    0.0195095     0.5681404   -0.1669772 
   3.122200000     0.1098025    0.1887423     0.0547119    0.0171066     0.0581784    0.0182256     0.5620308   -0.1814731 
   3.142150000     0.1148992    0.1869735     0.0610633    0.0207893     0.0584542    0.0193738     0.5563536   -0.1964074 
