! 5/5/2016 5:10:10 PM
! C:\ANRITSUVNA\DATA\INFINEON-SP4T-STATE01-C-RX5.S2P
! CHANNEL.1
! TR.MEASUREMENT
! CORRECTED.DATA
# GHZ S RI R 50.0
! FREQ.GHZ         S11RE         S11IM         S21RE         S21IM         S12RE         S12IM         S22RE         S22IM         
!; PortSelection: Port_12
   0.010000000    -0.9730098    0.0883777     0.0000043    0.0000193    -0.0000004    0.0000268    -0.7850931    0.0228408 
   0.014987500    -0.9612042    0.1263169     0.0000050    0.0000393     0.0000278    0.0000191    -0.7821352    0.0222719 
   0.019975000    -0.9478533    0.1625617    -0.0000157    0.0000146    -0.0000218    0.0000239    -0.7818739    0.0291749 
   0.024962500    -0.9331033    0.1973037    -0.0000238    0.0000270    -0.0000248    0.0000211    -0.7812392    0.0361053 
   0.029950000    -0.9170240    0.2299342    -0.0000285    0.0000369    -0.0000373    0.0000348    -0.7808822    0.0430076 
   0.034937500    -0.8995272    0.2606310    -0.0000391    0.0000432    -0.0000477    0.0000428    -0.7803463    0.0499967 
   0.039925000    -0.8807493    0.2900035    -0.0000580    0.0000453    -0.0000630    0.0000464    -0.7796837    0.0566104 
   0.044912500    -0.8611341    0.3172849    -0.0000816    0.0000579    -0.0000750    0.0000629    -0.7790244    0.0636113 
   0.049900000    -0.8401840    0.3431022    -0.0000952    0.0000761    -0.0000930    0.0000772    -0.7780617    0.0704411 
   0.054887500    -0.8181512    0.3672111    -0.0001039    0.0000900    -0.0001086    0.0000901    -0.7772928    0.0770855 
   0.059875000    -0.7956221    0.3895836    -0.0001169    0.0000989    -0.0001285    0.0000987    -0.7763275    0.0839475 
   0.064862500    -0.7728543    0.4102788    -0.0001414    0.0001166    -0.0001426    0.0001194    -0.7756038    0.0906666 
   0.069850000    -0.7492751    0.4293780    -0.0001624    0.0001411    -0.0001564    0.0001422    -0.7745173    0.0976264 
   0.074837500    -0.7254435    0.4466130    -0.0001746    0.0001599    -0.0001741    0.0001606    -0.7735431    0.1042370 
   0.079825000    -0.7014573    0.4623592    -0.0002009    0.0001835    -0.0001943    0.0001827    -0.7724429    0.1110671 
   0.084812500    -0.6773334    0.4762273    -0.0002237    0.0002109    -0.0002147    0.0002066    -0.7714329    0.1175487 
   0.089800000    -0.6530956    0.4890500    -0.0002352    0.0002267    -0.0002351    0.0002351    -0.7700989    0.1243407 
   0.094787500    -0.6288095    0.5002051    -0.0002628    0.0002592    -0.0002590    0.0002635    -0.7688564    0.1310128 
   0.099775000    -0.6048424    0.5101633    -0.0002804    0.0002846    -0.0002875    0.0002890    -0.7675312    0.1375802 
   0.104762500    -0.5810878    0.5188258    -0.0003110    0.0003294    -0.0003010    0.0003218    -0.7660781    0.1442114 
   0.109750000    -0.5578368    0.5262489    -0.0003288    0.0003568    -0.0003157    0.0003565    -0.7646996    0.1508395 
   0.114737500    -0.5348575    0.5325443    -0.0003442    0.0003857    -0.0003376    0.0003883    -0.7633870    0.1574633 
   0.119725000    -0.5125977    0.5376353    -0.0003523    0.0004286    -0.0003510    0.0004320    -0.7618482    0.1641819 
   0.124712500    -0.4902439    0.5413110    -0.0003574    0.0004665    -0.0003548    0.0004625    -0.7602471    0.1706313 
   0.129700000    -0.4683097    0.5443245    -0.0003700    0.0004962    -0.0003711    0.0004834    -0.7586381    0.1772531 
   0.134687500    -0.4471391    0.5464983    -0.0003872    0.0005185    -0.0003841    0.0005182    -0.7567745    0.1835469 
   0.139675000    -0.4262505    0.5480345    -0.0004084    0.0005590    -0.0003997    0.0005460    -0.7549970    0.1903145 
   0.144662500    -0.4058868    0.5486378    -0.0004205    0.0005922    -0.0004113    0.0005847    -0.7530855    0.1967430 
   0.149650000    -0.3859056    0.5486012    -0.0004282    0.0006295    -0.0004212    0.0006217    -0.7511291    0.2030499 
   0.154637500    -0.3668474    0.5480511    -0.0004447    0.0006692    -0.0004341    0.0006671    -0.7493460    0.2095698 
   0.159625000    -0.3483113    0.5466929    -0.0004566    0.0007047    -0.0004495    0.0007020    -0.7473937    0.2162334 
   0.164612500    -0.3304564    0.5447105    -0.0004720    0.0007518    -0.0004638    0.0007397    -0.7454312    0.2227525 
   0.169600000    -0.3129867    0.5422270    -0.0004855    0.0007872    -0.0004694    0.0007870    -0.7429321    0.2289224 
   0.174587500    -0.2958062    0.5393352    -0.0004880    0.0008260    -0.0004797    0.0008291    -0.7410261    0.2354009 
   0.179575000    -0.2792535    0.5359632    -0.0005033    0.0008709    -0.0004957    0.0008696    -0.7388054    0.2418519 
   0.184562500    -0.2635878    0.5322540    -0.0005138    0.0009124    -0.0005045    0.0009181    -0.7366052    0.2483565 
   0.189550000    -0.2483038    0.5282695    -0.0005190    0.0009627    -0.0005155    0.0009532    -0.7342752    0.2544805 
   0.194537500    -0.2334733    0.5237842    -0.0005330    0.0010010    -0.0005234    0.0009955    -0.7321400    0.2607400 
   0.199525000    -0.2193482    0.5190140    -0.0005441    0.0010465    -0.0005352    0.0010392    -0.7296941    0.2670934 
   0.204512500    -0.2057444    0.5137679    -0.0005485    0.0010906    -0.0005443    0.0010822    -0.7273394    0.2733409 
   0.209500000    -0.1926594    0.5084404    -0.0005540    0.0011423    -0.0005459    0.0011271    -0.7249179    0.2793580 
   0.214487500    -0.1797523    0.5026822    -0.0005545    0.0011836    -0.0005549    0.0011770    -0.7221242    0.2855923 
   0.219475000    -0.1674333    0.4968382    -0.0005566    0.0012323    -0.0005540    0.0012158    -0.7194547    0.2917894 
   0.224462500    -0.1553895    0.4908336    -0.0005523    0.0012785    -0.0005548    0.0012650    -0.7167631    0.2976887 
   0.229450000    -0.1439890    0.4849235    -0.0005499    0.0013281    -0.0005501    0.0013020    -0.7138181    0.3038726 
   0.234437500    -0.1328366    0.4788161    -0.0005579    0.0013686    -0.0005515    0.0013535    -0.7110341    0.3098997 
   0.239425000    -0.1221629    0.4725112    -0.0005422    0.0014120    -0.0005452    0.0013991    -0.7080878    0.3160805 
   0.244412500    -0.1123856    0.4661957    -0.0005467    0.0014562    -0.0005393    0.0014504    -0.7054350    0.3220835 
   0.249400000    -0.1025270    0.4596410    -0.0005428    0.0015064    -0.0005401    0.0014950    -0.7024248    0.3277723 
   0.254387500    -0.0930475    0.4528584    -0.0005421    0.0015493    -0.0005398    0.0015410    -0.6994755    0.3335287 
   0.259375000    -0.0840732    0.4461774    -0.0005349    0.0015903    -0.0005387    0.0015867    -0.6964986    0.3394050 
   0.264362500    -0.0751620    0.4395735    -0.0005360    0.0016386    -0.0005361    0.0016241    -0.6936008    0.3451368 
   0.269350000    -0.0671012    0.4331012    -0.0005352    0.0016774    -0.0005374    0.0016729    -0.6905435    0.3509645 
   0.274337500    -0.0588640    0.4265633    -0.0005317    0.0017285    -0.0005360    0.0017236    -0.6878279    0.3567131 
   0.279325000    -0.0513628    0.4198368    -0.0005443    0.0017682    -0.0005400    0.0017643    -0.6846709    0.3624733 
   0.284312500    -0.0439939    0.4131174    -0.0005358    0.0018216    -0.0005356    0.0018068    -0.6815950    0.3683274 
   0.289300000    -0.0374199    0.4063769    -0.0005314    0.0018716    -0.0005249    0.0018623    -0.6784648    0.3739069 
   0.294287500    -0.0307228    0.3995311    -0.0005169    0.0019144    -0.0005192    0.0019024    -0.6751590    0.3793870 
   0.299275000    -0.0242974    0.3925980    -0.0005121    0.0019611    -0.0005095    0.0019546    -0.6717800    0.3848104 
   0.304262500    -0.0180145    0.3856942    -0.0005027    0.0020188    -0.0004969    0.0020034    -0.6681439    0.3906400 
   0.309250000    -0.0123996    0.3788503    -0.0004913    0.0020688    -0.0004851    0.0020427    -0.6644595    0.3962486 
   0.314237500    -0.0065502    0.3721970    -0.0004766    0.0021111    -0.0004646    0.0020994    -0.6604005    0.4017766 
   0.319225000    -0.0013068    0.3655164    -0.0004687    0.0021561    -0.0004588    0.0021435    -0.6567424    0.4076207 
   0.324212500     0.0036984    0.3588931    -0.0004491    0.0022089    -0.0004439    0.0021908    -0.6527622    0.4135469 
   0.329200000     0.0085448    0.3523512    -0.0004471    0.0022589    -0.0004413    0.0022238    -0.6488595    0.4192949 
   0.334187500     0.0131724    0.3454772    -0.0004223    0.0023070    -0.0004272    0.0022733    -0.6448981    0.4243572 
   0.339175000     0.0176714    0.3389285    -0.0004074    0.0023462    -0.0004140    0.0023303    -0.6406817    0.4300313 
   0.344162500     0.0217580    0.3323208    -0.0003889    0.0023896    -0.0004001    0.0023731    -0.6366524    0.4356134 
   0.349150000     0.0257131    0.3259705    -0.0003840    0.0024295    -0.0003842    0.0024190    -0.6327945    0.4410982 
   0.354137500     0.0297031    0.3195135    -0.0003682    0.0024584    -0.0003767    0.0024631    -0.6286868    0.4462302 
   0.359125000     0.0333809    0.3132398    -0.0003635    0.0025012    -0.0003619    0.0025136    -0.6248749    0.4519777 
   0.364112500     0.0367368    0.3072072    -0.0003558    0.0025556    -0.0003651    0.0025624    -0.6210334    0.4572874 
   0.369100000     0.0398282    0.3010189    -0.0003498    0.0026009    -0.0003552    0.0026066    -0.6171304    0.4625832 
   0.374087500     0.0427872    0.2949772    -0.0003501    0.0026368    -0.0003327    0.0026462    -0.6133274    0.4674615 
   0.379075000     0.0455063    0.2885752    -0.0003449    0.0027034    -0.0003249    0.0027098    -0.6096538    0.4725290 
   0.384062500     0.0482572    0.2824820    -0.0003289    0.0027656    -0.0003032    0.0027548    -0.6055396    0.4773623 
   0.389050000     0.0508119    0.2764859    -0.0003203    0.0028196    -0.0002965    0.0028049    -0.6016918    0.4824814 
   0.394037500     0.0532399    0.2704771    -0.0002930    0.0028716    -0.0002672    0.0028557    -0.5974488    0.4870121 
   0.399025000     0.0556310    0.2645274    -0.0002651    0.0029347    -0.0002343    0.0028955    -0.5929445    0.4919733 
   0.404012500     0.0576583    0.2588685    -0.0002336    0.0029916    -0.0002115    0.0029433    -0.5882779    0.4968667 
   0.409000000     0.0596732    0.2530995    -0.0002046    0.0030375    -0.0002008    0.0029907    -0.5841148    0.5020171 
   0.413987500     0.0613220    0.2475076    -0.0001743    0.0030840    -0.0001655    0.0030256    -0.5797423    0.5068857 
   0.418975000     0.0629838    0.2418057    -0.0001428    0.0031240    -0.0001487    0.0030749    -0.5752326    0.5114937 
   0.423962500     0.0644297    0.2362444    -0.0001085    0.0031612    -0.0001336    0.0031214    -0.5702534    0.5161036 
   0.428950000     0.0659946    0.2306831    -0.0000931    0.0031975    -0.0001229    0.0031499    -0.5656950    0.5211416 
   0.433937500     0.0672892    0.2253756    -0.0000653    0.0032304    -0.0001094    0.0032122    -0.5604653    0.5255786 
   0.438925000     0.0685341    0.2200589    -0.0000409    0.0032469    -0.0000816    0.0032489    -0.5556278    0.5305732 
   0.443912500     0.0695921    0.2148592    -0.0000191    0.0032827    -0.0000663    0.0033047    -0.5507167    0.5350723 
   0.448900000     0.0704209    0.2096840    -0.0000152    0.0033233    -0.0000576    0.0033453    -0.5459167    0.5399351 
   0.453887500     0.0710827    0.2047516    -0.0000166    0.0033554    -0.0000407    0.0033860    -0.5411128    0.5446434 
   0.458875000     0.0717107    0.1996717    -0.0000045    0.0034043     0.0000003    0.0034330    -0.5365635    0.5489486 
   0.463862500     0.0722119    0.1944603     0.0000025    0.0034506     0.0000307    0.0034977    -0.5319816    0.5533429 
   0.468850000     0.0727368    0.1894517     0.0000186    0.0035046     0.0000401    0.0035325    -0.5271298    0.5576721 
   0.473837500     0.0733432    0.1846232     0.0000194    0.0035745     0.0000640    0.0035769    -0.5220538    0.5621303 
   0.478825000     0.0737476    0.1797647     0.0000504    0.0036463     0.0001089    0.0036215    -0.5174468    0.5663429 
   0.483812500     0.0740027    0.1751331     0.0000887    0.0037076     0.0001489    0.0036895    -0.5124111    0.5706529 
   0.488800000     0.0741853    0.1704063     0.0001260    0.0037719     0.0001687    0.0037296    -0.5071888    0.5752531 
   0.493787500     0.0743286    0.1660526     0.0001671    0.0038307     0.0001930    0.0037717    -0.5021622    0.5797211 
   0.498775000     0.0743621    0.1614245     0.0002242    0.0038851     0.0002382    0.0038051    -0.4973446    0.5838094 
   0.503762500     0.0743339    0.1571019     0.0002772    0.0039173     0.0002754    0.0038680    -0.4923349    0.5879491 
   0.508750000     0.0740384    0.1526848     0.0003279    0.0039568     0.0002906    0.0039010    -0.4871123    0.5918531 
   0.513737500     0.0739528    0.1483863     0.0003680    0.0039701     0.0003116    0.0039281    -0.4814131    0.5958831 
   0.518725000     0.0736999    0.1442040     0.0004044    0.0039984     0.0003523    0.0039629    -0.4762639    0.5995440 
   0.523712500     0.0732639    0.1401424     0.0004402    0.0040074     0.0003742    0.0040116    -0.4705493    0.6034499 
   0.528700000     0.0726901    0.1361868     0.0004493    0.0040321     0.0003819    0.0040635    -0.4650016    0.6073784 
   0.533687500     0.0722286    0.1322703     0.0004630    0.0040616     0.0003904    0.0041002    -0.4596615    0.6114392 
   0.538675000     0.0713858    0.1285371     0.0004582    0.0040983     0.0004202    0.0041388    -0.4546127    0.6153970 
   0.543662500     0.0706899    0.1245854     0.0004684    0.0041277     0.0004575    0.0041950    -0.4493428    0.6186303 
   0.548650000     0.0698794    0.1207641     0.0004803    0.0041845     0.0004770    0.0042404    -0.4441865    0.6221742 
   0.553637500     0.0690075    0.1169754     0.0004748    0.0042368     0.0004895    0.0042927    -0.4386166    0.6256622 
   0.558625000     0.0682124    0.1133230     0.0004875    0.0042966     0.0005391    0.0043366    -0.4332623    0.6289960 
   0.563612500     0.0672765    0.1096005     0.0005091    0.0043667     0.0005796    0.0043806    -0.4276899    0.6324210 
   0.568600000     0.0662568    0.1059108     0.0005401    0.0044312     0.0006134    0.0044288    -0.4221749    0.6359861 
   0.573587500     0.0653656    0.1026135     0.0005714    0.0045095     0.0006418    0.0044756    -0.4162321    0.6397288 
   0.578575000     0.0643420    0.0991943     0.0006186    0.0045796     0.0006757    0.0045275    -0.4108001    0.6434718 
   0.583562500     0.0631042    0.0956677     0.0006636    0.0046384     0.0007312    0.0045665    -0.4056140    0.6467341 
   0.588550000     0.0621277    0.0923047     0.0007345    0.0046924     0.0007598    0.0046091    -0.3999031    0.6498918 
   0.593537500     0.0609320    0.0889880     0.0007875    0.0047332     0.0007858    0.0046515    -0.3939431    0.6530833 
   0.598525000     0.0598413    0.0859225     0.0008477    0.0047735     0.0008307    0.0046938    -0.3879482    0.6565215 
   0.603512500     0.0585332    0.0827348     0.0009086    0.0047978     0.0008815    0.0047364    -0.3819687    0.6597461 
   0.608500000     0.0572950    0.0797999     0.0009765    0.0048267     0.0009069    0.0047799    -0.3760980    0.6629786 
   0.613487500     0.0559239    0.0769021     0.0010167    0.0048498     0.0009353    0.0048121    -0.3698632    0.6662515 
   0.618475000     0.0545049    0.0740149     0.0010543    0.0048683     0.0009714    0.0048696    -0.3639134    0.6694249 
   0.623462500     0.0532503    0.0710802     0.0010807    0.0048802     0.0010190    0.0049101    -0.3579947    0.6722749 
   0.628450000     0.0517290    0.0683923     0.0011272    0.0049104     0.0010624    0.0049426    -0.3520966    0.6752387 
   0.633437500     0.0502492    0.0656423     0.0011482    0.0049428     0.0010955    0.0049758    -0.3458011    0.6778648 
   0.638425000     0.0487281    0.0630280     0.0011660    0.0049789     0.0011505    0.0050225    -0.3395076    0.6805155 
   0.643412500     0.0472792    0.0605433     0.0011895    0.0050207     0.0011878    0.0050537    -0.3334773    0.6831342 
   0.648400000     0.0455637    0.0578605     0.0012233    0.0050652     0.0012434    0.0051007    -0.3272826    0.6858836 
   0.653387500     0.0440617    0.0554277     0.0012568    0.0051270     0.0012671    0.0051408    -0.3207888    0.6886447 
   0.658375000     0.0424199    0.0530324     0.0012808    0.0051881     0.0013093    0.0051881    -0.3147103    0.6916032 
   0.663362500     0.0406592    0.0506907     0.0013268    0.0052344     0.0013547    0.0052156    -0.3088738    0.6942645 
   0.668350000     0.0389486    0.0481898     0.0013715    0.0053022     0.0014074    0.0052558    -0.3033603    0.6967393 
   0.673337500     0.0373248    0.0459294     0.0014241    0.0053524     0.0014331    0.0052979    -0.2972969    0.6989714 
   0.678325000     0.0353847    0.0437299     0.0014677    0.0054015     0.0014656    0.0053367    -0.2909406    0.7014918 
   0.683312500     0.0336561    0.0416338     0.0015325    0.0054373     0.0015114    0.0053916    -0.2848098    0.7039356 
   0.688300000     0.0320428    0.0393880     0.0015944    0.0054725     0.0015662    0.0054205    -0.2786275    0.7061210 
   0.693287500     0.0303628    0.0374846     0.0016507    0.0054964     0.0015977    0.0054618    -0.2722579    0.7083219 
   0.698275000     0.0286895    0.0354996     0.0016965    0.0055264     0.0016178    0.0055037    -0.2656932    0.7108540 
   0.703262500     0.0267243    0.0337293     0.0017382    0.0055539     0.0016749    0.0055484    -0.2597849    0.7132086 
   0.708250000     0.0249357    0.0318435     0.0017948    0.0055781     0.0017244    0.0055874    -0.2536443    0.7152481 
   0.713237500     0.0231517    0.0300827     0.0018274    0.0056006     0.0017535    0.0056238    -0.2472201    0.7168956 
   0.718225000     0.0212945    0.0284105     0.0018666    0.0056191     0.0017944    0.0056574    -0.2407055    0.7187250 
   0.723212500     0.0193741    0.0268693     0.0018950    0.0056603     0.0018605    0.0056970    -0.2344168    0.7204180 
   0.728200000     0.0175234    0.0251999     0.0019377    0.0056872     0.0019050    0.0057329    -0.2278784    0.7223350 
   0.733187500     0.0153844    0.0235992     0.0019725    0.0057273     0.0019594    0.0057827    -0.2213709    0.7237580 
   0.738175000     0.0135882    0.0221854     0.0020072    0.0057830     0.0019923    0.0058101    -0.2146088    0.7256312 
   0.743162500     0.0116797    0.0207163     0.0020459    0.0058279     0.0020513    0.0058537    -0.2080716    0.7271476 
   0.748150000     0.0096111    0.0192529     0.0020913    0.0058752     0.0021097    0.0058922    -0.2019740    0.7288477 
   0.753137500     0.0075350    0.0178816     0.0021398    0.0059152     0.0021616    0.0059383    -0.1957388    0.7301306 
   0.758125000     0.0055554    0.0165169     0.0021895    0.0059684     0.0021901    0.0059719    -0.1894913    0.7318009 
   0.763112500     0.0036935    0.0152598     0.0022489    0.0060127     0.0022607    0.0060029    -0.1830369    0.7332596 
   0.768100000     0.0016280    0.0139515     0.0023207    0.0060700     0.0023055    0.0060484    -0.1768626    0.7347398 
   0.773087500    -0.0003871    0.0127946     0.0023840    0.0061058     0.0023696    0.0060900    -0.1705746    0.7361002 
   0.778075000    -0.0023528    0.0117260     0.0024482    0.0061385     0.0024019    0.0061257    -0.1640275    0.7376075 
   0.783062500    -0.0043304    0.0105756     0.0025085    0.0061619     0.0024592    0.0061705    -0.1576415    0.7389450 
   0.788050000    -0.0063080    0.0095412     0.0025799    0.0061963     0.0025082    0.0062044    -0.1514557    0.7404104 
   0.793037500    -0.0083068    0.0084871     0.0026361    0.0062148     0.0025857    0.0062318    -0.1451323    0.7417183 
