! 5/10/2016 1:43:44 PM
! C:\ANRITSUVNA\DATA\INFINEON-SP2T-STATE1-C-RX2.S2P
! CHANNEL.1
! TR.MEASUREMENT
! CORRECTED.DATA
# GHZ S RI R 50.0
! FREQ.GHZ         S11RE         S11IM         S21RE         S21IM         S12RE         S12IM         S22RE         S22IM         
!; PortSelection: Port_12
   0.010000000     0.0300742   -0.0019537     0.9668961   -0.0084768     0.9663607   -0.0079375     0.0300593   -0.0025300 
   0.029950000     0.0296176   -0.0025070     0.9653290   -0.0190773     0.9653121   -0.0187925     0.0295156   -0.0025027 
   0.049900000     0.0294388   -0.0038652     0.9647540   -0.0308211     0.9645445   -0.0305958     0.0291363   -0.0036836 
   0.069850000     0.0295401   -0.0054016     0.9636630   -0.0425079     0.9636877   -0.0422992     0.0286345   -0.0051964 
   0.089800000     0.0294790   -0.0069518     0.9626524   -0.0542735     0.9628044   -0.0541198     0.0281857   -0.0066615 
   0.109750000     0.0289283   -0.0088289     0.9615844   -0.0658679     0.9618337   -0.0656559     0.0279197   -0.0085302 
   0.129700000     0.0278667   -0.0104461     0.9605914   -0.0772668     0.9605886   -0.0768410     0.0277709   -0.0103078 
   0.149650000     0.0271719   -0.0117090     0.9593040   -0.0887371     0.9590593   -0.0885305     0.0277845   -0.0114771 
   0.169600000     0.0268095   -0.0127358     0.9576468   -0.1000845     0.9578953   -0.1000055     0.0275903   -0.0126132 
   0.189550000     0.0263825   -0.0140565     0.9560304   -0.1114768     0.9559007   -0.1113429     0.0268802   -0.0139220 
   0.209500000     0.0256682   -0.0157686     0.9544127   -0.1230149     0.9544387   -0.1226093     0.0258223   -0.0157251 
   0.229450000     0.0250576   -0.0173846     0.9523642   -0.1342537     0.9526679   -0.1340613     0.0255108   -0.0172867 
   0.249400000     0.0243348   -0.0185409     0.9507998   -0.1453943     0.9508048   -0.1452380     0.0252669   -0.0186211 
   0.269350000     0.0237233   -0.0194607     0.9489437   -0.1568062     0.9488038   -0.1565794     0.0248103   -0.0195181 
   0.289300000     0.0229086   -0.0206252     0.9465868   -0.1681642     0.9465253   -0.1677609     0.0238283   -0.0204730 
   0.309250000     0.0220833   -0.0223128     0.9438623   -0.1792507     0.9439397   -0.1788405     0.0228351   -0.0221581 
   0.329200000     0.0209602   -0.0236156     0.9415239   -0.1901470     0.9418519   -0.1897429     0.0222595   -0.0238986 
   0.349150000     0.0200731   -0.0246107     0.9395500   -0.2009123     0.9393853   -0.2007468     0.0219410   -0.0251866 
   0.369100000     0.0194323   -0.0251624     0.9367100   -0.2125504     0.9366428   -0.2124356     0.0213881   -0.0253480 
   0.389050000     0.0189200   -0.0260236     0.9335666   -0.2235238     0.9333076   -0.2232960     0.0200943   -0.0258455 
   0.409000000     0.0181627   -0.0275465     0.9305258   -0.2343963     0.9304169   -0.2340678     0.0185051   -0.0272119 
   0.428950000     0.0168955   -0.0291426     0.9278108   -0.2449091     0.9276183   -0.2445759     0.0173368   -0.0292075 
   0.448900000     0.0151705   -0.0301477     0.9248286   -0.2565787     0.9248002   -0.2562961     0.0166926   -0.0309583 
   0.468850000     0.0134619   -0.0303754     0.9210998   -0.2675755     0.9209609   -0.2672987     0.0166702   -0.0319576 
   0.488800000     0.0125497   -0.0307443     0.9167841   -0.2780858     0.9169061   -0.2777448     0.0159563   -0.0322502 
   0.508750000     0.0121986   -0.0315301     0.9137566   -0.2876990     0.9138200   -0.2876048     0.0148314   -0.0326225 
   0.528700000     0.0109492   -0.0330866     0.9107267   -0.2988556     0.9108733   -0.2985862     0.0125810   -0.0337171 
   0.548650000     0.0093986   -0.0341700     0.9069943   -0.3102073     0.9073808   -0.3100626     0.0109068   -0.0354175 
   0.568600000     0.0072137   -0.0353218     0.9019284   -0.3210848     0.9021944   -0.3211500     0.0099287   -0.0372092 
   0.588550000     0.0057182   -0.0357603     0.8982236   -0.3303832     0.8978917   -0.3306413     0.0091056   -0.0381085 
   0.608500000     0.0045833   -0.0365302     0.8943567   -0.3404396     0.8941058   -0.3406339     0.0077775   -0.0382586 
   0.628450000     0.0036260   -0.0377018     0.8910869   -0.3514839     0.8908038   -0.3514031     0.0056257   -0.0388141 
   0.648400000     0.0016239   -0.0386324     0.8857729   -0.3626235     0.8859044   -0.3625492     0.0034541   -0.0399922 
   0.668350000    -0.0005360   -0.0398507     0.8811458   -0.3728584     0.8809843   -0.3727690     0.0016411   -0.0418776 
   0.688300000    -0.0024043   -0.0400838     0.8762853   -0.3825694     0.8759092   -0.3824851     0.0010663   -0.0427167 
   0.708250000    -0.0036162   -0.0405685     0.8722954   -0.3927073     0.8723294   -0.3925531    -0.0000436   -0.0428850 
   0.728200000    -0.0049178   -0.0412235     0.8673493   -0.4037702     0.8674376   -0.4033745    -0.0018667   -0.0426218 
   0.748150000    -0.0067805   -0.0425669     0.8620017   -0.4141520     0.8619195   -0.4140987    -0.0048096   -0.0432871 
   0.768100000    -0.0091983   -0.0434356     0.8563538   -0.4235474     0.8563691   -0.4230706    -0.0070721   -0.0447431 
   0.788050000    -0.0113766   -0.0436233     0.8517530   -0.4333713     0.8519230   -0.4330167    -0.0085640   -0.0459591 
   0.808000000    -0.0134035   -0.0433466     0.8465568   -0.4434726     0.8467121   -0.4433879    -0.0098511   -0.0462872 
   0.827950000    -0.0148233   -0.0438923     0.8405035   -0.4542295     0.8408024   -0.4539099    -0.0113639   -0.0464734 
   0.847900000    -0.0163799   -0.0445728     0.8345912   -0.4634938     0.8346162   -0.4629550    -0.0134553   -0.0463627 
   0.867850000    -0.0181568   -0.0450957     0.8290662   -0.4726153     0.8292761   -0.4727227    -0.0156009   -0.0466751 
   0.887800000    -0.0204125   -0.0447330     0.8239814   -0.4824636     0.8239055   -0.4825601    -0.0178810   -0.0468835 
   0.907750000    -0.0220910   -0.0446773     0.8177444   -0.4929360     0.8168887   -0.4932324    -0.0193188   -0.0474624 
   0.927700000    -0.0239588   -0.0447060     0.8112293   -0.5025344     0.8101968   -0.5014952    -0.0209923   -0.0470478 
   0.947650000    -0.0256715   -0.0451466     0.8047647   -0.5113614     0.8047548   -0.5102726    -0.0229438   -0.0469047 
   0.967600000    -0.0278015   -0.0448194     0.7990182   -0.5206043     0.7996323   -0.5205634    -0.0253477   -0.0466193 
   0.987550000    -0.0305498   -0.0445278     0.7922024   -0.5305426     0.7920202   -0.5309829    -0.0277943   -0.0472870 
   1.007500000    -0.0331220   -0.0440894     0.7846808   -0.5395171     0.7842517   -0.5392203    -0.0299774   -0.0477460 
   1.027450000    -0.0350558   -0.0438113     0.7779431   -0.5472509     0.7786875   -0.5464813    -0.0317981   -0.0477344 
   1.047400000    -0.0367730   -0.0433387     0.7729843   -0.5563029     0.7744623   -0.5567501    -0.0333528   -0.0472862 
   1.067350000    -0.0390095   -0.0427906     0.7661715   -0.5664654     0.7661358   -0.5681531    -0.0358560   -0.0464638 
   1.087300000    -0.0414232   -0.0420041     0.7581768   -0.5761871     0.7567977   -0.5768536    -0.0381535   -0.0467605 
   1.107250000    -0.0438309   -0.0411454     0.7504505   -0.5834536     0.7489223   -0.5827593    -0.0401937   -0.0464192 
   1.127200000    -0.0459099   -0.0404781     0.7451426   -0.5922402     0.7453144   -0.5913596    -0.0423145   -0.0456293 
   1.147150000    -0.0481468   -0.0400120     0.7379987   -0.6021621     0.7384874   -0.6026100    -0.0450394   -0.0445176 
   1.167100000    -0.0503406   -0.0394242     0.7282973   -0.6117999     0.7279621   -0.6128038    -0.0478178   -0.0438465 
   1.187050000    -0.0526703   -0.0381995     0.7204391   -0.6180004     0.7189015   -0.6183797    -0.0502596   -0.0442692 
   1.207000000    -0.0548037   -0.0361583     0.7151656   -0.6259306     0.7140262   -0.6252814    -0.0523945   -0.0442170 
   1.226950000    -0.0566485   -0.0347081     0.7085767   -0.6363865     0.7072569   -0.6348167    -0.0537558   -0.0433527 
   1.246900000    -0.0580327   -0.0341536     0.6981202   -0.6476246     0.6984912   -0.6454126    -0.0554753   -0.0415088 
   1.266850000    -0.0603460   -0.0336176     0.6863906   -0.6531999     0.6880965   -0.6521806    -0.0581684   -0.0393271 
   1.286800000    -0.0628484   -0.0323914     0.6791854   -0.6573942     0.6807010   -0.6584538    -0.0613650   -0.0384095 
   1.306750000    -0.0651508   -0.0299940     0.6748971   -0.6647058     0.6742028   -0.6665805    -0.0635910   -0.0381977 
   1.326700000    -0.0672179   -0.0273147     0.6670653   -0.6757922     0.6649118   -0.6759906    -0.0656442   -0.0375859 
   1.346650000    -0.0691507   -0.0257873     0.6574331   -0.6839784     0.6561237   -0.6820521    -0.0675282   -0.0360727 
   1.366600000    -0.0712958   -0.0247839     0.6473922   -0.6903283     0.6471483   -0.6897309    -0.0700779   -0.0339896 
   1.386550000    -0.0737616   -0.0234754     0.6408281   -0.6975784     0.6394615   -0.6972378    -0.0729819   -0.0322007 
   1.406500000    -0.0757079   -0.0212311     0.6314681   -0.7064296     0.6296957   -0.7051272    -0.0756498   -0.0309236 
   1.426450000    -0.0780810   -0.0183669     0.6213312   -0.7132341     0.6206124   -0.7111090    -0.0779992   -0.0302545 
   1.446400000    -0.0803004   -0.0159080     0.6118069   -0.7186251     0.6120794   -0.7174416    -0.0799023   -0.0288641 
   1.466350000    -0.0820026   -0.0144008     0.6047390   -0.7260965     0.6040353   -0.7253016    -0.0817061   -0.0262608 
   1.486300000    -0.0838952   -0.0127521     0.5949422   -0.7343485     0.5936491   -0.7326589    -0.0840506   -0.0237093 
   1.506250000    -0.0856656   -0.0101619     0.5842212   -0.7412938     0.5844681   -0.7382548    -0.0869115   -0.0216768 
   1.526200000    -0.0870724   -0.0074451     0.5745178   -0.7450043     0.5728873   -0.7455229    -0.0892323   -0.0204468 
   1.546150000    -0.0881477   -0.0045131     0.5677211   -0.7512179     0.5666775   -0.7504480    -0.0909375   -0.0191906 
   1.566100000    -0.0896839   -0.0017170     0.5576056   -0.7587950     0.5572204   -0.7562851    -0.0922565   -0.0164576 
   1.586050000    -0.0912586    0.0003466     0.5468633   -0.7657399     0.5489204   -0.7632427    -0.0941097   -0.0132259 
   1.606000000    -0.0934296    0.0026794     0.5367989   -0.7700323     0.5386023   -0.7706993    -0.0964318   -0.0105372 
   1.625950000    -0.0944970    0.0050982     0.5275097   -0.7761617     0.5264580   -0.7771441    -0.0985866   -0.0081785 
   1.645900000    -0.0956732    0.0087275     0.5179666   -0.7820106     0.5154088   -0.7790049    -0.1004721   -0.0059616 
   1.665850000    -0.0970148    0.0120691     0.5072916   -0.7878364     0.5094449   -0.7828282    -0.1018688   -0.0031826 
   1.685800000    -0.0987176    0.0145493     0.4979869   -0.7918547     0.5022474   -0.7915609    -0.1033277    0.0001924 
   1.705750000    -0.0999980    0.0173287     0.4879128   -0.7976363     0.4879816   -0.8004445    -0.1051035    0.0029356 
   1.725700000    -0.1009693    0.0207284     0.4775172   -0.8022417     0.4731744   -0.8004609    -0.1073933    0.0055038 
   1.745650000    -0.1018674    0.0248268     0.4677731   -0.8056338     0.4674261   -0.7990491    -0.1087277    0.0086208 
   1.765600000    -0.1023273    0.0282245     0.4603626   -0.8104214     0.4660706   -0.8059089    -0.1093035    0.0118553 
   1.785550000    -0.1033354    0.0306008     0.4505250   -0.8178338     0.4547418   -0.8195269    -0.1102647    0.0150991 
   1.805500000    -0.1046048    0.0336058     0.4374959   -0.8232991     0.4366927   -0.8244399    -0.1121907    0.0184365 
   1.825450000    -0.1061370    0.0382428     0.4251969   -0.8234069     0.4245091   -0.8205577    -0.1145812    0.0218762 
   1.845400000    -0.1052743    0.0422242     0.4191642   -0.8250525     0.4224214   -0.8225775    -0.1152447    0.0246389 
   1.865350000    -0.1051889    0.0453782     0.4121219   -0.8318093     0.4141332   -0.8330280    -0.1155099    0.0269948 
   1.885300000    -0.1053916    0.0483094     0.4001189   -0.8401734     0.3983769   -0.8394275    -0.1158248    0.0303215 
   1.905250000    -0.1063292    0.0516207     0.3851222   -0.8420302     0.3851211   -0.8367148    -0.1167656    0.0350587 
   1.925200000    -0.1058861    0.0550128     0.3759131   -0.8421074     0.3810591   -0.8376647    -0.1166191    0.0388707 
   1.945150000    -0.1055374    0.0586298     0.3682420   -0.8442412     0.3738146   -0.8446019    -0.1172758    0.0426206 
   1.965100000    -0.1057902    0.0620773     0.3584578   -0.8506160     0.3605453   -0.8505647    -0.1179018    0.0455724 
   1.985050000    -0.1056211    0.0661012     0.3466550   -0.8520047     0.3505652   -0.8494959    -0.1185233    0.0504995 
   2.005000000    -0.1054164    0.0701553     0.3378758   -0.8535941     0.3453321   -0.8541601    -0.1186952    0.0543200 
   2.024950000    -0.1045989    0.0732781     0.3305959   -0.8565544     0.3340448   -0.8627051    -0.1190164    0.0571520 
   2.044900000    -0.1034495    0.0769650     0.3200708   -0.8619775     0.3170350   -0.8648124    -0.1193171    0.0604323 
   2.064850000    -0.1017211    0.0810899     0.3097803   -0.8636622     0.3091883   -0.8586669    -0.1183639    0.0642165 
   2.084800000    -0.1005213    0.0848279     0.3005184   -0.8672065     0.3091719   -0.8641769    -0.1170992    0.0683984 
   2.104750000    -0.0997487    0.0881334     0.2912780   -0.8714298     0.2983117   -0.8788907    -0.1168906    0.0726754 
   2.124700000    -0.0990276    0.0918913     0.2771873   -0.8751251     0.2730671   -0.8830123    -0.1177290    0.0767908 
   2.144650000    -0.0970593    0.0970695     0.2670855   -0.8736613     0.2603531   -0.8691384    -0.1178118    0.0809556 
   2.164600000    -0.0934686    0.1004887     0.2602943   -0.8747983     0.2649788   -0.8654988    -0.1161491    0.0842645 
   2.184550000    -0.0921975    0.1035716     0.2530633   -0.8819828     0.2649707   -0.8809376    -0.1144174    0.0865268 
   2.204500000    -0.0921585    0.1069812     0.2366511   -0.8877469     0.2418196   -0.8948039    -0.1135188    0.0914596 
   2.224450000    -0.0913234    0.1111400     0.2219959   -0.8833020     0.2206092   -0.8858516    -0.1127868    0.0972950 
   2.244400000    -0.0885517    0.1163143     0.2157736   -0.8779972     0.2186719   -0.8756836    -0.1110188    0.1024547 
   2.264350000    -0.0859167    0.1186635     0.2143307   -0.8824142     0.2226319   -0.8845654    -0.1094712    0.1047703 
   2.284300000    -0.0850554    0.1218812     0.2031005   -0.8916404     0.2063055   -0.8995972    -0.1095608    0.1079232 
   2.304250000    -0.0836706    0.1251945     0.1868893   -0.8940408     0.1844460   -0.8977309    -0.1078292    0.1122531 
   2.324200000    -0.0810232    0.1289496     0.1747414   -0.8885029     0.1757287   -0.8880889    -0.1055318    0.1169941 
   2.344150000    -0.0775340    0.1311859     0.1707011   -0.8877298     0.1756313   -0.8908681    -0.1028867    0.1202572 
   2.364100000    -0.0746257    0.1339274     0.1642475   -0.8919310     0.1637145   -0.8993220    -0.1012483    0.1228431 
   2.384050000    -0.0722894    0.1370694     0.1533353   -0.8981774     0.1485425   -0.8995517    -0.0992285    0.1263221 
   2.404000000    -0.0695204    0.1401815     0.1396346   -0.8993691     0.1405228   -0.8954244    -0.0958230    0.1307897 
   2.423950000    -0.0671645    0.1435457     0.1275513   -0.8982121     0.1354681   -0.9000744    -0.0933109    0.1355506 
   2.443900000    -0.0640174    0.1471142     0.1195224   -0.8946953     0.1216310   -0.9049314    -0.0915390    0.1388669 
   2.463850000    -0.0607485    0.1502404     0.1157588   -0.8964976     0.1081971   -0.9018323    -0.0888019    0.1419579 
   2.483800000    -0.0562240    0.1525000     0.1085527   -0.9047120     0.1038488   -0.8998326    -0.0858022    0.1448608 
   2.503750000    -0.0536027    0.1560518     0.0897821   -0.9119071     0.0959874   -0.9083366    -0.0838039    0.1494384 
   2.523700000    -0.0506864    0.1596818     0.0720242   -0.9046711     0.0777102   -0.9116137    -0.0805302    0.1538140 
   2.543650000    -0.0467422    0.1627918     0.0680370   -0.8948308     0.0633064   -0.9021788    -0.0773488    0.1575535 
   2.563600000    -0.0420578    0.1635739     0.0728139   -0.9012349     0.0652774   -0.8974690    -0.0739916    0.1583417 
   2.583550000    -0.0406347    0.1656143     0.0577128   -0.9182380     0.0612873   -0.9099694    -0.0723738    0.1607360 
   2.603500000    -0.0367653    0.1700443     0.0302559   -0.9176489     0.0409946   -0.9195668    -0.0681020    0.1654527 
   2.623450000    -0.0329970    0.1723425     0.0176967   -0.8986043     0.0200078   -0.9089524    -0.0633665    0.1691476 
   2.643400000    -0.0283035    0.1736900     0.0284523   -0.8965378     0.0203790   -0.8999442    -0.0588537    0.1718108 
   2.663350000    -0.0258542    0.1751976     0.0221182   -0.9176322     0.0192175   -0.9086503    -0.0578655    0.1734219 
   2.683300000    -0.0214955    0.1800770    -0.0108926   -0.9276148     0.0020130   -0.9200537    -0.0552556    0.1777894 
   2.703250000    -0.0162225    0.1813387    -0.0363643   -0.9025809    -0.0195632   -0.9113536    -0.0497168    0.1808531 
   2.723200000    -0.0111039    0.1832502    -0.0248548   -0.8851635    -0.0202303   -0.9041358    -0.0437610    0.1838099 
   2.743150000    -0.0078805    0.1846877    -0.0154507   -0.9000915    -0.0247152   -0.9124140    -0.0415465    0.1856916 
   2.763100000    -0.0025804    0.1886243    -0.0373018   -0.9225414    -0.0461787   -0.9223604    -0.0401838    0.1901747 
   2.783050000     0.0037843    0.1885752    -0.0694975   -0.9102500    -0.0672093   -0.9073043    -0.0347157    0.1909479 
   2.803000000     0.0088328    0.1887594    -0.0702668   -0.8920549    -0.0636620   -0.8983614    -0.0279960    0.1909994 
   2.822950000     0.0119579    0.1888546    -0.0635082   -0.8978887    -0.0642669   -0.9101384    -0.0224927    0.1931107 
   2.842900000     0.0151076    0.1929276    -0.0809005   -0.9163696    -0.0902793   -0.9230685    -0.0192967    0.2000316 
   2.862850000     0.0219771    0.1925304    -0.1091555   -0.9052863    -0.1156243   -0.9023322    -0.0146257    0.2019840 
   2.882800000     0.0274251    0.1917092    -0.1104720   -0.8891724    -0.1091148   -0.8867516    -0.0109309    0.2012937 
   2.902750000     0.0308991    0.1905856    -0.1047277   -0.8963361    -0.1001367   -0.8999143    -0.0071719    0.1991626 
   2.922700000     0.0334023    0.1950014    -0.1260186   -0.9150381    -0.1257352   -0.9234988    -0.0016647    0.2034612 
   2.942650000     0.0396266    0.1949912    -0.1581198   -0.9001576    -0.1613792   -0.9060826     0.0081977    0.2059265 
   2.962600000     0.0440812    0.1948751    -0.1580214   -0.8767332    -0.1617405   -0.8803069     0.0125498    0.2084714 
   2.982550000     0.0494343    0.1940410    -0.1452525   -0.8834910    -0.1458370   -0.8856754     0.0147194    0.2083270 
   3.002500000     0.0530481    0.1970766    -0.1652148   -0.9064435    -0.1645217   -0.9124920     0.0158570    0.2104053 
   3.022450000     0.0606847    0.1960932    -0.2020366   -0.8921682    -0.2030292   -0.9021734     0.0247626    0.2094871 
   3.042400000     0.0643030    0.1964542    -0.2012255   -0.8617305    -0.2091176   -0.8724768     0.0314549    0.2093186 
   3.062350000     0.0700752    0.1958226    -0.1792112   -0.8686395    -0.1907437   -0.8713579     0.0381624    0.2101346 
   3.082300000     0.0734773    0.1986080    -0.1948007   -0.9035763    -0.2031030   -0.8983718     0.0379327    0.2143574 
   3.102250000     0.0843668    0.1968157    -0.2468842   -0.8987933    -0.2427008   -0.8948694     0.0455029    0.2164513 
   3.122200000     0.0875833    0.1923620    -0.2587889   -0.8539804    -0.2538458   -0.8642552     0.0487061    0.2112235 
   3.142150000     0.0918373    0.1912208    -0.2291605   -0.8433515    -0.2366565   -0.8596139     0.0567735    0.2097555 
