! 5/5/2016 5:11:38 PM
! C:\ANRITSUVNA\DATA\INFINEON-SP4T-STATE10-C-RX1.S2P
! CHANNEL.1
! TR.MEASUREMENT
! CORRECTED.DATA
# GHZ S RI R 50.0
! FREQ.GHZ         S11RE         S11IM         S21RE         S21IM         S12RE         S12IM         S22RE         S22IM         
!; PortSelection: Port_12
   0.010000000    -0.9730775    0.0885882    -0.0000186   -0.0000343    -0.0000145   -0.0000356    -0.7917918    0.0223445 
   0.014987500    -0.9611033    0.1264435     0.0000266   -0.0000385    -0.0000238   -0.0000521    -0.7888881    0.0214912 
   0.019975000    -0.9478940    0.1627423    -0.0000277   -0.0000650    -0.0000286   -0.0000644    -0.7885897    0.0282030 
   0.024962500    -0.9329895    0.1973772    -0.0000443   -0.0000717    -0.0000417   -0.0000736    -0.7880868    0.0348436 
   0.029950000    -0.9168111    0.2299997    -0.0000534   -0.0000828    -0.0000626   -0.0000890    -0.7875321    0.0414649 
   0.034937500    -0.8993955    0.2607299    -0.0000714   -0.0000965    -0.0000813   -0.0000966    -0.7870730    0.0480953 
   0.039925000    -0.8806401    0.2900773    -0.0000892   -0.0001017    -0.0000931   -0.0001031    -0.7865608    0.0545746 
   0.044912500    -0.8610276    0.3173116    -0.0001070   -0.0001192    -0.0001060   -0.0001150    -0.7858899    0.0611232 
   0.049900000    -0.8399599    0.3430347    -0.0001297   -0.0001138    -0.0001356   -0.0001163    -0.7850479    0.0677696 
   0.054887500    -0.8178979    0.3670203    -0.0001565   -0.0001276    -0.0001545   -0.0001140    -0.7843876    0.0740612 
   0.059875000    -0.7954443    0.3893662    -0.0001740   -0.0001156    -0.0001738   -0.0001171    -0.7833930    0.0806235 
   0.064862500    -0.7727114    0.4099300    -0.0001975   -0.0001261    -0.0002018   -0.0001235    -0.7827340    0.0871028 
   0.069850000    -0.7490485    0.4290379    -0.0002204   -0.0001218    -0.0002213   -0.0001194    -0.7817123    0.0936604 
   0.074837500    -0.7253249    0.4461561    -0.0002481   -0.0001162    -0.0002462   -0.0001239    -0.7808494    0.0999197 
   0.079825000    -0.7014645    0.4617797    -0.0002775   -0.0001152    -0.0002702   -0.0001137    -0.7796985    0.1064590 
   0.084812500    -0.6773483    0.4756005    -0.0002991   -0.0001070    -0.0002950   -0.0001097    -0.7787833    0.1127366 
   0.089800000    -0.6531714    0.4883721    -0.0003288   -0.0001041    -0.0003253   -0.0001073    -0.7775416    0.1192411 
   0.094787500    -0.6289390    0.4994352    -0.0003630   -0.0000986    -0.0003598   -0.0000981    -0.7763670    0.1256777 
   0.099775000    -0.6051617    0.5092741    -0.0004164   -0.0000683    -0.0004230   -0.0000625    -0.7750437    0.1319942 
   0.104762500    -0.5814679    0.5178399    -0.0004000   -0.0000213    -0.0004000   -0.0000175    -0.7737497    0.1383047 
   0.109750000    -0.5584048    0.5253435    -0.0004092   -0.0000310    -0.0004035   -0.0000285    -0.7724915    0.1446699 
   0.114737500    -0.5356070    0.5315471    -0.0004310   -0.0000307    -0.0004312   -0.0000261    -0.7712156    0.1510526 
   0.119725000    -0.5134198    0.5365558    -0.0004677   -0.0000198    -0.0004600   -0.0000126    -0.7697928    0.1574647 
   0.124712500    -0.4912956    0.5403255    -0.0004883   -0.0000059    -0.0004886   -0.0000058    -0.7684056    0.1637145 
   0.129700000    -0.4693651    0.5431301    -0.0005138    0.0000044    -0.0005181    0.0000075    -0.7669023    0.1700124 
   0.134687500    -0.4484765    0.5453379    -0.0005386    0.0000172    -0.0005327    0.0000197    -0.7651466    0.1760203 
   0.139675000    -0.4278160    0.5468992    -0.0005644    0.0000381    -0.0005634    0.0000402    -0.7636274    0.1822232 
   0.144662500    -0.4075672    0.5474239    -0.0006010    0.0000676    -0.0005837    0.0000621    -0.7618290    0.1883771 
   0.149650000    -0.3877968    0.5474351    -0.0006145    0.0000815    -0.0006050    0.0000812    -0.7600704    0.1943183 
   0.154637500    -0.3689544    0.5468436    -0.0006406    0.0001087    -0.0006333    0.0000993    -0.7584093    0.2005909 
   0.159625000    -0.3505561    0.5455867    -0.0006754    0.0001224    -0.0006628    0.0001226    -0.7566303    0.2068774 
   0.164612500    -0.3328159    0.5436776    -0.0006905    0.0001525    -0.0006791    0.0001517    -0.7547550    0.2130333 
   0.169600000    -0.3155498    0.5411398    -0.0007156    0.0001743    -0.0007015    0.0001759    -0.7525577    0.2188730 
   0.174587500    -0.2985121    0.5383007    -0.0007289    0.0001955    -0.0007258    0.0001999    -0.7507371    0.2251521 
   0.179575000    -0.2822195    0.5348619    -0.0007635    0.0002213    -0.0007547    0.0002238    -0.7485785    0.2314325 
   0.184562500    -0.2665277    0.5313358    -0.0007815    0.0002436    -0.0007726    0.0002533    -0.7465681    0.2377294 
   0.189550000    -0.2513362    0.5274828    -0.0008042    0.0002733    -0.0007973    0.0002745    -0.7443831    0.2437220 
   0.194537500    -0.2367145    0.5231662    -0.0008241    0.0002982    -0.0008127    0.0003039    -0.7422997    0.2497525 
   0.199525000    -0.2226341    0.5184548    -0.0008464    0.0003234    -0.0008403    0.0003283    -0.7400127    0.2560661 
   0.204512500    -0.2092283    0.5133314    -0.0008600    0.0003466    -0.0008588    0.0003535    -0.7377360    0.2621788 
   0.209500000    -0.1961776    0.5080726    -0.0008886    0.0003756    -0.0008875    0.0003772    -0.7354720    0.2680730 
   0.214487500    -0.1834365    0.5024871    -0.0009071    0.0004058    -0.0009082    0.0004051    -0.7330134    0.2742063 
   0.219475000    -0.1711385    0.4968191    -0.0009232    0.0004322    -0.0009198    0.0004374    -0.7303890    0.2802571 
   0.224462500    -0.1592369    0.4909045    -0.0009410    0.0004593    -0.0009304    0.0004596    -0.7277920    0.2860786 
   0.229450000    -0.1478803    0.4851087    -0.0009657    0.0004959    -0.0009610    0.0004957    -0.7253232    0.2920486 
   0.234437500    -0.1368093    0.4791815    -0.0009939    0.0005175    -0.0009706    0.0005188    -0.7225642    0.2979814 
   0.239425000    -0.1262683    0.4730582    -0.0010022    0.0005593    -0.0009876    0.0005487    -0.7199118    0.3039163 
   0.244412500    -0.1165598    0.4669378    -0.0010200    0.0005809    -0.0010169    0.0005836    -0.7174060    0.3098433 
   0.249400000    -0.1066914    0.4605118    -0.0010415    0.0006265    -0.0010243    0.0006213    -0.7147520    0.3154802 
   0.254387500    -0.0972948    0.4539719    -0.0010537    0.0006599    -0.0010432    0.0006542    -0.7121238    0.3207968 
   0.259375000    -0.0882825    0.4473917    -0.0010671    0.0007043    -0.0010577    0.0006974    -0.7094407    0.3263457 
   0.264362500    -0.0794157    0.4410514    -0.0010806    0.0007274    -0.0010715    0.0007251    -0.7067655    0.3318975 
   0.269350000    -0.0713371    0.4346899    -0.0010971    0.0007599    -0.0010836    0.0007549    -0.7039442    0.3375698 
   0.274337500    -0.0631358    0.4284094    -0.0011126    0.0007824    -0.0011117    0.0007823    -0.7014315    0.3428989 
   0.279325000    -0.0556492    0.4219755    -0.0011242    0.0008128    -0.0011256    0.0008129    -0.6985161    0.3485750 
   0.284312500    -0.0482923    0.4153889    -0.0011474    0.0008410    -0.0011355    0.0008470    -0.6957139    0.3541568 
   0.289300000    -0.0417616    0.4088651    -0.0011627    0.0008767    -0.0011562    0.0008791    -0.6926844    0.3597682 
   0.294287500    -0.0350021    0.4022562    -0.0011725    0.0009045    -0.0011749    0.0009079    -0.6897174    0.3650028 
   0.299275000    -0.0285886    0.3954996    -0.0011905    0.0009425    -0.0011747    0.0009388    -0.6864025    0.3704420 
   0.304262500    -0.0223876    0.3889447    -0.0012043    0.0009820    -0.0011962    0.0009824    -0.6830314    0.3761087 
   0.309250000    -0.0166094    0.3822585    -0.0012116    0.0010123    -0.0012042    0.0010094    -0.6795602    0.3817124 
   0.314237500    -0.0108729    0.3758749    -0.0012303    0.0010539    -0.0012150    0.0010505    -0.6757784    0.3872206 
   0.319225000    -0.0055945    0.3694083    -0.0012480    0.0010899    -0.0012362    0.0010820    -0.6722769    0.3930002 
   0.324212500    -0.0005476    0.3629816    -0.0012616    0.0011341    -0.0012424    0.0011184    -0.6684948    0.3988160 
   0.329200000     0.0042411    0.3567166    -0.0012719    0.0011695    -0.0012506    0.0011592    -0.6648490    0.4044303 
   0.334187500     0.0088156    0.3500357    -0.0012735    0.0012090    -0.0012664    0.0011927    -0.6611556    0.4096657 
   0.339175000     0.0132251    0.3437082    -0.0012849    0.0012457    -0.0012792    0.0012352    -0.6574710    0.4152634 
   0.344162500     0.0173818    0.3375248    -0.0012928    0.0012795    -0.0012899    0.0012709    -0.6535914    0.4205832 
   0.349150000     0.0214142    0.3311743    -0.0012991    0.0013123    -0.0013013    0.0013045    -0.6501603    0.4259336 
   0.354137500     0.0254090    0.3249748    -0.0013092    0.0013395    -0.0013155    0.0013324    -0.6464424    0.4310788 
   0.359125000     0.0290046    0.3188599    -0.0013240    0.0013735    -0.0013243    0.0013763    -0.6429928    0.4364991 
   0.364112500     0.0324922    0.3131509    -0.0013341    0.0014113    -0.0013403    0.0014074    -0.6394497    0.4417191 
   0.369100000     0.0356592    0.3070096    -0.0013542    0.0014333    -0.0013522    0.0014349    -0.6360394    0.4466858 
   0.374087500     0.0386930    0.3010730    -0.0013783    0.0014659    -0.0013779    0.0014778    -0.6324175    0.4513305 
   0.379075000     0.0415116    0.2949791    -0.0014026    0.0015009    -0.0013967    0.0015111    -0.6292190    0.4562585 
   0.384062500     0.0442111    0.2891847    -0.0014266    0.0015499    -0.0014098    0.0015592    -0.6255107    0.4609760 
   0.389050000     0.0469453    0.2832554    -0.0014472    0.0015971    -0.0014178    0.0016138    -0.6216689    0.4658688 
   0.394037500     0.0494988    0.2774410    -0.0014596    0.0016606    -0.0014297    0.0016577    -0.6177583    0.4705359 
   0.399025000     0.0520550    0.2718359    -0.0014658    0.0017110    -0.0014325    0.0016934    -0.6136105    0.4752254 
   0.404012500     0.0541594    0.2662272    -0.0014739    0.0017673    -0.0014356    0.0017388    -0.6092933    0.4802128 
   0.409000000     0.0562757    0.2606772    -0.0014741    0.0018188    -0.0014429    0.0017893    -0.6051948    0.4851977 
   0.413987500     0.0580370    0.2553350    -0.0014799    0.0018647    -0.0014567    0.0018320    -0.6010653    0.4902588 
   0.418975000     0.0598227    0.2497959    -0.0014766    0.0019093    -0.0014664    0.0018625    -0.5966585    0.4948635 
   0.423962500     0.0613839    0.2444524    -0.0014728    0.0019470    -0.0014707    0.0019044    -0.5918789    0.4995893 
   0.428950000     0.0630108    0.2391466    -0.0014780    0.0019824    -0.0014704    0.0019568    -0.5875347    0.5046785 
   0.433937500     0.0644610    0.2340337    -0.0014768    0.0020203    -0.0014987    0.0019913    -0.5827553    0.5093280 
   0.438925000     0.0657714    0.2288476    -0.0014765    0.0020507    -0.0015005    0.0020190    -0.5781119    0.5140591 
   0.443912500     0.0669035    0.2239119    -0.0014814    0.0020824    -0.0015112    0.0020652    -0.5734663    0.5188280 
   0.448900000     0.0678826    0.2190321    -0.0014881    0.0021065    -0.0015154    0.0021163    -0.5690675    0.5236208 
   0.453887500     0.0686705    0.2140605    -0.0015075    0.0021379    -0.0015455    0.0021515    -0.5647301    0.5284204 
   0.458875000     0.0693790    0.2091944    -0.0015250    0.0021654    -0.0015564    0.0021814    -0.5606797    0.5326775 
   0.463862500     0.0699899    0.2043081    -0.0015496    0.0021969    -0.0015612    0.0022307    -0.5565244    0.5369039 
   0.468850000     0.0705689    0.1992687    -0.0015667    0.0022350    -0.0015795    0.0022833    -0.5520776    0.5412524 
   0.473837500     0.0713721    0.1946943    -0.0016065    0.0023031    -0.0015875    0.0023398    -0.5476424    0.5455491 
   0.478825000     0.0718615    0.1898517    -0.0016316    0.0023707    -0.0015842    0.0023844    -0.5432543    0.5497230 
   0.483812500     0.0723492    0.1853258    -0.0016326    0.0024341    -0.0015839    0.0024399    -0.5386001    0.5539901 
   0.488800000     0.0726275    0.1807900    -0.0016295    0.0025077    -0.0015700    0.0025056    -0.5340928    0.5584255 
   0.493787500     0.0729943    0.1764638    -0.0016259    0.0025692    -0.0015740    0.0025481    -0.5294316    0.5628984 
   0.498775000     0.0732250    0.1719330    -0.0016182    0.0026355    -0.0015752    0.0025953    -0.5249770    0.5668818 
   0.503762500     0.0733947    0.1676495    -0.0016044    0.0026896    -0.0015637    0.0026374    -0.5201610    0.5710377 
   0.508750000     0.0733459    0.1634845    -0.0015735    0.0027346    -0.0015595    0.0026834    -0.5152415    0.5749995 
   0.513737500     0.0734490    0.1591904    -0.0015666    0.0027852    -0.0015615    0.0027238    -0.5098743    0.5791613 
   0.518725000     0.0734912    0.1552391    -0.0015502    0.0028156    -0.0015802    0.0027565    -0.5049264    0.5829675 
   0.523712500     0.0732966    0.1513364    -0.0015434    0.0028507    -0.0015848    0.0028064    -0.4994290    0.5869792 
   0.528700000     0.0728091    0.1474623    -0.0015331    0.0028717    -0.0015842    0.0028562    -0.4940695    0.5911779 
   0.533687500     0.0724779    0.1437456    -0.0015427    0.0029173    -0.0015967    0.0028970    -0.4888456    0.5953748 
   0.538675000     0.0719060    0.1399485    -0.0015604    0.0029412    -0.0016234    0.0029395    -0.4838752    0.5995160 
   0.543662500     0.0714593    0.1362544    -0.0015702    0.0029813    -0.0016235    0.0029881    -0.4788992    0.6031269 
   0.548650000     0.0708081    0.1324453    -0.0016016    0.0030151    -0.0016244    0.0030536    -0.4739209    0.6065016 
   0.553637500     0.0701250    0.1287730    -0.0016088    0.0030667    -0.0016242    0.0031179    -0.4686200    0.6102890 
   0.558625000     0.0694538    0.1252383    -0.0016323    0.0031191    -0.0016367    0.0031667    -0.4635898    0.6139656 
   0.563612500     0.0687722    0.1216765    -0.0016590    0.0031797    -0.0016352    0.0032122    -0.4584583    0.6174499 
   0.568600000     0.0679350    0.1181076    -0.0016743    0.0032524    -0.0016255    0.0032812    -0.4536173    0.6212806 
   0.573587500     0.0672921    0.1147011    -0.0016873    0.0033228    -0.0016184    0.0033519    -0.4481545    0.6251149 
   0.578575000     0.0664042    0.1113611    -0.0016881    0.0033953    -0.0016311    0.0034032    -0.4433097    0.6288033 
   0.583562500     0.0653278    0.1079443    -0.0016887    0.0034724    -0.0016309    0.0034431    -0.4385296    0.6320825 
   0.588550000     0.0646216    0.1046458    -0.0016814    0.0035492    -0.0016119    0.0035026    -0.4335841    0.6351913 
   0.593537500     0.0635953    0.1015011    -0.0016584    0.0036229    -0.0016076    0.0035620    -0.4280687    0.6383826 
   0.598525000     0.0627667    0.0982963    -0.0016447    0.0036746    -0.0016293    0.0036128    -0.4227902    0.6418108 
   0.603512500     0.0618450    0.0952563    -0.0016219    0.0037213    -0.0016212    0.0036637    -0.4173487    0.6450785 
   0.608500000     0.0606922    0.0924493    -0.0016071    0.0037824    -0.0016226    0.0037113    -0.4118748    0.6482807 
   0.613487500     0.0596431    0.0894942    -0.0015864    0.0038273    -0.0016156    0.0037804    -0.4059592    0.6516162 
   0.618475000     0.0585071    0.0866314    -0.0015717    0.0038715    -0.0016251    0.0038342    -0.4006109    0.6548893 
   0.623462500     0.0573250    0.0838423    -0.0015738    0.0039055    -0.0016272    0.0038823    -0.3949512    0.6578370 
   0.628450000     0.0562006    0.0810693    -0.0015667    0.0039483    -0.0016200    0.0039389    -0.3893475    0.6608170 
   0.633437500     0.0550565    0.0784454    -0.0015613    0.0039864    -0.0016055    0.0040095    -0.3834811    0.6637808 
   0.638425000     0.0536375    0.0758953    -0.0015652    0.0040340    -0.0016077    0.0040512    -0.3774554    0.6666535 
   0.643412500     0.0524202    0.0733226    -0.0015801    0.0040988    -0.0016096    0.0041011    -0.3714680    0.6694279 
   0.648400000     0.0511293    0.0708423    -0.0015861    0.0041329    -0.0016045    0.0041606    -0.3655871    0.6724185 
   0.653387500     0.0498512    0.0683451    -0.0015916    0.0041997    -0.0015868    0.0042256    -0.3594125    0.6753570 
   0.658375000     0.0483432    0.0660464    -0.0015928    0.0042691    -0.0015777    0.0042826    -0.3536957    0.6785920 
   0.663362500     0.0468100    0.0637686    -0.0016034    0.0043389    -0.0015812    0.0043302    -0.3482567    0.6814476 
   0.668350000     0.0453338    0.0611961    -0.0016096    0.0044061    -0.0015719    0.0043953    -0.3430592    0.6841773 
   0.673337500     0.0438988    0.0589920    -0.0015919    0.0044861    -0.0015501    0.0044601    -0.3374847    0.6866291 
   0.678325000     0.0422854    0.0568524    -0.0015751    0.0045601    -0.0015501    0.0045227    -0.3318656    0.6894304 
   0.683312500     0.0408650    0.0547299    -0.0015615    0.0046256    -0.0015540    0.0045771    -0.3260821    0.6921228 
   0.688300000     0.0394251    0.0525942    -0.0015463    0.0046790    -0.0015376    0.0046342    -0.3206869    0.6945460 
   0.693287500     0.0379551    0.0506461    -0.0015118    0.0047424    -0.0015250    0.0046904    -0.3149524    0.6970154 
   0.698275000     0.0364298    0.0485366    -0.0014758    0.0048099    -0.0015103    0.0047589    -0.3087822    0.6995330 
   0.703262500     0.0347891    0.0467094    -0.0014670    0.0048526    -0.0015239    0.0047967    -0.3034545    0.7019591 
   0.708250000     0.0331309    0.0448585    -0.0014548    0.0048975    -0.0015075    0.0048622    -0.2977420    0.7042137 
   0.713237500     0.0316909    0.0430484    -0.0014243    0.0049386    -0.0014847    0.0049305    -0.2918950    0.7059583 
   0.718225000     0.0300370    0.0413918    -0.0014071    0.0049869    -0.0014705    0.0049816    -0.2856981    0.7079572 
   0.723212500     0.0284049    0.0397684    -0.0014099    0.0050260    -0.0014773    0.0050332    -0.2797307    0.7097849 
   0.728200000     0.0267756    0.0380935    -0.0014023    0.0050846    -0.0014601    0.0050917    -0.2735109    0.7118041 
   0.733187500     0.0249949    0.0365116    -0.0013995    0.0051373    -0.0014389    0.0051661    -0.2672911    0.7135550 
   0.738175000     0.0234027    0.0350081    -0.0013910    0.0051954    -0.0014063    0.0052297    -0.2605764    0.7156720 
   0.743162500     0.0216926    0.0335384    -0.0013863    0.0052687    -0.0014175    0.0052848    -0.2541422    0.7174141 
   0.748150000     0.0198592    0.0320857    -0.0013913    0.0053220    -0.0013946    0.0053389    -0.2482979    0.7194001 
   0.753137500     0.0180203    0.0306008    -0.0013886    0.0054007    -0.0013817    0.0054200    -0.2421452    0.7210453 
   0.758125000     0.0163969    0.0292370    -0.0013721    0.0054778    -0.0013506    0.0054707    -0.2359856    0.7229805 
   0.763112500     0.0146757    0.0278859    -0.0013576    0.0055547    -0.0013507    0.0055483    -0.2297315    0.7248951 
   0.768100000     0.0129032    0.0266085    -0.0013365    0.0056258    -0.0013306    0.0056056    -0.2235641    0.7267663 
   0.773087500     0.0111555    0.0254282    -0.0013092    0.0057061    -0.0013257    0.0056850    -0.2175968    0.7285644 
   0.778075000     0.0093722    0.0242461    -0.0012843    0.0057801    -0.0012878    0.0057494    -0.2111119    0.7304322 
   0.783062500     0.0076545    0.0230681    -0.0012511    0.0058482    -0.0012879    0.0058184    -0.2051787    0.7323629 
   0.788050000     0.0058614    0.0220031    -0.0012237    0.0059130    -0.0012761    0.0058824    -0.1992486    0.7342894 
   0.793037500     0.0039618    0.0208160    -0.0011822    0.0059809    -0.0012390    0.0059612    -0.1933988    0.7358611 
