! 5/10/2016 1:44:12 PM
! C:\ANRITSUVNA\DATA\INFINEON-SP2T-STATE0-C-RX2.S2P
! CHANNEL.1
! TR.MEASUREMENT
! CORRECTED.DATA
# GHZ S RI R 50.0
! FREQ.GHZ         S11RE         S11IM         S21RE         S21IM         S12RE         S12IM         S22RE         S22IM         
!; PortSelection: Port_12
   0.010000000     0.0302833   -0.0019248    -0.0000265    0.0001377    -0.0000201    0.0001440    -0.6585498    0.0188954 
   0.029950000     0.0300071   -0.0025155    -0.0000237    0.0004048    -0.0000247    0.0004059    -0.6545651    0.0241905 
   0.049900000     0.0299306   -0.0038853    -0.0000227    0.0006903    -0.0000244    0.0006825    -0.6533480    0.0397262 
   0.069850000     0.0297021   -0.0055003    -0.0000106    0.0009761    -0.0000108    0.0009778    -0.6521618    0.0550297 
   0.089800000     0.0296863   -0.0068586    -0.0000043    0.0012566    -0.0000028    0.0012450    -0.6506361    0.0697887 
   0.109750000     0.0295080   -0.0082386     0.0000033    0.0015496     0.0000128    0.0015480    -0.6486872    0.0843365 
   0.129700000     0.0290621   -0.0096761     0.0000321    0.0018351     0.0000300    0.0018216    -0.6463102    0.0987408 
   0.149650000     0.0286201   -0.0111402     0.0000486    0.0021137     0.0000558    0.0021031    -0.6432802    0.1134407 
   0.169600000     0.0282747   -0.0124950     0.0000778    0.0024084     0.0000828    0.0023964    -0.6400035    0.1289422 
   0.189550000     0.0277336   -0.0139587     0.0000955    0.0026922     0.0001132    0.0026873    -0.6368563    0.1438918 
   0.209500000     0.0268809   -0.0153608     0.0001261    0.0029726     0.0001311    0.0029616    -0.6335868    0.1580222 
   0.229450000     0.0264896   -0.0169426     0.0001624    0.0032621     0.0001718    0.0032377    -0.6294653    0.1720382 
   0.249400000     0.0259407   -0.0185094     0.0002052    0.0035612     0.0002070    0.0035375    -0.6249768    0.1864881 
   0.269350000     0.0255639   -0.0197552     0.0002518    0.0038272     0.0002521    0.0038385    -0.6199777    0.2009306 
   0.289300000     0.0244139   -0.0211479     0.0002817    0.0041186     0.0002995    0.0041253    -0.6154022    0.2153260 
   0.309250000     0.0237574   -0.0226036     0.0003291    0.0044314     0.0003688    0.0044033    -0.6104455    0.2285160 
   0.329200000     0.0230004   -0.0241167     0.0004216    0.0047465     0.0004179    0.0046941    -0.6047468    0.2419764 
   0.349150000     0.0223281   -0.0255311     0.0005068    0.0050109     0.0004658    0.0049996    -0.5983136    0.2556135 
   0.369100000     0.0214832   -0.0267762     0.0005475    0.0052595     0.0005367    0.0052768    -0.5917653    0.2702388 
   0.389050000     0.0205483   -0.0279894     0.0005651    0.0055672     0.0006149    0.0055554    -0.5853489    0.2838574 
   0.409000000     0.0195888   -0.0293232     0.0006710    0.0059048     0.0006855    0.0058441    -0.5789158    0.2968400 
   0.428950000     0.0185616   -0.0304286     0.0008019    0.0061528     0.0007564    0.0061240    -0.5722854    0.3090981 
   0.448900000     0.0174832   -0.0315820     0.0008325    0.0063676     0.0008012    0.0064199    -0.5645795    0.3215901 
   0.468850000     0.0160315   -0.0325602     0.0008084    0.0066828     0.0008906    0.0067251    -0.5563311    0.3345163 
   0.488800000     0.0147588   -0.0339661     0.0009149    0.0071132     0.0009940    0.0070103    -0.5475230    0.3481562 
   0.508750000     0.0135428   -0.0351093     0.0011313    0.0074236     0.0010988    0.0073029    -0.5397078    0.3614417 
   0.528700000     0.0122074   -0.0361547     0.0012988    0.0076107     0.0011953    0.0075998    -0.5318844    0.3734241 
   0.548650000     0.0108500   -0.0370924     0.0012989    0.0078282     0.0011947    0.0078792    -0.5241873    0.3839718 
   0.568600000     0.0090835   -0.0380484     0.0013122    0.0082139     0.0013159    0.0082163    -0.5148597    0.3949637 
   0.588550000     0.0073414   -0.0390634     0.0014895    0.0086438     0.0014287    0.0084958    -0.5051017    0.4066757 
   0.608500000     0.0056374   -0.0400182     0.0017590    0.0088985     0.0015037    0.0088318    -0.4950355    0.4189223 
   0.628450000     0.0039223   -0.0409099     0.0018551    0.0090463     0.0016368    0.0090787    -0.4864497    0.4300309 
   0.648400000     0.0022792   -0.0416440     0.0017508    0.0093730     0.0017373    0.0094061    -0.4771797    0.4397988 
   0.668350000     0.0003418   -0.0426032     0.0018443    0.0096890     0.0018327    0.0096714    -0.4672731    0.4495882 
   0.688300000    -0.0015051   -0.0434829     0.0020572    0.0100979     0.0019823    0.0099453    -0.4560079    0.4595127 
   0.708250000    -0.0034461   -0.0442069     0.0022659    0.0103238     0.0021425    0.0103091    -0.4447482    0.4706821 
   0.728200000    -0.0052863   -0.0448566     0.0023718    0.0104883     0.0022566    0.0105365    -0.4338693    0.4810347 
   0.748150000    -0.0074135   -0.0455057     0.0024603    0.0108614     0.0024957    0.0108702    -0.4236679    0.4905304 
   0.768100000    -0.0095828   -0.0459560     0.0025792    0.0112849     0.0025950    0.0111970    -0.4131343    0.4985391 
   0.788050000    -0.0113851   -0.0467281     0.0028346    0.0115475     0.0027213    0.0114891    -0.4014070    0.5072346 
   0.808000000    -0.0137188   -0.0470947     0.0030061    0.0117202     0.0028843    0.0117722    -0.3896620    0.5158842 
   0.827950000    -0.0159096   -0.0476848     0.0031555    0.0119536     0.0030484    0.0120161    -0.3774755    0.5249135 
   0.847900000    -0.0179946   -0.0480497     0.0032512    0.0123096     0.0031998    0.0123143    -0.3656256    0.5329683 
   0.867850000    -0.0199562   -0.0484895     0.0033883    0.0126240     0.0033120    0.0125254    -0.3536389    0.5405955 
   0.887800000    -0.0219889   -0.0483058     0.0035874    0.0128740     0.0035110    0.0128816    -0.3421382    0.5481389 
   0.907750000    -0.0242750   -0.0486482     0.0037543    0.0130881     0.0036345    0.0131460    -0.3294233    0.5552392 
   0.927700000    -0.0263539   -0.0484553     0.0038662    0.0134089     0.0038755    0.0134333    -0.3165753    0.5628295 
   0.947650000    -0.0285005   -0.0485007     0.0040137    0.0137725     0.0039758    0.0138199    -0.3040386    0.5694726 
   0.967600000    -0.0307758   -0.0480360     0.0042672    0.0140477     0.0042083    0.0141563    -0.2918468    0.5762678 
   0.987550000    -0.0330962   -0.0475545     0.0044344    0.0142965     0.0044030    0.0144226    -0.2795945    0.5817645 
   1.007500000    -0.0356540   -0.0472570     0.0044773    0.0146646     0.0046636    0.0147551    -0.2662254    0.5874391 
   1.027450000    -0.0381889   -0.0471859     0.0047897    0.0151426     0.0048133    0.0150765    -0.2524244    0.5929459 
   1.047400000    -0.0404296   -0.0465800     0.0051712    0.0153828     0.0050305    0.0153985    -0.2391106    0.5989999 
   1.067350000    -0.0427659   -0.0459277     0.0054075    0.0154931     0.0053703    0.0156259    -0.2261234    0.6037480 
   1.087300000    -0.0451788   -0.0449875     0.0054533    0.0157259     0.0055886    0.0159185    -0.2125762    0.6083494 
   1.107250000    -0.0479148   -0.0441877     0.0056812    0.0162199     0.0057426    0.0161858    -0.1989035    0.6122466 
   1.127200000    -0.0504608   -0.0437311     0.0061379    0.0165164     0.0059393    0.0165911    -0.1841103    0.6171536 
   1.147150000    -0.0528527   -0.0428295     0.0064190    0.0164886     0.0062315    0.0168918    -0.1712254    0.6212956 
   1.167100000    -0.0550031   -0.0417717     0.0064325    0.0167582     0.0065135    0.0171158    -0.1577003    0.6246402 
   1.187050000    -0.0573144   -0.0406826     0.0065553    0.0173068     0.0067152    0.0174314    -0.1449725    0.6270679 
   1.207000000    -0.0596696   -0.0393086     0.0071803    0.0177151     0.0070038    0.0177345    -0.1302010    0.6295536 
   1.226950000    -0.0622054   -0.0380177     0.0077165    0.0175833     0.0072717    0.0180380    -0.1152963    0.6319484 
   1.246900000    -0.0646169   -0.0368356     0.0075223    0.0175408     0.0076380    0.0183080    -0.1004733    0.6352680 
   1.266850000    -0.0667142   -0.0353812     0.0071922    0.0181133     0.0078361    0.0185309    -0.0872956    0.6371139 
   1.286800000    -0.0689359   -0.0337663     0.0076293    0.0190724     0.0081698    0.0188405    -0.0739721    0.6385414 
   1.306750000    -0.0707804   -0.0315874     0.0085370    0.0193789     0.0084457    0.0192109    -0.0608847    0.6390963 
   1.326700000    -0.0732851   -0.0294384     0.0090203    0.0191893     0.0088213    0.0194917    -0.0453986    0.6395258 
   1.346650000    -0.0759060   -0.0276253     0.0090113    0.0193459     0.0091199    0.0197368    -0.0317344    0.6410206 
   1.366600000    -0.0783741   -0.0257083     0.0091670    0.0197544     0.0095203    0.0200151    -0.0162280    0.6411455 
   1.386550000    -0.0804766   -0.0237782     0.0097180    0.0200680     0.0098743    0.0201950    -0.0038354    0.6414695 
   1.406500000    -0.0824310   -0.0216088     0.0100211    0.0200476     0.0102072    0.0204250     0.0097024    0.6406667 
   1.426450000    -0.0846444   -0.0190519     0.0100761    0.0203144     0.0104501    0.0206547     0.0227604    0.6398638 
   1.446400000    -0.0869910   -0.0165840     0.0102669    0.0207208     0.0107319    0.0209445     0.0375311    0.6383067 
   1.466350000    -0.0894804   -0.0143851     0.0108225    0.0209453     0.0110756    0.0211415     0.0521158    0.6376497 
   1.486300000    -0.0913379   -0.0120887     0.0110723    0.0209567     0.0113876    0.0213854     0.0655485    0.6361752 
   1.506250000    -0.0926813   -0.0097029     0.0110546    0.0211640     0.0116223    0.0215857     0.0782656    0.6355115 
   1.526200000    -0.0944488   -0.0066138     0.0112519    0.0216768     0.0119504    0.0219434     0.0920969    0.6319971 
   1.546150000    -0.0962324   -0.0036963     0.0117647    0.0221718     0.0122786    0.0222260     0.1062587    0.6299605 
   1.566100000    -0.0982136   -0.0005339     0.0122212    0.0223830     0.0127139    0.0225890     0.1207970    0.6269447 
   1.586050000    -0.0998068    0.0020424     0.0124971    0.0226287     0.0131097    0.0229095     0.1348488    0.6252513 
   1.606000000    -0.1013325    0.0049722     0.0127419    0.0229721     0.0136125    0.0231277     0.1470649    0.6221164 
   1.625950000    -0.1025224    0.0077633     0.0131117    0.0232942     0.0140981    0.0233844     0.1601888    0.6182722 
   1.645900000    -0.1037147    0.0112382     0.0135569    0.0235755     0.0144189    0.0234738     0.1731211    0.6137521 
   1.665850000    -0.1049704    0.0145324     0.0139453    0.0239016     0.0147934    0.0237714     0.1869036    0.6095436 
   1.685800000    -0.1063908    0.0177014     0.0143773    0.0241464     0.0152901    0.0240920     0.2000265    0.6056176 
   1.705750000    -0.1074539    0.0212189     0.0147748    0.0243700     0.0158096    0.0242699     0.2123986    0.6009731 
   1.725700000    -0.1083335    0.0247654     0.0148883    0.0246826     0.0160986    0.0242463     0.2245598    0.5958666 
   1.745650000    -0.1093987    0.0283887     0.0153827    0.0253054     0.0162603    0.0244675     0.2379088    0.5899295 
   1.765600000    -0.1102785    0.0321303     0.0162520    0.0256156     0.0166497    0.0249729     0.2513075    0.5849397 
   1.785550000    -0.1112023    0.0357268     0.0166924    0.0254214     0.0173371    0.0254151     0.2637237    0.5795546 
   1.805500000    -0.1117095    0.0394265     0.0165852    0.0255973     0.0178574    0.0254719     0.2754989    0.5741109 
   1.825450000    -0.1120100    0.0431989     0.0166239    0.0265545     0.0181327    0.0255797     0.2867819    0.5673550 
   1.845400000    -0.1121236    0.0470658     0.0176632    0.0275417     0.0185177    0.0260555     0.2992603    0.5603796 
   1.865350000    -0.1126383    0.0510793     0.0189153    0.0274270     0.0192844    0.0265379     0.3117399    0.5526674 
   1.885300000    -0.1127354    0.0548565     0.0192598    0.0269694     0.0200275    0.0265871     0.3245125    0.5453933 
   1.905250000    -0.1128574    0.0586093     0.0191522    0.0273046     0.0205086    0.0266152     0.3361987    0.5378901 
   1.925200000    -0.1123216    0.0621834     0.0196791    0.0282841     0.0208691    0.0268417     0.3478411    0.5300307 
   1.945150000    -0.1118910    0.0662243     0.0208060    0.0285683     0.0216111    0.0271710     0.3580651    0.5222196 
   1.965100000    -0.1115685    0.0705280     0.0214596    0.0283955     0.0223647    0.0271260     0.3691502    0.5139304 
   1.985050000    -0.1113848    0.0743213     0.0217844    0.0286632     0.0226933    0.0270876     0.3791149    0.5054633 
   2.005000000    -0.1109247    0.0781968     0.0224859    0.0293755     0.0232155    0.0275182     0.3898860    0.4968440 
   2.024950000    -0.1098959    0.0817434     0.0235881    0.0294157     0.0240396    0.0276274     0.3995357    0.4879502 
   2.044900000    -0.1086304    0.0858609     0.0242264    0.0293140     0.0247722    0.0274767     0.4098893    0.4784290 
   2.064850000    -0.1072695    0.0901225     0.0247332    0.0296119     0.0248632    0.0273883     0.4196451    0.4690314 
   2.084800000    -0.1061787    0.0943665     0.0256689    0.0299036     0.0252322    0.0279389     0.4302606    0.4592757 
   2.104750000    -0.1049523    0.0983455     0.0265408    0.0295097     0.0262936    0.0282633     0.4396202    0.4508473 
   2.124700000    -0.1032867    0.1020211     0.0265521    0.0293946     0.0271101    0.0278532     0.4487770    0.4417705 
   2.144650000    -0.1011121    0.1064123     0.0268273    0.0303170     0.0271288    0.0275939     0.4571623    0.4317033 
   2.164600000    -0.0990409    0.1106807     0.0283222    0.0309567     0.0272476    0.0282458     0.4666345    0.4199709 
   2.184550000    -0.0973124    0.1153041     0.0298198    0.0302573     0.0282902    0.0290187     0.4761707    0.4087502 
   2.204500000    -0.0956515    0.1192833     0.0296993    0.0294267     0.0296663    0.0287674     0.4849135    0.3977189 
   2.224450000    -0.0938863    0.1230789     0.0292672    0.0302134     0.0300750    0.0282102     0.4929362    0.3889976 
   2.244400000    -0.0915493    0.1266357     0.0304113    0.0317551     0.0300796    0.0283142     0.4991013    0.3772809 
   2.264350000    -0.0889316    0.1307929     0.0328144    0.0317894     0.0307611    0.0290265     0.5066524    0.3663668 
   2.284300000    -0.0866448    0.1346212     0.0337776    0.0304035     0.0321069    0.0291518     0.5137613    0.3544282 
   2.304250000    -0.0842850    0.1381467     0.0335061    0.0301446     0.0329122    0.0286222     0.5221297    0.3438479 
   2.324200000    -0.0817745    0.1414308     0.0337804    0.0312544     0.0330967    0.0285422     0.5278572    0.3319623 
   2.344150000    -0.0784710    0.1443774     0.0356363    0.0320643     0.0338100    0.0289868     0.5349442    0.3203061 
   2.364100000    -0.0748460    0.1477650     0.0373785    0.0315002     0.0349897    0.0290146     0.5407985    0.3073432 
   2.384050000    -0.0715345    0.1510978     0.0383776    0.0306463     0.0359408    0.0287291     0.5476253    0.2950851 
   2.404000000    -0.0681766    0.1546135     0.0387145    0.0299915     0.0362890    0.0284219     0.5533226    0.2834479 
   2.423950000    -0.0652022    0.1577099     0.0391117    0.0300269     0.0370449    0.0286920     0.5587986    0.2722560 
   2.443900000    -0.0614052    0.1607204     0.0397210    0.0305669     0.0380375    0.0285854     0.5632856    0.2602987 
   2.463850000    -0.0574044    0.1638970     0.0415550    0.0310569     0.0385958    0.0283294     0.5687705    0.2474620 
   2.483800000    -0.0530992    0.1669331     0.0438494    0.0297514     0.0393349    0.0285332     0.5735790    0.2341438 
   2.503750000    -0.0492301    0.1697995     0.0440954    0.0276441     0.0407039    0.0284295     0.5770282    0.2217644 
   2.523700000    -0.0455834    0.1728900     0.0429868    0.0277726     0.0418761    0.0276681     0.5803115    0.2095078 
   2.543650000    -0.0416915    0.1752922     0.0442076    0.0296234     0.0421548    0.0267449     0.5827422    0.1973968 
   2.563600000    -0.0375151    0.1773863     0.0478372    0.0288735     0.0422563    0.0267635     0.5853825    0.1846592 
   2.583550000    -0.0333671    0.1797304     0.0489548    0.0249625     0.0433052    0.0268506     0.5885646    0.1716287 
   2.603500000    -0.0288514    0.1823910     0.0462317    0.0234105     0.0445799    0.0260677     0.5921302    0.1596250 
   2.623450000    -0.0248492    0.1844901     0.0452224    0.0256740     0.0444983    0.0247315     0.5945105    0.1482618 
   2.643400000    -0.0206914    0.1865730     0.0486600    0.0269995     0.0440097    0.0245843     0.5970329    0.1376450 
   2.663350000    -0.0160191    0.1880553     0.0511856    0.0230597     0.0444314    0.0250616     0.5989767    0.1260697 
   2.683300000    -0.0109855    0.1904048     0.0476966    0.0202207     0.0452004    0.0248414     0.6023443    0.1135263 
   2.703250000    -0.0059893    0.1923775     0.0443078    0.0230164     0.0451993    0.0242973     0.6056678    0.1011929 
   2.723200000    -0.0009975    0.1944620     0.0466113    0.0276596     0.0449527    0.0249492     0.6097816    0.0889821 
   2.743150000     0.0037342    0.1964849     0.0521360    0.0270361     0.0457328    0.0262291     0.6119463    0.0768184 
   2.763100000     0.0092765    0.1975252     0.0525975    0.0229219     0.0476085    0.0264829     0.6137578    0.0614715 
   2.783050000     0.0148800    0.1982563     0.0500675    0.0234256     0.0486968    0.0259890     0.6138197    0.0444111 
   2.803000000     0.0207943    0.1990537     0.0519087    0.0269280     0.0497087    0.0263377     0.6148424    0.0272604 
   2.822950000     0.0259696    0.1994811     0.0576501    0.0259893     0.0521328    0.0268747     0.6141207    0.0146569 
   2.842900000     0.0305613    0.1996354     0.0589031    0.0204780     0.0549791    0.0250024     0.6114720    0.0035118 
   2.862850000     0.0352635    0.1995807     0.0559844    0.0187658     0.0551439    0.0219114     0.6064547   -0.0065949 
   2.882800000     0.0406629    0.1993379     0.0562850    0.0208614     0.0537988    0.0212182     0.6041788   -0.0197643 
   2.902750000     0.0456660    0.1999622     0.0599540    0.0191603     0.0544751    0.0218891     0.6030301   -0.0332423 
   2.922700000     0.0504913    0.2005133     0.0590499    0.0143129     0.0563047    0.0206372     0.6036870   -0.0454557 
   2.942650000     0.0548890    0.2008160     0.0546754    0.0142556     0.0560127    0.0181883     0.6040627   -0.0541248 
   2.962600000     0.0601067    0.2003615     0.0546419    0.0179299     0.0541541    0.0177517     0.6034890   -0.0636933 
   2.982550000     0.0651033    0.2001143     0.0588074    0.0178046     0.0538811    0.0192629     0.6012501   -0.0748999 
   3.002500000     0.0708697    0.1999221     0.0589078    0.0132207     0.0558475    0.0195988     0.5993255   -0.0896492 
   3.022450000     0.0762940    0.1995173     0.0543629    0.0133567     0.0563499    0.0178970     0.5987302   -0.1046134 
   3.042400000     0.0819091    0.1989917     0.0543502    0.0183925     0.0549845    0.0174240     0.5984408   -0.1180281 
   3.062350000     0.0868536    0.1981156     0.0608164    0.0194856     0.0549993    0.0192240     0.5969998   -0.1291789 
   3.082300000     0.0924233    0.1968368     0.0633053    0.0125298     0.0575854    0.0199096     0.5921282   -0.1402383 
   3.102250000     0.0978115    0.1950317     0.0575261    0.0099179     0.0593735    0.0177908     0.5862781   -0.1541471 
   3.122200000     0.1032605    0.1937124     0.0548852    0.0150177     0.0582998    0.0163662     0.5813773   -0.1685321 
   3.142150000     0.1083529    0.1924784     0.0606092    0.0187647     0.0577839    0.0171508     0.5794024   -0.1818695 
