! 5/10/2016 1:39:23 PM
! C:\ANRITSUVNA\DATA\INFINEON-SP2T-OFF-C-RX1.S2P
! CHANNEL.1
! TR.MEASUREMENT
! CORRECTED.DATA
# GHZ S RI R 50.0
! FREQ.GHZ         S11RE         S11IM         S21RE         S21IM         S12RE         S12IM         S22RE         S22IM         
!; PortSelection: Port_12
   0.010000000     0.9942924   -0.0159510     0.0002136    0.0009588     0.0001977    0.0009681     0.9954995   -0.0158097 
   0.029950000     0.9922031   -0.0438709    -0.0000696    0.0035717    -0.0001099    0.0035551     0.9927332   -0.0417315 
   0.049900000     0.9898298   -0.0720520    -0.0000080    0.0062196    -0.0000456    0.0062086     0.9902651   -0.0676413 
   0.069850000     0.9865282   -0.1000704     0.0000344    0.0089079     0.0000482    0.0089114     0.9873429   -0.0935003 
   0.089800000     0.9828437   -0.1275625     0.0003154    0.0115947     0.0003459    0.0115585     0.9834614   -0.1190673 
   0.109750000     0.9777610   -0.1549279     0.0006720    0.0141504     0.0007183    0.0142134     0.9792947   -0.1450602 
   0.129700000     0.9723916   -0.1823747     0.0011539    0.0167779     0.0011692    0.0168269     0.9745649   -0.1704329 
   0.149650000     0.9661492   -0.2095881     0.0017086    0.0194622     0.0017145    0.0194893     0.9691988   -0.1949268 
   0.169600000     0.9593905   -0.2364892     0.0023489    0.0221381     0.0023374    0.0220908     0.9634873   -0.2192139 
   0.189550000     0.9514855   -0.2630293     0.0031792    0.0247261     0.0031336    0.0247333     0.9563496   -0.2435894 
   0.209500000     0.9433597   -0.2893757     0.0040701    0.0272941     0.0039917    0.0273014     0.9488792   -0.2689192 
   0.229450000     0.9341891   -0.3149696     0.0049991    0.0297385     0.0049307    0.0299094     0.9412051   -0.2938640 
   0.249400000     0.9248112   -0.3402858     0.0058592    0.0323701     0.0059723    0.0326048     0.9331474   -0.3182530 
   0.269350000     0.9143599   -0.3654644     0.0072161    0.0351301     0.0071929    0.0351842     0.9239261   -0.3420798 
   0.289300000     0.9028989   -0.3908989     0.0087809    0.0377192     0.0086213    0.0376132     0.9136695   -0.3661838 
   0.309250000     0.8909951   -0.4157905     0.0101443    0.0396528     0.0099825    0.0397237     0.9031162   -0.3900981 
   0.329200000     0.8785684   -0.4401265     0.0111207    0.0418445     0.0109237    0.0421318     0.8924136   -0.4136963 
   0.349150000     0.8654815   -0.4632047     0.0122598    0.0446497     0.0122888    0.0449317     0.8811361   -0.4354936 
   0.369100000     0.8516442   -0.4868686     0.0143449    0.0474261     0.0144993    0.0475602     0.8693534   -0.4576283 
   0.389050000     0.8368616   -0.5096220     0.0165801    0.0490852     0.0166110    0.0490922     0.8567247   -0.4790198 
   0.409000000     0.8217920   -0.5324315     0.0177574    0.0508317     0.0176365    0.0507457     0.8430642   -0.5018123 
   0.428950000     0.8064345   -0.5538373     0.0188279    0.0536309     0.0186343    0.0535874     0.8293913   -0.5231447 
   0.448900000     0.7899194   -0.5755747     0.0214764    0.0567003     0.0211950    0.0567699     0.8142957   -0.5448067 
   0.468850000     0.7731693   -0.5966077     0.0246721    0.0580313     0.0243275    0.0582182     0.8003415   -0.5645844 
   0.488800000     0.7553644   -0.6171890     0.0263988    0.0586782     0.0261637    0.0590800     0.7854198   -0.5838854 
   0.508750000     0.7381968   -0.6370633     0.0267991    0.0604586     0.0267375    0.0608407     0.7702135   -0.6027667 
   0.528700000     0.7187176   -0.6568048     0.0287843    0.0640657     0.0284566    0.0646204     0.7527566   -0.6225299 
   0.548650000     0.6997544   -0.6757920     0.0326657    0.0664018     0.0325792    0.0672586     0.7354336   -0.6423997 
   0.568600000     0.6798485   -0.6945352     0.0357981    0.0665485     0.0362115    0.0675763     0.7170970   -0.6613851 
   0.588550000     0.6603205   -0.7120258     0.0366056    0.0671521     0.0375422    0.0678007     0.7006336   -0.6792659 
   0.608500000     0.6383697   -0.7294542     0.0375274    0.0698304     0.0383927    0.0699017     0.6813851   -0.6956607 
   0.628450000     0.6170872   -0.7465804     0.0407543    0.0733313     0.0411453    0.0733029     0.6621497   -0.7137670 
   0.648400000     0.5946265   -0.7625617     0.0451105    0.0744728     0.0455967    0.0747804     0.6412293   -0.7310720 
   0.668350000     0.5733112   -0.7786150     0.0478524    0.0745775     0.0484554    0.0747573     0.6214308   -0.7488770 
   0.688300000     0.5506276   -0.7927165     0.0493923    0.0756941     0.0497786    0.0755624     0.6013407   -0.7634497 
   0.708250000     0.5274426   -0.8071744     0.0519227    0.0781991     0.0518443    0.0780573     0.5809909   -0.7781797 
   0.728200000     0.5035427   -0.8207318     0.0560221    0.0798053     0.0559828    0.0799973     0.5595640   -0.7918189 
   0.748150000     0.4799874   -0.8344112     0.0596434    0.0800411     0.0598145    0.0801152     0.5377550   -0.8069323 
   0.768100000     0.4561538   -0.8459117     0.0618954    0.0802184     0.0619674    0.0802137     0.5154915   -0.8200929 
   0.788050000     0.4321407   -0.8571913     0.0642025    0.0816463     0.0640063    0.0819320     0.4929536   -0.8331550 
   0.808000000     0.4068784   -0.8670933     0.0677088    0.0831520     0.0680209    0.0836714     0.4700404   -0.8446004 
   0.827950000     0.3817507   -0.8781534     0.0718206    0.0836039     0.0722711    0.0837461     0.4469026   -0.8569458 
   0.847900000     0.3573251   -0.8872038     0.0747410    0.0832278     0.0747621    0.0833094     0.4239272   -0.8675254 
   0.867850000     0.3320439   -0.8957094     0.0767761    0.0840242     0.0769317    0.0846764     0.3991323   -0.8782353 
   0.887800000     0.3069429   -0.9020664     0.0797992    0.0855209     0.0811985    0.0861613     0.3747415   -0.8869817 
   0.907750000     0.2807248   -0.9093313     0.0843693    0.0864878     0.0861249    0.0853706     0.3505440   -0.8967234 
   0.927700000     0.2560197   -0.9155271     0.0884424    0.0858329     0.0881010    0.0838024     0.3277597   -0.9045503 
   0.947650000     0.2302017   -0.9208893     0.0913124    0.0855384     0.0893303    0.0851211     0.3028721   -0.9122067 
   0.967600000     0.2044016   -0.9253303     0.0944715    0.0860257     0.0936824    0.0876079     0.2779951   -0.9186561 
   0.987550000     0.1771565   -0.9287890     0.0992621    0.0856834     0.1002188    0.0867149     0.2515736   -0.9249679 
   1.007500000     0.1517266   -0.9330066     0.1026818    0.0837186     0.1027993    0.0829850     0.2270826   -0.9317373 
   1.027450000     0.1254930   -0.9351483     0.1039750    0.0825201     0.1023688    0.0831142     0.2023938   -0.9358143 
   1.047400000     0.0997194   -0.9364625     0.1057495    0.0839509     0.1055408    0.0873907     0.1778832   -0.9397542 
   1.067350000     0.0725467   -0.9366750     0.1108468    0.0851221     0.1144636    0.0878413     0.1517198   -0.9422854 
   1.087300000     0.0463240   -0.9380859     0.1160088    0.0831944     0.1198765    0.0819444     0.1255826   -0.9462734 
   1.107250000     0.0204369   -0.9367516     0.1179407    0.0809794     0.1187921    0.0783758     0.0994600   -0.9479831 
   1.127200000    -0.0056897   -0.9359661     0.1196516    0.0820893     0.1186164    0.0816137     0.0744612   -0.9495237 
   1.147150000    -0.0320112   -0.9326434     0.1251755    0.0830217     0.1260995    0.0846708     0.0483097   -0.9491357 
   1.167100000    -0.0577799   -0.9301775     0.1312009    0.0798145     0.1343951    0.0801136     0.0213875   -0.9492286 
   1.187050000    -0.0825162   -0.9270281     0.1321496    0.0759060     0.1354199    0.0738728    -0.0036145   -0.9489188 
   1.207000000    -0.1082318   -0.9236267     0.1321916    0.0776278     0.1340039    0.0739544    -0.0293612   -0.9480037 
   1.226950000    -0.1332420   -0.9164826     0.1387510    0.0810738     0.1378611    0.0770299    -0.0536951   -0.9442159 
   1.246900000    -0.1596040   -0.9120399     0.1490246    0.0770448     0.1455962    0.0752335    -0.0792704   -0.9427206 
   1.266850000    -0.1836757   -0.9055137     0.1519025    0.0677088     0.1492141    0.0695435    -0.1044989   -0.9385868 
   1.286800000    -0.2085378   -0.8993760     0.1483424    0.0638718     0.1492769    0.0672736    -0.1314008   -0.9343936 
   1.306750000    -0.2315016   -0.8905181     0.1476462    0.0669282     0.1518114    0.0678008    -0.1554808   -0.9292483 
   1.326700000    -0.2573034   -0.8807756     0.1541717    0.0692997     0.1570733    0.0662198    -0.1818366   -0.9230474 
   1.346650000    -0.2811097   -0.8722242     0.1607640    0.0653707     0.1605978    0.0622608    -0.2050569   -0.9171835 
   1.366600000    -0.3062623   -0.8622673     0.1628234    0.0610528     0.1627564    0.0599716    -0.2312583   -0.9094427 
   1.386550000    -0.3278188   -0.8524481     0.1648332    0.0601176     0.1661639    0.0580885    -0.2547858   -0.9023405 
   1.406500000    -0.3501402   -0.8408409     0.1700677    0.0582383     0.1699476    0.0546714    -0.2800198   -0.8925878 
   1.426450000    -0.3726708   -0.8294271     0.1739386    0.0533272     0.1719183    0.0509251    -0.3043587   -0.8842738 
   1.446400000    -0.3958206   -0.8163790     0.1746718    0.0493243     0.1736979    0.0488774    -0.3282716   -0.8740491 
   1.466350000    -0.4173953   -0.8044800     0.1766144    0.0485049     0.1771911    0.0468190    -0.3503474   -0.8648059 
   1.486300000    -0.4382005   -0.7904465     0.1815523    0.0462263     0.1805114    0.0427710    -0.3733959   -0.8529528 
   1.506250000    -0.4585284   -0.7766745     0.1852988    0.0406812     0.1820846    0.0388018    -0.3967204   -0.8411620 
   1.526200000    -0.4815089   -0.7602260     0.1857827    0.0351866     0.1841737    0.0354713    -0.4210688   -0.8288022 
   1.546150000    -0.4993599   -0.7473054     0.1865420    0.0338434     0.1858038    0.0324327    -0.4417913   -0.8164998 
   1.566100000    -0.5182979   -0.7306998     0.1895458    0.0315733     0.1864664    0.0293730    -0.4614674   -0.8029328 
   1.586050000    -0.5372812   -0.7150718     0.1925831    0.0275157     0.1882572    0.0285464    -0.4828966   -0.7887359 
   1.606000000    -0.5553502   -0.6984744     0.1939562    0.0232074     0.1941758    0.0261799    -0.5038267   -0.7732542 
   1.625950000    -0.5736325   -0.6819735     0.1956650    0.0196812     0.1985385    0.0177348    -0.5249395   -0.7583230 
   1.645900000    -0.5897197   -0.6647757     0.1973050    0.0157505     0.1951291    0.0099853    -0.5441180   -0.7431613 
   1.665850000    -0.6065467   -0.6467294     0.1985086    0.0118604     0.1909913    0.0111162    -0.5634681   -0.7275701 
   1.685800000    -0.6227852   -0.6282601     0.1994422    0.0087556     0.1966550    0.0144190    -0.5816036   -0.7105616 
   1.705750000    -0.6394520   -0.6095494     0.2018880    0.0045693     0.2065512    0.0058820    -0.6004944   -0.6925631 
   1.725700000    -0.6540865   -0.5912531     0.2022168   -0.0012525     0.2029288   -0.0083118    -0.6185812   -0.6755424 
   1.745650000    -0.6684709   -0.5716077     0.1999179   -0.0045168     0.1918024   -0.0090998    -0.6355508   -0.6576914 
   1.765600000    -0.6826531   -0.5517983     0.2001930   -0.0040443     0.1917654    0.0006735    -0.6517406   -0.6399949 
   1.785550000    -0.6961344   -0.5310675     0.2059040   -0.0060494     0.2058781    0.0007216    -0.6679084   -0.6204484 
   1.805500000    -0.7089869   -0.5114657     0.2091143   -0.0152134     0.2118068   -0.0156417    -0.6834748   -0.6015740 
   1.825450000    -0.7204922   -0.4908021     0.2043806   -0.0227722     0.2015465   -0.0247809    -0.6989147   -0.5815089 
   1.845400000    -0.7325323   -0.4702499     0.1996484   -0.0220740     0.1959841   -0.0194734    -0.7141346   -0.5619236 
   1.865350000    -0.7435478   -0.4482484     0.2032700   -0.0197640     0.2043861   -0.0167630    -0.7272857   -0.5412229 
   1.885300000    -0.7539961   -0.4268625     0.2102201   -0.0252427     0.2106018   -0.0284867    -0.7403966   -0.5215449 
   1.905250000    -0.7629995   -0.4060221     0.2093830   -0.0353842     0.2031806   -0.0379571    -0.7517563   -0.5011340 
   1.925200000    -0.7722415   -0.3851346     0.2039234   -0.0391568     0.1971535   -0.0352139    -0.7646708   -0.4803912 
   1.945150000    -0.7799554   -0.3624258     0.2031448   -0.0390301     0.2017532   -0.0330659    -0.7756928   -0.4572011 
   1.965100000    -0.7888067   -0.3397839     0.2051710   -0.0427889     0.2051051   -0.0408837    -0.7883142   -0.4352013 
   1.985050000    -0.7956267   -0.3182320     0.2036907   -0.0485015     0.1998052   -0.0453420    -0.7979889   -0.4139735 
   2.005000000    -0.8029907   -0.2963364     0.2000103   -0.0500573     0.1987336   -0.0414423    -0.8087211   -0.3925733 
   2.024950000    -0.8080742   -0.2746801     0.2005199   -0.0497951     0.2075708   -0.0435253    -0.8160561   -0.3707831 
   2.044900000    -0.8135167   -0.2520218     0.2024273   -0.0534124     0.2080021   -0.0574369    -0.8248790   -0.3481400 
   2.064850000    -0.8177661   -0.2296728     0.2009384   -0.0578683     0.1956637   -0.0613949    -0.8323071   -0.3259172 
   2.084800000    -0.8228605   -0.2062456     0.1993606   -0.0584278     0.1931227   -0.0507235    -0.8407590   -0.3022682 
   2.104750000    -0.8258578   -0.1839163     0.2026701   -0.0596986     0.2091336   -0.0486288    -0.8463050   -0.2797738 
   2.124700000    -0.8284988   -0.1613858     0.2043664   -0.0671160     0.2161823   -0.0705976    -0.8519219   -0.2560172 
   2.144650000    -0.8302072   -0.1393352     0.1990585   -0.0725878     0.1968278   -0.0833551    -0.8572434   -0.2344374 
   2.164600000    -0.8326427   -0.1157376     0.1950072   -0.0703430     0.1832927   -0.0703704    -0.8626595   -0.2106404 
   2.184550000    -0.8333092   -0.0925901     0.2007477   -0.0682682     0.1951197   -0.0567752    -0.8665321   -0.1883717 
   2.204500000    -0.8340365   -0.0698911     0.2064801   -0.0779764     0.2130962   -0.0694248    -0.8704900   -0.1652635 
   2.224450000    -0.8341119   -0.0482236     0.1992878   -0.0892892     0.2034189   -0.0905890    -0.8728919   -0.1428674 
   2.244400000    -0.8338736   -0.0257132     0.1883689   -0.0875846     0.1856898   -0.0864712    -0.8756956   -0.1186041 
   2.264350000    -0.8330309   -0.0034573     0.1891065   -0.0800116     0.1894847   -0.0722488    -0.8775803   -0.0954554 
   2.284300000    -0.8299950    0.0193219     0.1978979   -0.0819095     0.2054635   -0.0765167    -0.8773287   -0.0710949 
   2.304250000    -0.8279762    0.0409348     0.1987853   -0.0932021     0.2043605   -0.0951332    -0.8784741   -0.0487620 
   2.324200000    -0.8250676    0.0626730     0.1902737   -0.0985157     0.1901701   -0.0982129    -0.8783264   -0.0251892 
   2.344150000    -0.8221495    0.0839260     0.1857803   -0.0947035     0.1887287   -0.0901071    -0.8782383   -0.0032489 
   2.364100000    -0.8168113    0.1049906     0.1886815   -0.0926178     0.1965344   -0.0920155    -0.8752708    0.0191148 
   2.384050000    -0.8113069    0.1264310     0.1922142   -0.0960276     0.1952081   -0.1021612    -0.8731648    0.0412833 
   2.404000000    -0.8062277    0.1479801     0.1923220   -0.1018424     0.1877732   -0.1028947    -0.8704647    0.0644228 
   2.423950000    -0.8006554    0.1690212     0.1895270   -0.1064948     0.1897344   -0.0991498    -0.8675827    0.0871769 
   2.443900000    -0.7939068    0.1892526     0.1847586   -0.1083196     0.1949095   -0.1048518    -0.8634014    0.1091638 
   2.463850000    -0.7868749    0.2094861     0.1822290   -0.1048901     0.1895837   -0.1127935    -0.8591002    0.1306495 
   2.483800000    -0.7788161    0.2300463     0.1880955   -0.1021079     0.1839985   -0.1092008    -0.8537266    0.1527624 
   2.503750000    -0.7710830    0.2501300     0.1963880   -0.1107646     0.1905012   -0.1063701    -0.8485327    0.1746553 
   2.523700000    -0.7628173    0.2697855     0.1903955   -0.1246756     0.1961873   -0.1178351    -0.8430532    0.1957925 
   2.543650000    -0.7545230    0.2888711     0.1761624   -0.1230170     0.1848731   -0.1276052    -0.8375924    0.2168175 
   2.563600000    -0.7451566    0.3076883     0.1775785   -0.1099183     0.1754922   -0.1190541    -0.8310053    0.2369648 
   2.583550000    -0.7352583    0.3265206     0.1949962   -0.1109998     0.1849633   -0.1108573    -0.8229010    0.2571617 
   2.603500000    -0.7251577    0.3445456     0.1988651   -0.1339294     0.1970426   -0.1224946    -0.8149226    0.2770000 
   2.623450000    -0.7148604    0.3629260     0.1771708   -0.1426484     0.1874510   -0.1388377    -0.8070378    0.2977147 
   2.643400000    -0.7041200    0.3805465     0.1691074   -0.1253065     0.1738876   -0.1334437    -0.7988219    0.3171960 
   2.663350000    -0.6921708    0.3981966     0.1882099   -0.1169457     0.1794824   -0.1232793    -0.7893203    0.3372272 
   2.683300000    -0.6803828    0.4149833     0.2037911   -0.1419295     0.1918662   -0.1315958    -0.7804099    0.3547653 
   2.703250000    -0.6682655    0.4326043     0.1790238   -0.1655367     0.1847319   -0.1463489    -0.7702959    0.3739236 
   2.723200000    -0.6558375    0.4491160     0.1558022   -0.1487494     0.1733325   -0.1421431    -0.7603409    0.3925661 
   2.743150000    -0.6426416    0.4657595     0.1668680   -0.1279990     0.1799851   -0.1342578    -0.7487518    0.4117178 
   2.763100000    -0.6290696    0.4802243     0.1899984   -0.1373193     0.1911256   -0.1462809    -0.7381864    0.4281490 
   2.783050000    -0.6149490    0.4960477     0.1830950   -0.1637789     0.1791662   -0.1619674    -0.7266075    0.4450574 
   2.803000000    -0.6004833    0.5105226     0.1609154   -0.1604436     0.1656581   -0.1537157    -0.7149513    0.4617773 
   2.822950000    -0.5853799    0.5256171     0.1645612   -0.1431879     0.1754820   -0.1424369    -0.7009483    0.4794674 
   2.842900000    -0.5714686    0.5375121     0.1831796   -0.1495281     0.1911682   -0.1571232    -0.6883890    0.4958533 
   2.862850000    -0.5567597    0.5513209     0.1778627   -0.1721874     0.1762005   -0.1790967    -0.6758253    0.5118324 
   2.882800000    -0.5409159    0.5639036     0.1580058   -0.1695406     0.1549149   -0.1689637    -0.6642561    0.5267631 
   2.902750000    -0.5240520    0.5776843     0.1627894   -0.1542433     0.1648414   -0.1499282    -0.6498359    0.5416947 
   2.922700000    -0.5087592    0.5890169     0.1819360   -0.1633108     0.1883598   -0.1612632    -0.6356094    0.5554174 
   2.942650000    -0.4933251    0.6014771     0.1733691   -0.1901165     0.1800684   -0.1924361    -0.6207735    0.5709755 
   2.962600000    -0.4774958    0.6121277     0.1469024   -0.1864093     0.1502615   -0.1895187    -0.6063187    0.5865198 
   2.982550000    -0.4613205    0.6232976     0.1506419   -0.1656136     0.1527917   -0.1661083    -0.5913598    0.6005067 
   3.002500000    -0.4446418    0.6330132     0.1730446   -0.1723880     0.1767877   -0.1706894    -0.5777397    0.6130678 
   3.022450000    -0.4276286    0.6437497     0.1656002   -0.2024048     0.1749794   -0.2014323    -0.5631313    0.6246755 
   3.042400000    -0.4098532    0.6539651     0.1332749   -0.1977901     0.1437252   -0.2043640    -0.5468009    0.6382720 
   3.062350000    -0.3929007    0.6634817     0.1365101   -0.1690273     0.1408265   -0.1796527    -0.5298826    0.6504443 
   3.082300000    -0.3756310    0.6712431     0.1684266   -0.1700941     0.1643026   -0.1786778    -0.5142977    0.6624720 
   3.102250000    -0.3587544    0.6788324     0.1739372   -0.2108047     0.1688693   -0.2070188    -0.5004432    0.6725982 
   3.122200000    -0.3391653    0.6875010     0.1301997   -0.2228037     0.1395700   -0.2161147    -0.4839725    0.6841370 
   3.142150000    -0.3214216    0.6944778     0.1175147   -0.1869951     0.1328186   -0.1930515    -0.4677099    0.6928406 
