! 5/5/2016 5:08:01 PM
! C:\ANRITSUVNA\DATA\INFINEON-SP4T-STATE01-C-RX3.S2P
! CHANNEL.1
! TR.MEASUREMENT
! CORRECTED.DATA
# GHZ S RI R 50.0
! FREQ.GHZ         S11RE         S11IM         S21RE         S21IM         S12RE         S12IM         S22RE         S22IM         
!; PortSelection: Port_12
   0.010000000    -0.9730088    0.0884977     0.0000020    0.0000073     0.0000029   -0.0000041    -0.7878348    0.0218220 
   0.014987500    -0.9610921    0.1263562     0.0000063    0.0000195    -0.0000117    0.0000088    -0.7847537    0.0209297 
   0.019975000    -0.9479685    0.1625747    -0.0000099    0.0000065    -0.0000027    0.0000104    -0.7844856    0.0274329 
   0.024962500    -0.9331332    0.1972911    -0.0000385    0.0000194    -0.0000298    0.0000192    -0.7840357    0.0338839 
   0.029950000    -0.9169478    0.2299131    -0.0000341    0.0000237    -0.0000420    0.0000292    -0.7835798    0.0403704 
   0.034937500    -0.8995183    0.2605931    -0.0000530    0.0000326    -0.0000517    0.0000293    -0.7831206    0.0469285 
   0.039925000    -0.8808302    0.2900175    -0.0000664    0.0000393    -0.0000672    0.0000358    -0.7825226    0.0531365 
   0.044912500    -0.8611537    0.3173141    -0.0000797    0.0000514    -0.0000828    0.0000413    -0.7820484    0.0597357 
   0.049900000    -0.8401415    0.3430934    -0.0000971    0.0000589    -0.0000990    0.0000556    -0.7810826    0.0662451 
   0.054887500    -0.8180729    0.3672535    -0.0001169    0.0000667    -0.0001121    0.0000671    -0.7804708    0.0723979 
   0.059875000    -0.7957196    0.3895417    -0.0001291    0.0000907    -0.0001347    0.0000801    -0.7794634    0.0789041 
   0.064862500    -0.7729378    0.4102316    -0.0001542    0.0001048    -0.0001481    0.0001015    -0.7789385    0.0852413 
   0.069850000    -0.7492406    0.4294138    -0.0001722    0.0001216    -0.0001710    0.0001221    -0.7779508    0.0916137 
   0.074837500    -0.7254541    0.4466046    -0.0001943    0.0001367    -0.0001804    0.0001394    -0.7771391    0.0979143 
   0.079825000    -0.7015020    0.4623553    -0.0002192    0.0001656    -0.0002052    0.0001554    -0.7761675    0.1043224 
   0.084812500    -0.6773368    0.4761554    -0.0002355    0.0001883    -0.0002324    0.0001829    -0.7751741    0.1104947 
   0.089800000    -0.6530384    0.4889271    -0.0002614    0.0002073    -0.0002508    0.0002099    -0.7740668    0.1168067 
   0.094787500    -0.6288762    0.5000506    -0.0002934    0.0002462    -0.0002822    0.0002390    -0.7728101    0.1231794 
   0.099775000    -0.6048381    0.5100424    -0.0003008    0.0002801    -0.0002975    0.0002837    -0.7716385    0.1294527 
   0.104762500    -0.5811046    0.5186722    -0.0003032    0.0003065    -0.0003030    0.0003046    -0.7703056    0.1356681 
   0.109750000    -0.5578981    0.5261185    -0.0003263    0.0003326    -0.0003225    0.0003270    -0.7690435    0.1421156 
   0.114737500    -0.5349320    0.5324436    -0.0003394    0.0003632    -0.0003410    0.0003595    -0.7678203    0.1482851 
   0.119725000    -0.5125868    0.5374929    -0.0003602    0.0003907    -0.0003591    0.0003906    -0.7666048    0.1546473 
   0.124712500    -0.4902793    0.5412416    -0.0003712    0.0004157    -0.0003709    0.0004175    -0.7651544    0.1607818 
   0.129700000    -0.4682556    0.5442631    -0.0003963    0.0004532    -0.0003977    0.0004452    -0.7637405    0.1670920 
   0.134687500    -0.4470749    0.5463644    -0.0004108    0.0004850    -0.0004048    0.0004823    -0.7619960    0.1730235 
   0.139675000    -0.4261309    0.5479516    -0.0004351    0.0005206    -0.0004301    0.0005133    -0.7606256    0.1792149 
   0.144662500    -0.4057931    0.5485636    -0.0004429    0.0005619    -0.0004369    0.0005478    -0.7588639    0.1853574 
   0.149650000    -0.3858119    0.5485145    -0.0004595    0.0005955    -0.0004480    0.0005898    -0.7571018    0.1913593 
   0.154637500    -0.3667495    0.5479582    -0.0004715    0.0006323    -0.0004639    0.0006232    -0.7555115    0.1975922 
   0.159625000    -0.3482111    0.5466346    -0.0004881    0.0006745    -0.0004805    0.0006685    -0.7537966    0.2037159 
   0.164612500    -0.3303843    0.5446750    -0.0004966    0.0007142    -0.0004898    0.0007110    -0.7521394    0.2097735 
   0.169600000    -0.3129387    0.5422097    -0.0005212    0.0007518    -0.0005054    0.0007491    -0.7499785    0.2155571 
   0.174587500    -0.2956810    0.5393085    -0.0005305    0.0007992    -0.0005069    0.0007921    -0.7483087    0.2217322 
   0.179575000    -0.2792200    0.5359009    -0.0005369    0.0008409    -0.0005284    0.0008357    -0.7463683    0.2278039 
   0.184562500    -0.2636092    0.5322239    -0.0005480    0.0008782    -0.0005452    0.0008785    -0.7443472    0.2337920 
   0.189550000    -0.2483603    0.5281307    -0.0005598    0.0009193    -0.0005544    0.0009199    -0.7423285    0.2396096 
   0.194537500    -0.2336255    0.5237364    -0.0005658    0.0009664    -0.0005578    0.0009668    -0.7404026    0.2454026 
   0.199525000    -0.2195264    0.5188887    -0.0005710    0.0010115    -0.0005703    0.0010085    -0.7382939    0.2515106 
   0.204512500    -0.2060159    0.5137090    -0.0005738    0.0010548    -0.0005793    0.0010441    -0.7361225    0.2572981 
   0.209500000    -0.1928647    0.5082495    -0.0005870    0.0010933    -0.0005796    0.0010899    -0.7340238    0.2629890 
   0.214487500    -0.1800200    0.5025011    -0.0005943    0.0011406    -0.0005848    0.0011324    -0.7316785    0.2687527 
   0.219475000    -0.1677541    0.4966445    -0.0005967    0.0011849    -0.0005929    0.0011765    -0.7291159    0.2747549 
   0.224462500    -0.1556937    0.4905615    -0.0005990    0.0012337    -0.0005916    0.0012172    -0.7265951    0.2803540 
   0.229450000    -0.1443332    0.4846595    -0.0006037    0.0012815    -0.0005941    0.0012605    -0.7242370    0.2861332 
   0.234437500    -0.1332046    0.4785504    -0.0006056    0.0013235    -0.0005919    0.0013080    -0.7216439    0.2919409 
   0.239425000    -0.1225993    0.4722055    -0.0006065    0.0013700    -0.0005933    0.0013626    -0.7189706    0.2978284 
   0.244412500    -0.1127720    0.4658864    -0.0006082    0.0014098    -0.0005929    0.0014039    -0.7165586    0.3036862 
   0.249400000    -0.1029455    0.4593436    -0.0006059    0.0014636    -0.0005935    0.0014442    -0.7138116    0.3092457 
   0.254387500    -0.0934591    0.4526102    -0.0006007    0.0015100    -0.0005953    0.0014962    -0.7111394    0.3146804 
   0.259375000    -0.0844521    0.4458813    -0.0005956    0.0015412    -0.0005954    0.0015456    -0.7086825    0.3201540 
   0.264362500    -0.0755343    0.4392429    -0.0006026    0.0015870    -0.0005977    0.0015855    -0.7060012    0.3259274 
   0.269350000    -0.0674178    0.4327659    -0.0006080    0.0016297    -0.0005928    0.0016228    -0.7032579    0.3314125 
   0.274337500    -0.0592456    0.4262133    -0.0006020    0.0016763    -0.0005998    0.0016779    -0.7007418    0.3367843 
   0.279325000    -0.0517091    0.4195812    -0.0006048    0.0017229    -0.0006023    0.0017221    -0.6979719    0.3424373 
   0.284312500    -0.0444112    0.4128684    -0.0006047    0.0017747    -0.0006079    0.0017619    -0.6952631    0.3479338 
   0.289300000    -0.0378347    0.4061447    -0.0005931    0.0018157    -0.0005940    0.0018091    -0.6925024    0.3533802 
   0.294287500    -0.0310749    0.3993216    -0.0005999    0.0018688    -0.0005862    0.0018562    -0.6896889    0.3585662 
   0.299275000    -0.0247548    0.3923795    -0.0005903    0.0019112    -0.0005821    0.0019112    -0.6865195    0.3638122 
   0.304262500    -0.0184190    0.3855614    -0.0005887    0.0019686    -0.0005779    0.0019508    -0.6833282    0.3693369 
   0.309250000    -0.0127704    0.3786934    -0.0005749    0.0020117    -0.0005710    0.0019997    -0.6800331    0.3747754 
   0.314237500    -0.0070198    0.3721226    -0.0005647    0.0020638    -0.0005631    0.0020447    -0.6763976    0.3799235 
   0.319225000    -0.0017652    0.3654255    -0.0005607    0.0021136    -0.0005420    0.0021002    -0.6730673    0.3854055 
   0.324212500     0.0032142    0.3587933    -0.0005533    0.0021643    -0.0005447    0.0021411    -0.6695268    0.3910819 
   0.329200000     0.0080604    0.3522660    -0.0005415    0.0022083    -0.0005350    0.0021823    -0.6661205    0.3965549 
   0.334187500     0.0126319    0.3454455    -0.0005276    0.0022564    -0.0005272    0.0022295    -0.6625684    0.4014164 
   0.339175000     0.0171263    0.3389246    -0.0005194    0.0023037    -0.0005145    0.0022797    -0.6589769    0.4069366 
   0.344162500     0.0211367    0.3324134    -0.0005050    0.0023524    -0.0005098    0.0023437    -0.6551816    0.4122824 
   0.349150000     0.0250478    0.3260158    -0.0004969    0.0023843    -0.0004968    0.0023697    -0.6517060    0.4176171 
   0.354137500     0.0289850    0.3196245    -0.0004904    0.0024243    -0.0004944    0.0024228    -0.6480189    0.4227104 
   0.359125000     0.0326081    0.3133159    -0.0004858    0.0024641    -0.0004784    0.0024793    -0.6445873    0.4282396 
   0.364112500     0.0359186    0.3073127    -0.0004750    0.0025270    -0.0004872    0.0025309    -0.6410293    0.4334520 
   0.369100000     0.0388740    0.3011472    -0.0004720    0.0025710    -0.0004782    0.0025714    -0.6376473    0.4385879 
   0.374087500     0.0418368    0.2950048    -0.0004661    0.0026057    -0.0004629    0.0026114    -0.6339916    0.4433554 
   0.379075000     0.0445338    0.2886907    -0.0004684    0.0026536    -0.0004449    0.0026703    -0.6308108    0.4483363 
   0.384062500     0.0471717    0.2825611    -0.0004589    0.0027119    -0.0004326    0.0027202    -0.6272026    0.4530760 
   0.389050000     0.0496760    0.2766002    -0.0004534    0.0027657    -0.0004186    0.0027563    -0.6234662    0.4580512 
   0.394037500     0.0520746    0.2705705    -0.0004385    0.0028268    -0.0004020    0.0028012    -0.6194975    0.4627717 
   0.399025000     0.0544155    0.2646104    -0.0004070    0.0028813    -0.0003742    0.0028585    -0.6155545    0.4674961 
   0.404012500     0.0564507    0.2588839    -0.0003841    0.0029426    -0.0003578    0.0029078    -0.6113835    0.4723513 
   0.409000000     0.0584004    0.2531334    -0.0003577    0.0029964    -0.0003440    0.0029426    -0.6074767    0.4774260 
   0.413987500     0.0600288    0.2475246    -0.0003328    0.0030545    -0.0003339    0.0029903    -0.6035486    0.4823496 
   0.418975000     0.0616854    0.2418269    -0.0002968    0.0030849    -0.0003054    0.0030504    -0.5995046    0.4869532 
   0.423962500     0.0631835    0.2362177    -0.0002701    0.0031311    -0.0002884    0.0030925    -0.5948910    0.4915113 
   0.428950000     0.0647186    0.2306337    -0.0002441    0.0031670    -0.0002831    0.0031312    -0.5906675    0.4964446 
   0.433937500     0.0661026    0.2253722    -0.0002296    0.0032070    -0.0002713    0.0031787    -0.5861063    0.5008384 
   0.438925000     0.0674215    0.2199914    -0.0001951    0.0032331    -0.0002332    0.0032315    -0.5816123    0.5056509 
   0.443912500     0.0684001    0.2147757    -0.0001760    0.0032609    -0.0002144    0.0032811    -0.5772558    0.5101469 
   0.448900000     0.0692599    0.2096326    -0.0001757    0.0033043    -0.0002166    0.0033224    -0.5728316    0.5148846 
   0.453887500     0.0700134    0.2046977    -0.0001737    0.0033384    -0.0001940    0.0033616    -0.5686769    0.5194952 
   0.458875000     0.0706257    0.1996825    -0.0001646    0.0033710    -0.0001626    0.0034184    -0.5646868    0.5238333 
   0.463862500     0.0711653    0.1945253    -0.0001575    0.0034269    -0.0001432    0.0034721    -0.5605485    0.5281386 
   0.468850000     0.0716481    0.1895478    -0.0001545    0.0034792    -0.0001308    0.0035202    -0.5560166    0.5324086 
   0.473837500     0.0723026    0.1847706    -0.0001507    0.0035429    -0.0001147    0.0035559    -0.5516420    0.5369226 
   0.478825000     0.0726323    0.1799713    -0.0001202    0.0036113    -0.0000618    0.0036060    -0.5471226    0.5411242 
   0.483812500     0.0728107    0.1753742    -0.0000962    0.0036775    -0.0000249    0.0036604    -0.5426095    0.5454419 
   0.488800000     0.0729702    0.1707081    -0.0000705    0.0037409    -0.0000157    0.0037097    -0.5380259    0.5500776 
   0.493787500     0.0730468    0.1662762    -0.0000218    0.0037976     0.0000015    0.0037437    -0.5334641    0.5545239 
   0.498775000     0.0730663    0.1616918     0.0000229    0.0038650     0.0000478    0.0037866    -0.5291193    0.5586648 
   0.503762500     0.0729402    0.1573696     0.0000744    0.0039020     0.0000746    0.0038460    -0.5244963    0.5628033 
   0.508750000     0.0726626    0.1529823     0.0001113    0.0039416     0.0000843    0.0038872    -0.5196701    0.5668241 
   0.513737500     0.0724639    0.1487121     0.0001591    0.0039819     0.0000993    0.0039122    -0.5145574    0.5710384 
   0.518725000     0.0721564    0.1444428     0.0001859    0.0040032     0.0001373    0.0039635    -0.5096741    0.5749644 
   0.523712500     0.0717821    0.1403776     0.0002323    0.0040226     0.0001688    0.0040120    -0.5044817    0.5788941 
   0.528700000     0.0711874    0.1364619     0.0002509    0.0040491     0.0001836    0.0040556    -0.4994601    0.5828818 
   0.533687500     0.0707123    0.1324923     0.0002652    0.0040659     0.0001964    0.0041066    -0.4943289    0.5871471 
   0.538675000     0.0698605    0.1286254     0.0002660    0.0040966     0.0002185    0.0041508    -0.4897436    0.5911935 
   0.543662500     0.0692363    0.1246887     0.0002805    0.0041450     0.0002505    0.0041964    -0.4850533    0.5947399 
   0.548650000     0.0684147    0.1208349     0.0002861    0.0041754     0.0002734    0.0042453    -0.4802032    0.5980279 
   0.553637500     0.0675912    0.1170310     0.0002893    0.0042447     0.0002837    0.0043007    -0.4752901    0.6016748 
   0.558625000     0.0668447    0.1132605     0.0002959    0.0042840     0.0003302    0.0043397    -0.4703943    0.6053052 
   0.563612500     0.0660157    0.1096051     0.0003120    0.0043530     0.0003750    0.0043917    -0.4654999    0.6086929 
   0.568600000     0.0650431    0.1059441     0.0003330    0.0044317     0.0004012    0.0044340    -0.4605924    0.6123982 
   0.573587500     0.0640890    0.1025569     0.0003639    0.0045137     0.0004336    0.0044792    -0.4551897    0.6161484 
   0.578575000     0.0631827    0.0992079     0.0004009    0.0045708     0.0004729    0.0045356    -0.4504227    0.6200227 
   0.583562500     0.0619976    0.0956877     0.0004423    0.0046436     0.0005103    0.0045705    -0.4458510    0.6231954 
   0.588550000     0.0611267    0.0924593     0.0005143    0.0046964     0.0005393    0.0046235    -0.4410223    0.6264301 
   0.593537500     0.0599447    0.0891875     0.0005591    0.0047523     0.0005677    0.0046554    -0.4356280    0.6297817 
   0.598525000     0.0588873    0.0861679     0.0006129    0.0047841     0.0006044    0.0047029    -0.4303694    0.6332361 
   0.603512500     0.0575985    0.0830127     0.0006736    0.0048075     0.0006458    0.0047449    -0.4250109    0.6364940 
   0.608500000     0.0562735    0.0801348     0.0007338    0.0048339     0.0006692    0.0047843    -0.4196993    0.6398401 
   0.613487500     0.0550365    0.0772131     0.0007644    0.0048510     0.0006889    0.0048199    -0.4140614    0.6432568 
   0.618475000     0.0535920    0.0744474     0.0007959    0.0048788     0.0007124    0.0048640    -0.4087781    0.6465741 
   0.623462500     0.0523026    0.0715702     0.0008171    0.0048933     0.0007616    0.0048999    -0.4033967    0.6495053 
   0.628450000     0.0506496    0.0689170     0.0008528    0.0049228     0.0007872    0.0049454    -0.3981860    0.6524165 
   0.633437500     0.0491893    0.0662160     0.0008646    0.0049600     0.0008044    0.0049809    -0.3926036    0.6553275 
   0.638425000     0.0476457    0.0634657     0.0008755    0.0049938     0.0008449    0.0050257    -0.3867870    0.6582587 
   0.643412500     0.0462083    0.0610083     0.0008953    0.0050386     0.0008838    0.0050835    -0.3811701    0.6609240 
   0.648400000     0.0445310    0.0583477     0.0009271    0.0050939     0.0009316    0.0051129    -0.3756467    0.6637895 
   0.653387500     0.0429543    0.0559472     0.0009466    0.0051431     0.0009592    0.0051666    -0.3698277    0.6666911 
   0.658375000     0.0413824    0.0534942     0.0009712    0.0052135     0.0010038    0.0052117    -0.3641982    0.6697896 
   0.663362500     0.0396733    0.0511507     0.0010156    0.0052720     0.0010383    0.0052591    -0.3589203    0.6727148 
   0.668350000     0.0379946    0.0486512     0.0010560    0.0053284     0.0010924    0.0052842    -0.3537891    0.6753768 
   0.673337500     0.0363587    0.0464271     0.0011214    0.0053803     0.0011191    0.0053409    -0.3484132    0.6779014 
   0.678325000     0.0344997    0.0442361     0.0011593    0.0054342     0.0011469    0.0053773    -0.3428379    0.6805118 
   0.683312500     0.0328099    0.0420659     0.0012173    0.0054865     0.0012016    0.0054355    -0.3371256    0.6833382 
   0.688300000     0.0312403    0.0398703     0.0012832    0.0055228     0.0012509    0.0054675    -0.3315932    0.6857393 
   0.693287500     0.0295634    0.0379408     0.0013405    0.0055506     0.0012841    0.0055095    -0.3259706    0.6884550 
   0.698275000     0.0279595    0.0360712     0.0013894    0.0055905     0.0013214    0.0055547    -0.3199514    0.6910297 
   0.703262500     0.0259931    0.0342737     0.0014400    0.0056117     0.0013679    0.0056035    -0.3143898    0.6935710 
   0.708250000     0.0241886    0.0325293     0.0014862    0.0056355     0.0014081    0.0056353    -0.3086755    0.6960489 
   0.713237500     0.0225176    0.0307410     0.0015303    0.0056504     0.0014551    0.0056829    -0.3028872    0.6979355 
   0.718225000     0.0205544    0.0290843     0.0015634    0.0056901     0.0014899    0.0057170    -0.2967474    0.7001479 
   0.723212500     0.0187073    0.0275488     0.0015904    0.0057092     0.0015363    0.0057540    -0.2909354    0.7020406 
   0.728200000     0.0168661    0.0259198     0.0016242    0.0057386     0.0016025    0.0057998    -0.2850006    0.7041458 
   0.733187500     0.0147037    0.0243466     0.0016556    0.0057878     0.0016471    0.0058368    -0.2788910    0.7060394 
   0.738175000     0.0128434    0.0228724     0.0016848    0.0058305     0.0016713    0.0058808    -0.2725819    0.7082622 
   0.743162500     0.0108851    0.0214723     0.0017119    0.0058832     0.0017204    0.0059174    -0.2664638    0.7099943 
   0.748150000     0.0088346    0.0200230     0.0017555    0.0059382     0.0017680    0.0059586    -0.2607839    0.7120569 
   0.753137500     0.0068182    0.0185742     0.0017974    0.0059894     0.0018201    0.0060048    -0.2550229    0.7137368 
   0.758125000     0.0048248    0.0171883     0.0018397    0.0060506     0.0018433    0.0060582    -0.2490133    0.7157030 
   0.763112500     0.0029737    0.0158484     0.0018957    0.0060976     0.0019024    0.0060811    -0.2430172    0.7175093 
   0.768100000     0.0008624    0.0145377     0.0019462    0.0061469     0.0019469    0.0061227    -0.2372442    0.7194258 
   0.773087500    -0.0010199    0.0133471     0.0020193    0.0061879     0.0020139    0.0061812    -0.2314777    0.7212447 
   0.778075000    -0.0028421    0.0122282     0.0020756    0.0062260     0.0020379    0.0062164    -0.2251990    0.7231990 
   0.783062500    -0.0048261    0.0110689     0.0021366    0.0062679     0.0020808    0.0062565    -0.2193091    0.7249334 
   0.788050000    -0.0067835    0.0100533     0.0021968    0.0062985     0.0021291    0.0062972    -0.2134736    0.7268917 
   0.793037500    -0.0087178    0.0089870     0.0022486    0.0063237     0.0021924    0.0063432    -0.2075563    0.7287466 
