! 5/10/2016 1:45:15 PM
! C:\ANRITSUVNA\DATA\INFINEON-SP2T-STATE0-RX1-RX2.S2P
! CHANNEL.1
! TR.MEASUREMENT
! CORRECTED.DATA
# GHZ S RI R 50.0
! FREQ.GHZ         S11RE         S11IM         S21RE         S21IM         S12RE         S12IM         S22RE         S22IM         
!; PortSelection: Port_12
   0.010000000     0.0277435   -0.0017236    -0.0000113   -0.0000212    -0.0000503   -0.0000306    -0.6567683    0.0187508 
   0.029950000     0.0275317   -0.0021966    -0.0000661   -0.0000044    -0.0000638   -0.0000072    -0.6528030    0.0238769 
   0.049900000     0.0275803   -0.0033103    -0.0000754   -0.0000053    -0.0000798   -0.0000024    -0.6515669    0.0393168 
   0.069850000     0.0274807   -0.0046229    -0.0000978    0.0000090    -0.0001058    0.0000078    -0.6503844    0.0544914 
   0.089800000     0.0275099   -0.0056093    -0.0001262    0.0000218    -0.0001269    0.0000234    -0.6487933    0.0692763 
   0.109750000     0.0273298   -0.0067649    -0.0001645    0.0000520    -0.0001666    0.0000593    -0.6468684    0.0836775 
   0.129700000     0.0269451   -0.0079180    -0.0001864    0.0000688    -0.0001771    0.0000593    -0.6444923    0.0979409 
   0.149650000     0.0265453   -0.0092031    -0.0002140    0.0000852    -0.0002043    0.0000849    -0.6414700    0.1125888 
   0.169600000     0.0261003   -0.0104471    -0.0002432    0.0001095    -0.0002403    0.0001096    -0.6382353    0.1279707 
   0.189550000     0.0258341   -0.0117357    -0.0002882    0.0001311    -0.0002811    0.0001399    -0.6349988    0.1428476 
   0.209500000     0.0251157   -0.0129864    -0.0003203    0.0001609    -0.0003183    0.0001561    -0.6318874    0.1567833 
   0.229450000     0.0248421   -0.0143921    -0.0003532    0.0001853    -0.0003499    0.0001830    -0.6276871    0.1705997 
   0.249400000     0.0244050   -0.0159091    -0.0003965    0.0002209    -0.0003950    0.0002165    -0.6232530    0.1851331 
   0.269350000     0.0241507   -0.0170746    -0.0004390    0.0002535    -0.0004373    0.0002637    -0.6182285    0.1995314 
   0.289300000     0.0232238   -0.0184863    -0.0004771    0.0002893    -0.0004708    0.0002956    -0.6138408    0.2138075 
   0.309250000     0.0228079   -0.0198804    -0.0005178    0.0003355    -0.0005092    0.0003311    -0.6089085    0.2267429 
   0.329200000     0.0222954   -0.0212795    -0.0005615    0.0003772    -0.0005441    0.0003804    -0.6032929    0.2400486 
   0.349150000     0.0218644   -0.0225731    -0.0005968    0.0004276    -0.0005948    0.0004226    -0.5967264    0.2535971 
   0.369100000     0.0211444   -0.0237149    -0.0006553    0.0004502    -0.0006504    0.0004542    -0.5901577    0.2681568 
   0.389050000     0.0203842   -0.0249633    -0.0007111    0.0005013    -0.0006970    0.0005005    -0.5837277    0.2819794 
   0.409000000     0.0196296   -0.0262275    -0.0007537    0.0005530    -0.0007365    0.0005514    -0.5773004    0.2950591 
   0.428950000     0.0189907   -0.0273594    -0.0007902    0.0006109    -0.0007815    0.0006003    -0.5708171    0.3072073 
   0.448900000     0.0181066   -0.0285894    -0.0008565    0.0006262    -0.0008595    0.0006270    -0.5633217    0.3196380 
   0.468850000     0.0168360   -0.0296089    -0.0009290    0.0006915    -0.0009120    0.0007100    -0.5552939    0.3323274 
   0.488800000     0.0157508   -0.0310470    -0.0009880    0.0007823    -0.0009622    0.0007897    -0.5466202    0.3459233 
   0.508750000     0.0148444   -0.0323654    -0.0010245    0.0008759    -0.0009992    0.0008565    -0.5389587    0.3590573 
   0.528700000     0.0138292   -0.0334929    -0.0010601    0.0009297    -0.0010633    0.0009188    -0.5313817    0.3708084 
   0.548650000     0.0128407   -0.0344849    -0.0011214    0.0009680    -0.0011265    0.0009803    -0.5238224    0.3811170 
   0.568600000     0.0113359   -0.0354143    -0.0012121    0.0010490    -0.0011831    0.0010558    -0.5145690    0.3920314 
   0.588550000     0.0097672   -0.0364986    -0.0012851    0.0011592    -0.0012458    0.0011418    -0.5047716    0.4037538 
   0.608500000     0.0083167   -0.0375256    -0.0013150    0.0012570    -0.0012986    0.0012211    -0.4948045    0.4160307 
   0.628450000     0.0068378   -0.0386948    -0.0013590    0.0013174    -0.0013649    0.0012906    -0.4865049    0.4271847 
   0.648400000     0.0054705   -0.0395772    -0.0014137    0.0013824    -0.0014201    0.0013707    -0.4775265    0.4367168 
   0.668350000     0.0038477   -0.0407532    -0.0015008    0.0014619    -0.0014781    0.0014515    -0.4678636    0.4462616 
   0.688300000     0.0021925   -0.0417607    -0.0015855    0.0015708    -0.0015620    0.0015473    -0.4568054    0.4559275 
   0.708250000     0.0005450   -0.0427667    -0.0016254    0.0016859    -0.0016339    0.0016701    -0.4455047    0.4672880 
   0.728200000    -0.0011441   -0.0436007    -0.0016693    0.0017858    -0.0016859    0.0017835    -0.4347768    0.4774877 
   0.748150000    -0.0028927   -0.0444839    -0.0017366    0.0018858    -0.0017367    0.0018910    -0.4246700    0.4869959 
   0.768100000    -0.0048067   -0.0451214    -0.0018111    0.0020056    -0.0017978    0.0019973    -0.4143218    0.4949392 
   0.788050000    -0.0065493   -0.0459506    -0.0018583    0.0021302    -0.0018609    0.0021014    -0.4028082    0.5034028 
   0.808000000    -0.0087992   -0.0464600    -0.0019079    0.0022015    -0.0019172    0.0021932    -0.3911569    0.5120870 
   0.827950000    -0.0109169   -0.0474305    -0.0019801    0.0022938    -0.0019953    0.0022954    -0.3790409    0.5212607 
   0.847900000    -0.0127546   -0.0481636    -0.0020741    0.0024042    -0.0020633    0.0024037    -0.3675519    0.5291574 
   0.867850000    -0.0145070   -0.0488926    -0.0021526    0.0025467    -0.0021582    0.0025370    -0.3558980    0.5368484 
   0.887800000    -0.0163579   -0.0488855    -0.0022047    0.0026995    -0.0022278    0.0026725    -0.3445424    0.5442836 
   0.907750000    -0.0185394   -0.0494678    -0.0022593    0.0028109    -0.0022835    0.0028086    -0.3318788    0.5512438 
   0.927700000    -0.0208409   -0.0496420    -0.0023478    0.0029689    -0.0023460    0.0029787    -0.3191025    0.5588779 
   0.947650000    -0.0229679   -0.0502352    -0.0024079    0.0031357    -0.0024049    0.0031501    -0.3066510    0.5658019 
   0.967600000    -0.0250779   -0.0502811    -0.0024361    0.0032976    -0.0024624    0.0032999    -0.2946947    0.5726143 
   0.987550000    -0.0272650   -0.0501416    -0.0024748    0.0034150    -0.0024938    0.0034619    -0.2828153    0.5779708 
   1.007500000    -0.0297153   -0.0501413    -0.0025716    0.0035701    -0.0025460    0.0036070    -0.2696314    0.5836065 
   1.027450000    -0.0323075   -0.0504409    -0.0026345    0.0037763    -0.0026105    0.0037615    -0.2558146    0.5891695 
   1.047400000    -0.0345613   -0.0501832    -0.0026336    0.0039861    -0.0026553    0.0039402    -0.2426006    0.5953127 
   1.067350000    -0.0369250   -0.0499794    -0.0026194    0.0041206    -0.0026769    0.0041066    -0.2298383    0.6002513 
   1.087300000    -0.0393751   -0.0495451    -0.0026715    0.0042482    -0.0027079    0.0042739    -0.2167675    0.6049272 
   1.107250000    -0.0420751   -0.0490671    -0.0027522    0.0044524    -0.0027375    0.0044316    -0.2033594    0.6086700 
   1.127200000    -0.0447229   -0.0488831    -0.0027578    0.0046761    -0.0027982    0.0046222    -0.1887155    0.6134721 
   1.147150000    -0.0472499   -0.0483921    -0.0027156    0.0048134    -0.0028211    0.0048101    -0.1759728    0.6176556 
   1.167100000    -0.0496718   -0.0477774    -0.0027616    0.0049266    -0.0028211    0.0049999    -0.1624965    0.6212029 
   1.187050000    -0.0520430   -0.0471919    -0.0028776    0.0051528    -0.0028445    0.0051830    -0.1500564    0.6236995 
   1.207000000    -0.0546265   -0.0462564    -0.0028422    0.0054615    -0.0028770    0.0053896    -0.1357438    0.6262378 
   1.226950000    -0.0573364   -0.0453229    -0.0027101    0.0055962    -0.0028987    0.0055920    -0.1209556    0.6285525 
   1.246900000    -0.0599970   -0.0445726    -0.0027106    0.0056061    -0.0028899    0.0057987    -0.1060483    0.6319235 
   1.266850000    -0.0622384   -0.0436480    -0.0029460    0.0057148    -0.0028941    0.0059770    -0.0929990    0.6340287 
   1.286800000    -0.0646784   -0.0424776    -0.0031027    0.0060851    -0.0029156    0.0061709    -0.0800148    0.6355909 
   1.306750000    -0.0667623   -0.0404748    -0.0030068    0.0064350    -0.0029401    0.0063843    -0.0672443    0.6362303 
   1.326700000    -0.0696928   -0.0385330    -0.0028557    0.0066028    -0.0029331    0.0066107    -0.0520969    0.6366441 
   1.346650000    -0.0727109   -0.0370878    -0.0028791    0.0067024    -0.0029590    0.0068099    -0.0383665    0.6381008 
   1.366600000    -0.0755375   -0.0357059    -0.0029590    0.0069270    -0.0029602    0.0070364    -0.0228370    0.6386546 
   1.386550000    -0.0780024   -0.0342192    -0.0029492    0.0072069    -0.0029678    0.0072718    -0.0104723    0.6394374 
   1.406500000    -0.0802353   -0.0325024    -0.0028867    0.0073965    -0.0029461    0.0075377     0.0025837    0.6386868 
   1.426450000    -0.0826160   -0.0301022    -0.0029070    0.0075657    -0.0029063    0.0077708     0.0155080    0.6379237 
   1.446400000    -0.0854438   -0.0277258    -0.0029318    0.0078575    -0.0028674    0.0080174     0.0303547    0.6361399 
   1.466350000    -0.0883098   -0.0258204    -0.0028457    0.0081167    -0.0028767    0.0081899     0.0451675    0.6355122 
   1.486300000    -0.0907421   -0.0237957    -0.0027283    0.0082759    -0.0028599    0.0084090     0.0586432    0.6340972 
   1.506250000    -0.0926139   -0.0217016    -0.0027760    0.0084024    -0.0027997    0.0086706     0.0711690    0.6333466 
   1.526200000    -0.0947472   -0.0187588    -0.0028128    0.0086323    -0.0027218    0.0088449     0.0843605    0.6300762 
   1.546150000    -0.0970065   -0.0163162    -0.0028240    0.0089009    -0.0028084    0.0090805     0.0982429    0.6280531 
   1.566100000    -0.0995601   -0.0133933    -0.0027606    0.0091388    -0.0028170    0.0093135     0.1125044    0.6252530 
   1.586050000    -0.1017970   -0.0108644    -0.0027649    0.0093720    -0.0027585    0.0096295     0.1265102    0.6237710 
   1.606000000    -0.1036814   -0.0083309    -0.0027715    0.0096386    -0.0026719    0.0098368     0.1384450    0.6209942 
   1.625950000    -0.1053544   -0.0055746    -0.0027205    0.0099372    -0.0026685    0.0101426     0.1512435    0.6176779 
   1.645900000    -0.1070400   -0.0022670    -0.0026605    0.0102163    -0.0025230    0.0104150     0.1637034    0.6132971 
   1.665850000    -0.1087867    0.0009266    -0.0026008    0.0104819    -0.0024865    0.0106292     0.1776717    0.6089178 
   1.685800000    -0.1107891    0.0039730    -0.0025320    0.0107600    -0.0023844    0.0109803     0.1909216    0.6051801 
   1.705750000    -0.1125356    0.0071293    -0.0024568    0.0109879    -0.0022016    0.0112494     0.2033776    0.6008504 
   1.725700000    -0.1137418    0.0105972    -0.0026118    0.0112118    -0.0021419    0.0114647     0.2154415    0.5961493 
   1.745650000    -0.1150919    0.0142294    -0.0026176    0.0115905    -0.0020484    0.0115932     0.2284762    0.5905162 
   1.765600000    -0.1167048    0.0180454    -0.0023036    0.0119647    -0.0020763    0.0119459     0.2416278    0.5855569 
   1.785550000    -0.1181457    0.0217768    -0.0021180    0.0121358    -0.0019866    0.0123516     0.2538865    0.5801966 
   1.805500000    -0.1193006    0.0252511    -0.0021862    0.0122468    -0.0017899    0.0125558     0.2656111    0.5750266 
   1.825450000    -0.1201546    0.0290497    -0.0024022    0.0126523    -0.0017122    0.0127114     0.2769386    0.5686691 
   1.845400000    -0.1208497    0.0328846    -0.0023357    0.0132958    -0.0017360    0.0130992     0.2892015    0.5622970 
   1.865350000    -0.1219328    0.0370703    -0.0019362    0.0136959    -0.0016207    0.0135252     0.3016566    0.5548308 
   1.885300000    -0.1226839    0.0409500    -0.0017088    0.0137581    -0.0013174    0.0138182     0.3145966    0.5477020 
   1.905250000    -0.1234201    0.0447365    -0.0018169    0.0138971    -0.0011392    0.0140104     0.3265032    0.5404440 
   1.925200000    -0.1234384    0.0484153    -0.0017900    0.0143460    -0.0010175    0.0143366     0.3385395    0.5329351 
   1.945150000    -0.1235131    0.0524722    -0.0014632    0.0148100    -0.0008482    0.0146129     0.3488359    0.5252458 
   1.965100000    -0.1238134    0.0572430    -0.0013148    0.0150365    -0.0006018    0.0148761     0.3596836    0.5172372 
   1.985050000    -0.1239689    0.0613814    -0.0013086    0.0152018    -0.0005218    0.0150000     0.3697121    0.5086268 
   2.005000000    -0.1243248    0.0655591    -0.0011876    0.0158042    -0.0003845    0.0153332     0.3806264    0.5000190 
   2.024950000    -0.1238320    0.0692934    -0.0009588    0.0162165    -0.0003013    0.0157425     0.3903691    0.4913562 
   2.044900000    -0.1230434    0.0736952    -0.0006746    0.0165225     0.0000288    0.0159918     0.4008981    0.4822134 
   2.064850000    -0.1221760    0.0783736    -0.0005919    0.0170587     0.0001342    0.0161968     0.4105500    0.4729887 
   2.084800000    -0.1217132    0.0832523    -0.0003033    0.0176382     0.0002369    0.0167639     0.4210291    0.4632605 
   2.104750000    -0.1211613    0.0875836     0.0003689    0.0178381     0.0006380    0.0173861     0.4301888    0.4547301 
   2.124700000    -0.1200432    0.0915229     0.0006196    0.0179813     0.0012682    0.0175749     0.4391713    0.4457737 
   2.144650000    -0.1183634    0.0960547     0.0006759    0.0182650     0.0015801    0.0174528     0.4471752    0.4364681 
   2.164600000    -0.1165432    0.1002842     0.0010216    0.0189993     0.0016033    0.0176013     0.4560240    0.4257272 
   2.184550000    -0.1149496    0.1053552     0.0018611    0.0191286     0.0016881    0.0182331     0.4653778    0.4153492 
   2.204500000    -0.1135814    0.1100851     0.0021595    0.0187701     0.0023215    0.0185110     0.4742514    0.4044087 
   2.224450000    -0.1122472    0.1142862     0.0018993    0.0188813     0.0028479    0.0184804     0.4827098    0.3958817 
   2.244400000    -0.1105312    0.1182563     0.0019156    0.0197865     0.0028615    0.0184234     0.4894469    0.3842807 
   2.264350000    -0.1084362    0.1225173     0.0028153    0.0203953     0.0028915    0.0187859     0.4971483    0.3742087 
   2.284300000    -0.1063874    0.1267846     0.0035082    0.0201127     0.0032498    0.0192126     0.5041311    0.3630868 
   2.304250000    -0.1043483    0.1308770     0.0033100    0.0199666     0.0036587    0.0193111     0.5126541    0.3531609 
   2.324200000    -0.1024742    0.1347342     0.0031914    0.0205569     0.0037044    0.0193521     0.5190915    0.3415129 
   2.344150000    -0.0997592    0.1382712     0.0036336    0.0213592     0.0038472    0.0198648     0.5267661    0.3300335 
   2.364100000    -0.0967142    0.1418686     0.0043730    0.0217913     0.0042419    0.0202684     0.5334619    0.3175673 
   2.384050000    -0.0935506    0.1455480     0.0049240    0.0218670     0.0047266    0.0204482     0.5406140    0.3054166 
   2.404000000    -0.0903980    0.1494687     0.0052756    0.0219804     0.0048584    0.0206562     0.5468528    0.2938846 
   2.423950000    -0.0872151    0.1531592     0.0055912    0.0223574     0.0052241    0.0210917     0.5523403    0.2821271 
   2.443900000    -0.0837468    0.1565116     0.0058007    0.0227330     0.0058021    0.0212518     0.5568201    0.2701276 
   2.463850000    -0.0800101    0.1601397     0.0062378    0.0234285     0.0060402    0.0213915     0.5626032    0.2576447 
   2.483800000    -0.0757400    0.1635327     0.0075984    0.0236389     0.0063199    0.0216244     0.5676950    0.2451647 
   2.503750000    -0.0720821    0.1673140     0.0082583    0.0230594     0.0067307    0.0220966     0.5718687    0.2332550 
   2.523700000    -0.0683441    0.1710632     0.0077911    0.0229605     0.0072796    0.0224482     0.5755389    0.2210976 
   2.543650000    -0.0646816    0.1742772     0.0076266    0.0241450     0.0077526    0.0224238     0.5784944    0.2083586 
   2.563600000    -0.0604636    0.1769521     0.0093635    0.0252811     0.0078074    0.0226303     0.5817058    0.1953271 
   2.583550000    -0.0566560    0.1797472     0.0111230    0.0243254     0.0083248    0.0231955     0.5851119    0.1826181 
   2.603500000    -0.0521715    0.1828489     0.0107186    0.0231090     0.0091554    0.0235097     0.5888902    0.1706646 
   2.623450000    -0.0477539    0.1854549     0.0098336    0.0238561     0.0098221    0.0230818     0.5910222    0.1595074 
   2.643400000    -0.0431418    0.1880634     0.0110647    0.0254905     0.0099327    0.0231235     0.5936308    0.1486973 
   2.663350000    -0.0386558    0.1904006     0.0134908    0.0247963     0.0102046    0.0234256     0.5957158    0.1370622 
   2.683300000    -0.0336443    0.1928795     0.0133426    0.0225550     0.0108473    0.0236896     0.5991865    0.1246870 
   2.703250000    -0.0289508    0.1948208     0.0112996    0.0224850     0.0113329    0.0232874     0.6025894    0.1126856 
   2.723200000    -0.0239913    0.1970334     0.0109708    0.0249833     0.0110771    0.0233721     0.6068372    0.1010004 
   2.743150000    -0.0192988    0.1991486     0.0134286    0.0262558     0.0111604    0.0240477     0.6090963    0.0891535 
   2.763100000    -0.0137498    0.2006439     0.0148109    0.0246714     0.0118533    0.0247279     0.6111295    0.0742063 
   2.783050000    -0.0085668    0.2023197     0.0136830    0.0240845     0.0124790    0.0247740     0.6121501    0.0574157 
   2.803000000    -0.0030455    0.2041014     0.0133258    0.0259087     0.0125937    0.0249537     0.6140755    0.0410458 
   2.822950000     0.0018963    0.2055831     0.0156688    0.0273692     0.0131982    0.0259250     0.6148508    0.0287368 
   2.842900000     0.0068539    0.2062880     0.0178377    0.0257449     0.0148313    0.0263080     0.6139854    0.0174057 
   2.862850000     0.0124452    0.2067759     0.0170096    0.0246094     0.0157643    0.0255123     0.6103337    0.0054012 
   2.882800000     0.0185963    0.2072526     0.0168708    0.0259488     0.0158279    0.0252737     0.6077706   -0.0101220 
   2.902750000     0.0243211    0.2083886     0.0194479    0.0266412     0.0162030    0.0259390     0.6058758   -0.0249131 
   2.922700000     0.0291721    0.2092072     0.0209968    0.0243734     0.0177272    0.0261601     0.6060363   -0.0376893 
   2.942650000     0.0336961    0.2093914     0.0194579    0.0228710     0.0187042    0.0249553     0.6052463   -0.0465690 
   2.962600000     0.0389985    0.2086253     0.0186132    0.0243708     0.0185347    0.0241159     0.6031356   -0.0560625 
   2.982550000     0.0445763    0.2081592     0.0207779    0.0254243     0.0180678    0.0245557     0.5999506   -0.0668704 
   3.002500000     0.0505186    0.2079370     0.0223234    0.0232432     0.0189493    0.0251281     0.5974678   -0.0808222 
   3.022450000     0.0560858    0.2078627     0.0203386    0.0217858     0.0198238    0.0243572     0.5968181   -0.0944894 
   3.042400000     0.0610320    0.2078808     0.0188313    0.0239074     0.0193263    0.0236688     0.5973313   -0.1065125 
   3.062350000     0.0655312    0.2071751     0.0211215    0.0263032     0.0186520    0.0244407     0.5970153   -0.1164531 
   3.082300000     0.0709307    0.2060459     0.0242621    0.0243087     0.0194043    0.0257816     0.5928309   -0.1276583 
   3.102250000     0.0768455    0.2044510     0.0227296    0.0216188     0.0210725    0.0257957     0.5873140   -0.1420679 
   3.122200000     0.0828257    0.2037838     0.0204215    0.0232485     0.0216167    0.0249251     0.5824203   -0.1572231 
   3.142150000     0.0880975    0.2026234     0.0222644    0.0263309     0.0214970    0.0249947     0.5809631   -0.1699349 
