! 5/10/2016 1:45:41 PM
! C:\ANRITSUVNA\DATA\INFINEON-SP2T-STATE1-RX1-RX2.S2P
! CHANNEL.1
! TR.MEASUREMENT
! CORRECTED.DATA
# GHZ S RI R 50.0
! FREQ.GHZ         S11RE         S11IM         S21RE         S21IM         S12RE         S12IM         S22RE         S22IM         
!; PortSelection: Port_12
   0.010000000    -0.6547595    0.0159154    -0.0000560   -0.0000303    -0.0000427   -0.0000126     0.0275011   -0.0022278 
   0.029950000    -0.6509880    0.0246692    -0.0000627   -0.0000080    -0.0000642   -0.0000011     0.0271762   -0.0022303 
   0.049900000    -0.6499746    0.0401435    -0.0000802    0.0000063    -0.0000834   -0.0000020     0.0272085   -0.0031098 
   0.069850000    -0.6484583    0.0555013    -0.0000961    0.0000122    -0.0000982    0.0000176     0.0268625   -0.0041071 
   0.089800000    -0.6464930    0.0708923    -0.0001213    0.0000374    -0.0001190    0.0000385     0.0264612   -0.0055453 
   0.109750000    -0.6444307    0.0861357    -0.0001579    0.0000707    -0.0001590    0.0000735     0.0262822   -0.0071535 
   0.129700000    -0.6421277    0.1010516    -0.0001652    0.0000871    -0.0001753    0.0000813     0.0263842   -0.0089001 
   0.149650000    -0.6393511    0.1159887    -0.0002016    0.0001011    -0.0001881    0.0001047     0.0266258   -0.0099930 
   0.169600000    -0.6364339    0.1308713    -0.0002238    0.0001303    -0.0002211    0.0001275     0.0265750   -0.0107840 
   0.189550000    -0.6331164    0.1455171    -0.0002563    0.0001458    -0.0002533    0.0001506     0.0259648   -0.0118640 
   0.209500000    -0.6294824    0.1597555    -0.0002895    0.0001677    -0.0002914    0.0001676     0.0252175   -0.0134540 
   0.229450000    -0.6254031    0.1740557    -0.0003227    0.0001946    -0.0003163    0.0001944     0.0251293   -0.0150612 
   0.249400000    -0.6208767    0.1882099    -0.0003564    0.0002302    -0.0003575    0.0002322     0.0250093   -0.0162929 
   0.269350000    -0.6159810    0.2024006    -0.0004036    0.0002680    -0.0004015    0.0002735     0.0248402   -0.0172601 
   0.289300000    -0.6112550    0.2166849    -0.0004337    0.0003087    -0.0004349    0.0003030     0.0238943   -0.0184273 
   0.309250000    -0.6057121    0.2302771    -0.0004736    0.0003412    -0.0004695    0.0003393     0.0230667   -0.0201356 
   0.329200000    -0.6000240    0.2442410    -0.0005047    0.0003806    -0.0004985    0.0003809     0.0229641   -0.0218997 
   0.349150000    -0.5941167    0.2576090    -0.0005491    0.0004197    -0.0005462    0.0004219     0.0230404   -0.0232610 
   0.369100000    -0.5877905    0.2714791    -0.0005979    0.0004444    -0.0005960    0.0004385     0.0229424   -0.0238567 
   0.389050000    -0.5810784    0.2846412    -0.0006458    0.0004966    -0.0006453    0.0004978     0.0218746   -0.0243383 
   0.409000000    -0.5739419    0.2981082    -0.0006926    0.0005490    -0.0006826    0.0005472     0.0202559   -0.0256179 
   0.428950000    -0.5666950    0.3111291    -0.0007279    0.0005951    -0.0007139    0.0006064     0.0191833   -0.0275482 
   0.448900000    -0.5591196    0.3242722    -0.0007830    0.0006357    -0.0007661    0.0006349     0.0186088   -0.0292326 
   0.468850000    -0.5519111    0.3369038    -0.0008412    0.0006910    -0.0008222    0.0006712     0.0185152   -0.0301878 
   0.488800000    -0.5435402    0.3492103    -0.0008785    0.0007653    -0.0008851    0.0007495     0.0177887   -0.0307004 
   0.508750000    -0.5354283    0.3614722    -0.0009366    0.0008262    -0.0009239    0.0008411     0.0164419   -0.0311666 
   0.528700000    -0.5267171    0.3739232    -0.0009824    0.0008952    -0.0009656    0.0009076     0.0142493   -0.0323324 
   0.548650000    -0.5178550    0.3855636    -0.0010370    0.0009528    -0.0010153    0.0009388     0.0124602   -0.0342792 
   0.568600000    -0.5086146    0.3972750    -0.0010920    0.0010201    -0.0010872    0.0009946     0.0117774   -0.0360451 
   0.588550000    -0.4997408    0.4090188    -0.0011568    0.0010844    -0.0011654    0.0010821     0.0112265   -0.0371348 
   0.608500000    -0.4901804    0.4200482    -0.0012208    0.0011615    -0.0012183    0.0011783     0.0100901   -0.0372019 
   0.628450000    -0.4804981    0.4308856    -0.0012719    0.0012385    -0.0012501    0.0012514     0.0077733   -0.0378190 
   0.648400000    -0.4705756    0.4415914    -0.0013265    0.0013255    -0.0013012    0.0013048     0.0055781   -0.0392305 
   0.668350000    -0.4602306    0.4521646    -0.0013792    0.0014049    -0.0013685    0.0013876     0.0038353   -0.0414319 
   0.688300000    -0.4496841    0.4620911    -0.0014313    0.0014895    -0.0014343    0.0014946     0.0032403   -0.0428255 
   0.708250000    -0.4391897    0.4722586    -0.0015005    0.0015766    -0.0014835    0.0015969     0.0023362   -0.0432369 
   0.728200000    -0.4282757    0.4816017    -0.0015532    0.0016866    -0.0015286    0.0016863     0.0004564   -0.0432706 
   0.748150000    -0.4170159    0.4912028    -0.0016190    0.0017872    -0.0016025    0.0017749    -0.0022030   -0.0439096 
   0.768100000    -0.4054759    0.5001490    -0.0016796    0.0018888    -0.0016793    0.0018951    -0.0045205   -0.0454827 
   0.788050000    -0.3940385    0.5093099    -0.0017442    0.0019887    -0.0017254    0.0020070    -0.0059099   -0.0470616 
   0.808000000    -0.3829007    0.5174615    -0.0018004    0.0020816    -0.0017648    0.0020904    -0.0073043   -0.0476955 
   0.827950000    -0.3710617    0.5255954    -0.0018536    0.0021895    -0.0018325    0.0021817    -0.0090086   -0.0479526 
   0.847900000    -0.3590405    0.5334939    -0.0019140    0.0022974    -0.0019049    0.0023080    -0.0112593   -0.0481214 
   0.867850000    -0.3463008    0.5409046    -0.0019704    0.0024099    -0.0019520    0.0024332    -0.0136451   -0.0491279 
   0.887800000    -0.3341026    0.5490515    -0.0020253    0.0025254    -0.0019819    0.0025223    -0.0158132   -0.0497325 
   0.907750000    -0.3214040    0.5561458    -0.0020905    0.0026469    -0.0020450    0.0026180    -0.0174141   -0.0506218 
   0.927700000    -0.3091205    0.5632158    -0.0021562    0.0027833    -0.0021463    0.0027578    -0.0193679   -0.0503498 
   0.947650000    -0.2960587    0.5696453    -0.0022249    0.0029157    -0.0022130    0.0029475    -0.0219166   -0.0505622 
   0.967600000    -0.2830580    0.5764889    -0.0022835    0.0030623    -0.0022192    0.0030607    -0.0246033   -0.0507639 
   0.987550000    -0.2701353    0.5820999    -0.0023339    0.0032025    -0.0022663    0.0031345    -0.0272351   -0.0514362 
   1.007500000    -0.2569423    0.5882293    -0.0023735    0.0033415    -0.0023767    0.0032876    -0.0292123   -0.0520357 
   1.027450000    -0.2439061    0.5931346    -0.0024260    0.0034846    -0.0024440    0.0035085    -0.0311783   -0.0520524 
   1.047400000    -0.2303752    0.5988817    -0.0024839    0.0036325    -0.0024065    0.0036805    -0.0333781   -0.0516461 
   1.067350000    -0.2172915    0.6033408    -0.0025182    0.0038019    -0.0023945    0.0037232    -0.0361701   -0.0512344 
   1.087300000    -0.2031531    0.6081536    -0.0025610    0.0039579    -0.0025213    0.0038127    -0.0387517   -0.0513136 
   1.107250000    -0.1899033    0.6120886    -0.0026003    0.0041130    -0.0026530    0.0040548    -0.0411773   -0.0514509 
   1.127200000    -0.1759183    0.6163840    -0.0026614    0.0042874    -0.0026375    0.0043194    -0.0432315   -0.0509579 
   1.147150000    -0.1627063    0.6198149    -0.0026919    0.0044623    -0.0025435    0.0044158    -0.0459302   -0.0497862 
   1.167100000    -0.1480441    0.6224248    -0.0027121    0.0046306    -0.0026123    0.0044603    -0.0491058   -0.0489401 
   1.187050000    -0.1341089    0.6255291    -0.0027430    0.0047998    -0.0027848    0.0046418    -0.0523765   -0.0492510 
   1.207000000    -0.1194355    0.6285242    -0.0028027    0.0049847    -0.0028366    0.0049596    -0.0547841   -0.0493228 
   1.226950000    -0.1063157    0.6306098    -0.0028242    0.0051828    -0.0027290    0.0051515    -0.0563000   -0.0487093 
   1.246900000    -0.0921660    0.6328754    -0.0028193    0.0053770    -0.0027171    0.0052342    -0.0582435   -0.0471722 
   1.266850000    -0.0784170    0.6337761    -0.0028451    0.0055562    -0.0028364    0.0053788    -0.0614347   -0.0450733 
   1.286800000    -0.0629540    0.6348503    -0.0028704    0.0057236    -0.0029179    0.0056486    -0.0652081   -0.0440387 
   1.306750000    -0.0489064    0.6370513    -0.0029150    0.0059315    -0.0028639    0.0058762    -0.0680279   -0.0437907 
   1.326700000    -0.0344913    0.6375970    -0.0029101    0.0061559    -0.0028313    0.0060342    -0.0703942   -0.0430686 
   1.346650000    -0.0222108    0.6389117    -0.0029344    0.0063675    -0.0029059    0.0061978    -0.0721284   -0.0415045 
   1.366600000    -0.0076805    0.6376323    -0.0029485    0.0065723    -0.0029474    0.0064339    -0.0743878   -0.0390169 
   1.386550000     0.0060890    0.6376024    -0.0029697    0.0068108    -0.0029416    0.0066607    -0.0779128   -0.0367712 
   1.406500000     0.0205042    0.6369747    -0.0029449    0.0070679    -0.0029162    0.0068673    -0.0814905   -0.0355794 
   1.426450000     0.0341664    0.6369814    -0.0028859    0.0072908    -0.0029338    0.0070906    -0.0840529   -0.0347448 
   1.446400000     0.0479934    0.6359345    -0.0028674    0.0074641    -0.0029252    0.0072979    -0.0858572   -0.0332993 
   1.466350000     0.0613731    0.6342934    -0.0028699    0.0077066    -0.0028946    0.0075083    -0.0877994   -0.0308886 
   1.486300000     0.0751287    0.6318370    -0.0028134    0.0079545    -0.0029746    0.0077079    -0.0903627   -0.0281456 
   1.506250000     0.0890562    0.6304662    -0.0027616    0.0081735    -0.0029506    0.0078948    -0.0933334   -0.0257535 
   1.526200000     0.1025120    0.6274750    -0.0027088    0.0083390    -0.0029132    0.0081128    -0.0962566   -0.0241145 
   1.546150000     0.1162642    0.6251092    -0.0026882    0.0085560    -0.0029074    0.0083040    -0.0980001   -0.0222527 
   1.566100000     0.1290917    0.6224291    -0.0026576    0.0087864    -0.0029342    0.0086233    -0.0993762   -0.0195211 
   1.586050000     0.1428468    0.6194843    -0.0026145    0.0090165    -0.0029248    0.0089112    -0.1013162   -0.0159752 
   1.606000000     0.1560780    0.6158339    -0.0025822    0.0092370    -0.0027424    0.0089965    -0.1043603   -0.0127794 
   1.625950000     0.1698715    0.6118894    -0.0025419    0.0094784    -0.0028208    0.0090348    -0.1071341   -0.0100913 
   1.645900000     0.1835061    0.6079252    -0.0024880    0.0097080    -0.0030194    0.0093400    -0.1093987   -0.0080535 
   1.665850000     0.1969727    0.6036611    -0.0024393    0.0099470    -0.0030258    0.0098950    -0.1109562   -0.0053902 
   1.685800000     0.2092045    0.5992697    -0.0024118    0.0101997    -0.0026836    0.0102178    -0.1123876   -0.0018951 
   1.705750000     0.2220910    0.5936140    -0.0023473    0.0104571    -0.0026489    0.0101050    -0.1143824    0.0016747 
   1.725700000     0.2350576    0.5884374    -0.0022646    0.0107108    -0.0029501    0.0101893    -0.1167307    0.0049040 
   1.745650000     0.2479795    0.5827403    -0.0022049    0.0109428    -0.0032080    0.0108634    -0.1181830    0.0077846 
   1.765600000     0.2601864    0.5779701    -0.0021680    0.0112200    -0.0027097    0.0116459    -0.1192817    0.0111438 
   1.785550000     0.2719790    0.5714570    -0.0021973    0.0115030    -0.0022249    0.0115368    -0.1204367    0.0150514 
   1.805500000     0.2841981    0.5651640    -0.0020493    0.0118448    -0.0023353    0.0113049    -0.1222979    0.0191545 
   1.825450000     0.2964662    0.5585152    -0.0019176    0.0120512    -0.0028235    0.0117659    -0.1242480    0.0226916 
   1.845400000     0.3088239    0.5519923    -0.0019443    0.0122720    -0.0026914    0.0125701    -0.1256227    0.0255715 
   1.865350000     0.3202976    0.5448861    -0.0019309    0.0126096    -0.0021554    0.0127664    -0.1262901    0.0288826 
   1.885300000     0.3320111    0.5376177    -0.0017722    0.0129356    -0.0021434    0.0126226    -0.1264603    0.0324999 
   1.905250000     0.3431207    0.5295083    -0.0015999    0.0131821    -0.0025293    0.0129601    -0.1266825    0.0372052 
   1.925200000     0.3556498    0.5208595    -0.0015553    0.0135009    -0.0024899    0.0137726    -0.1272804    0.0414160 
   1.945150000     0.3663016    0.5119351    -0.0014213    0.0138107    -0.0019604    0.0141924    -0.1282145    0.0458815 
   1.965100000     0.3766660    0.5040163    -0.0012612    0.0141914    -0.0018531    0.0143451    -0.1288242    0.0498780 
   1.985050000     0.3861147    0.4951735    -0.0010086    0.0144415    -0.0019488    0.0148494    -0.1291176    0.0541450 
   2.005000000     0.3963387    0.4864723    -0.0008704    0.0148193    -0.0014813    0.0155282    -0.1294223    0.0584396 
   2.024950000     0.4058181    0.4772064    -0.0005951    0.0151816    -0.0008544    0.0155657    -0.1295967    0.0623048 
   2.044900000     0.4161494    0.4682896    -0.0003148    0.0154927    -0.0008717    0.0154743    -0.1294011    0.0661427 
   2.064850000     0.4255848    0.4598788    -0.0000047    0.0156539    -0.0012136    0.0161577    -0.1286185    0.0702598 
   2.084800000     0.4356677    0.4511499     0.0001092    0.0158568    -0.0004052    0.0171864    -0.1277314    0.0749147 
   2.104750000     0.4450571    0.4421864     0.0003907    0.0161314     0.0007766    0.0169201    -0.1267505    0.0801196 
   2.124700000     0.4549213    0.4321544     0.0006836    0.0162364     0.0005297    0.0161201    -0.1265019    0.0847996 
   2.144650000     0.4647062    0.4226654     0.0008947    0.0164775    -0.0005001    0.0165117    -0.1262457    0.0890027 
   2.164600000     0.4741969    0.4113853     0.0010036    0.0166396    -0.0004206    0.0180867    -0.1252939    0.0926761 
   2.184550000     0.4831487    0.4017344     0.0011404    0.0169542     0.0012089    0.0186868    -0.1236761    0.0966209 
   2.204500000     0.4915880    0.3902348     0.0014828    0.0171712     0.0018371    0.0176992    -0.1215263    0.1014292 
   2.224450000     0.4992056    0.3798528     0.0017193    0.0173079     0.0009570    0.0175356    -0.1201310    0.1065323 
   2.244400000     0.5063512    0.3673514     0.0018079    0.0175331     0.0005966    0.0188227    -0.1189367    0.1109557 
   2.264350000     0.5141171    0.3559693     0.0018379    0.0178844     0.0017867    0.0199338    -0.1174858    0.1152018 
   2.284300000     0.5204623    0.3442360     0.0021453    0.0182656     0.0028277    0.0193663    -0.1156559    0.1191748 
   2.304250000     0.5273537    0.3338307     0.0025442    0.0185158     0.0024329    0.0189379    -0.1134141    0.1234681 
   2.324200000     0.5329540    0.3221173     0.0027570    0.0186466     0.0019327    0.0197375    -0.1115191    0.1277240 
   2.344150000     0.5403121    0.3094923     0.0028595    0.0190303     0.0025842    0.0208237    -0.1092022    0.1318384 
   2.364100000     0.5465901    0.2972265     0.0031316    0.0194527     0.0035190    0.0207683    -0.1061008    0.1355319 
   2.384050000     0.5532225    0.2849273     0.0034654    0.0197756     0.0035552    0.0207100    -0.1030116    0.1393999 
   2.404000000     0.5587896    0.2732338     0.0039278    0.0200407     0.0036695    0.0214434    -0.0998287    0.1438587 
   2.423950000     0.5646645    0.2604533     0.0041847    0.0202342     0.0045133    0.0219625    -0.0969585    0.1485669 
   2.443900000     0.5696561    0.2475412     0.0043452    0.0204763     0.0050676    0.0218130    -0.0942253    0.1525572 
   2.463850000     0.5747179    0.2354431     0.0045300    0.0207524     0.0050454    0.0220483    -0.0909917    0.1558977 
   2.483800000     0.5799564    0.2226080     0.0049011    0.0211545     0.0054341    0.0227801    -0.0873430    0.1594937 
   2.503750000     0.5837538    0.2098066     0.0054638    0.0214919     0.0066383    0.0230650    -0.0838806    0.1637032 
   2.523700000     0.5876574    0.1974862     0.0059678    0.0215804     0.0070179    0.0225159    -0.0801710    0.1677691 
   2.543650000     0.5911840    0.1844604     0.0062021    0.0215292     0.0064297    0.0227043    -0.0769675    0.1711265 
   2.563600000     0.5948550    0.1716627     0.0063001    0.0221427     0.0067778    0.0241479    -0.0736014    0.1736360 
   2.583550000     0.5967764    0.1584794     0.0069779    0.0227692     0.0087491    0.0245253    -0.0693084    0.1762432 
   2.603500000     0.5994788    0.1460807     0.0078054    0.0227039     0.0095204    0.0234449    -0.0641316    0.1793932 
   2.623450000     0.6016613    0.1331759     0.0081764    0.0224291     0.0088719    0.0231340    -0.0596698    0.1831210 
   2.643400000     0.6049823    0.1205775     0.0080011    0.0226757     0.0089113    0.0244160    -0.0555416    0.1868041 
   2.663350000     0.6067323    0.1079418     0.0086248    0.0233014     0.0106701    0.0250087    -0.0520519    0.1892879 
   2.683300000     0.6094829    0.0957914     0.0096150    0.0234058     0.0116219    0.0239193    -0.0477482    0.1910329 
   2.703250000     0.6104560    0.0827317     0.0100906    0.0226206     0.0110498    0.0233340    -0.0424770    0.1936640 
   2.723200000     0.6131843    0.0695404     0.0095468    0.0225636     0.0109451    0.0244567    -0.0371173    0.1968984 
   2.743150000     0.6148802    0.0564871     0.0093862    0.0232734     0.0122926    0.0248467    -0.0334482    0.2002535 
   2.763100000     0.6178344    0.0421147     0.0099932    0.0241542     0.0128228    0.0238571    -0.0297114    0.2016708 
   2.783050000     0.6184377    0.0275510     0.0107308    0.0242235     0.0117253    0.0239467    -0.0251159    0.2023325 
   2.803000000     0.6188268    0.0133537     0.0108946    0.0242530     0.0120088    0.0258158    -0.0182254    0.2028190 
   2.822950000     0.6184550   -0.0009364     0.0111111    0.0250702     0.0143688    0.0265369    -0.0113848    0.2059000 
   2.842900000     0.6174273   -0.0160596     0.0123374    0.0258647     0.0157449    0.0248667    -0.0059669    0.2093564 
   2.862850000     0.6154879   -0.0303537     0.0133398    0.0253596     0.0144270    0.0241083    -0.0027226    0.2113486 
   2.882800000     0.6146301   -0.0446666     0.0136024    0.0252309     0.0142542    0.0262177     0.0013505    0.2113089 
   2.902750000     0.6121897   -0.0577865     0.0138416    0.0257027     0.0172280    0.0274049     0.0068365    0.2102505 
   2.922700000     0.6093569   -0.0700775     0.0151288    0.0261448     0.0193878    0.0250068     0.0149564    0.2102007 
   2.942650000     0.6052755   -0.0829865     0.0162404    0.0253834     0.0177174    0.0231806     0.0217621    0.2126159 
   2.962600000     0.6020744   -0.0969880     0.0161769    0.0248311     0.0165303    0.0247871     0.0271702    0.2153515 
   2.982550000     0.5994779   -0.1100123     0.0161325    0.0252527     0.0187678    0.0264675     0.0298802    0.2165449 
   3.002500000     0.5967451   -0.1220677     0.0171686    0.0257072     0.0212072    0.0245025     0.0341962    0.2147925 
   3.022450000     0.5934227   -0.1329692     0.0179587    0.0248018     0.0197615    0.0222141     0.0402653    0.2129674 
   3.042400000     0.5898658   -0.1446829     0.0174403    0.0240847     0.0177866    0.0235562     0.0485417    0.2126452 
   3.062350000     0.5866190   -0.1572342     0.0168373    0.0248630     0.0191366    0.0258619     0.0546268    0.2145994 
   3.082300000     0.5835730   -0.1704352     0.0177467    0.0261291     0.0219206    0.0247350     0.0587245    0.2164456 
   3.102250000     0.5804734   -0.1841578     0.0192891    0.0258642     0.0211333    0.0225971     0.0615511    0.2150608 
   3.122200000     0.5764314   -0.1972266     0.0194486    0.0248643     0.0194174    0.0236455     0.0666039    0.2119740 
   3.142150000     0.5708868   -0.2098670     0.0187558    0.0251874     0.0209185    0.0259673     0.0740379    0.2097489 
