! 5/5/2016 5:12:27 PM
! C:\ANRITSUVNA\DATA\INFINEON-SP4T-STATE10-C-RX2.S2P
! CHANNEL.1
! TR.MEASUREMENT
! CORRECTED.DATA
# GHZ S RI R 50.0
! FREQ.GHZ         S11RE         S11IM         S21RE         S21IM         S12RE         S12IM         S22RE         S22IM         
!; PortSelection: Port_12
   0.010000000    -0.9729266    0.0881277     0.0281496    0.0707532     0.0270444    0.0705990    -0.8808761    0.0900457 
   0.014987500    -0.9610220    0.1263688     0.0349787    0.1007817     0.0350807    0.1007980    -0.8686363    0.1219013 
   0.019975000    -0.9478042    0.1626251     0.0467068    0.1293047     0.0467958    0.1294572    -0.8559309    0.1568949 
   0.024962500    -0.9330190    0.1974637     0.0600769    0.1562732     0.0600246    0.1563859    -0.8415537    0.1908568 
   0.029950000    -0.9169345    0.2301784     0.0746633    0.1814170     0.0747072    0.1814856    -0.8261757    0.2226143 
   0.034937500    -0.8995302    0.2609084     0.0902922    0.2051862     0.0903970    0.2052322    -0.8090572    0.2525381 
   0.039925000    -0.8807247    0.2902817     0.1069940    0.2273606     0.1071783    0.2272297    -0.7908233    0.2808471 
   0.044912500    -0.8611065    0.3175831     0.1248545    0.2478238     0.1248836    0.2477565    -0.7714835    0.3075468 
   0.049900000    -0.8400513    0.3433555     0.1437042    0.2666902     0.1436950    0.2665930    -0.7507233    0.3323973 
   0.054887500    -0.8180635    0.3676394     0.1631452    0.2841921     0.1629900    0.2840455    -0.7290896    0.3557188 
   0.059875000    -0.7955250    0.3900829     0.1831788    0.3001611     0.1831028    0.3000430    -0.7067581    0.3776084 
   0.064862500    -0.7728297    0.4106947     0.2039001    0.3147245     0.2037941    0.3146848    -0.6845393    0.3976721 
   0.069850000    -0.7491282    0.4297263     0.2249326    0.3277809     0.2245732    0.3278052    -0.6613310    0.4157891 
   0.074837500    -0.7254255    0.4469390     0.2461754    0.3393501     0.2458250    0.3393255    -0.6379810    0.4325901 
   0.079825000    -0.7015653    0.4626836     0.2674876    0.3493317     0.2671725    0.3495217    -0.6143974    0.4476203 
   0.084812500    -0.6774061    0.4765000     0.2891488    0.3578633     0.2887859    0.3579697    -0.5908598    0.4610031 
   0.089800000    -0.6531576    0.4894006     0.3108672    0.3649428     0.3107316    0.3652846    -0.5665942    0.4732036 
   0.094787500    -0.6289822    0.5006155     0.3326643    0.3708458     0.3324149    0.3710010    -0.5427061    0.4839749 
   0.099775000    -0.6050603    0.5106177     0.3540092    0.3754126     0.3537263    0.3756335    -0.5190670    0.4933106 
   0.104762500    -0.5813306    0.5192052     0.3753102    0.3789037     0.3751078    0.3791561    -0.4958451    0.5015379 
   0.109750000    -0.5580717    0.5267764     0.3960022    0.3811663     0.3958794    0.3815301    -0.4728209    0.5084998 
   0.114737500    -0.5352139    0.5330428     0.4164991    0.3826361     0.4162737    0.3826016    -0.4500426    0.5142362 
   0.119725000    -0.5128579    0.5381911     0.4360997    0.3828183     0.4361574    0.3828925    -0.4278653    0.5188197 
   0.124712500    -0.4904479    0.5419498     0.4556111    0.3820288     0.4556088    0.3820450    -0.4060964    0.5219014 
   0.129700000    -0.4686569    0.5449397     0.4746452    0.3805723     0.4747978    0.3804606    -0.3843463    0.5245245 
   0.134687500    -0.4474505    0.5472097     0.4934175    0.3783590     0.4933757    0.3780063    -0.3633440    0.5259002 
   0.139675000    -0.4266180    0.5486253     0.5116414    0.3755850     0.5115881    0.3750701    -0.3430650    0.5266670 
   0.144662500    -0.4062587    0.5492656     0.5295486    0.3718509     0.5293093    0.3718396    -0.3231194    0.5266774 
   0.149650000    -0.3864253    0.5492970     0.5469105    0.3677458     0.5464199    0.3675851    -0.3038071    0.5260711 
   0.154637500    -0.3674681    0.5487535     0.5636516    0.3628290     0.5632614    0.3626755    -0.2849253    0.5250825 
   0.159625000    -0.3490233    0.5474435     0.5798376    0.3573904     0.5794261    0.3574887    -0.2668470    0.5231288 
   0.164612500    -0.3311738    0.5454837     0.5956434    0.3515689     0.5950000    0.3512982    -0.2492124    0.5207179 
   0.169600000    -0.3138453    0.5430626     0.6107707    0.3448924     0.6101840    0.3448010    -0.2322708    0.5174887 
   0.174587500    -0.2966280    0.5402576     0.6256395    0.3376817     0.6250897    0.3378921    -0.2154787    0.5141267 
   0.179575000    -0.2801705    0.5368817     0.6398979    0.3303818     0.6393978    0.3307701    -0.1995510    0.5102367 
   0.184562500    -0.2646054    0.5332335     0.6537048    0.3226380     0.6529828    0.3230394    -0.1838937    0.5059544 
   0.189550000    -0.2492119    0.5292901     0.6668972    0.3147750     0.6664027    0.3154361    -0.1689134    0.5014502 
   0.194537500    -0.2344689    0.5247934     0.6795230    0.3065018     0.6791505    0.3072754    -0.1545906    0.4965674 
   0.199525000    -0.2203455    0.5200553     0.6917551    0.2981193     0.6912908    0.2988766    -0.1408150    0.4912424 
   0.204512500    -0.2067432    0.5148125     0.7033162    0.2892998     0.7031065    0.2902163    -0.1275112    0.4855708 
   0.209500000    -0.1935927    0.5094684     0.7144267    0.2801003     0.7145943    0.2811449    -0.1146817    0.4795833 
   0.214487500    -0.1806720    0.5038030     0.7254567    0.2707815     0.7253847    0.2715351    -0.1021890    0.4732480 
   0.219475000    -0.1684875    0.4980310     0.7357740    0.2613673     0.7360284    0.2619869    -0.0901808    0.4667712 
   0.224462500    -0.1564647    0.4921049     0.7458578    0.2517264     0.7457051    0.2522488    -0.0786075    0.4602046 
   0.229450000    -0.1449990    0.4862736     0.7551520    0.2418206     0.7555380    0.2424391    -0.0676634    0.4538786 
   0.234437500    -0.1338461    0.4802050     0.7642449    0.2318642     0.7642465    0.2322785    -0.0570108    0.4471897 
   0.239425000    -0.1232088    0.4739278     0.7727244    0.2220137     0.7728935    0.2222187    -0.0470235    0.4404594 
   0.244412500    -0.1131871    0.4678232     0.7807701    0.2122934     0.7806707    0.2124273    -0.0373410    0.4337860 
   0.249400000    -0.1032353    0.4613259     0.7882395    0.2023102     0.7884323    0.2022997    -0.0281468    0.4267283 
   0.254387500    -0.0936989    0.4546106     0.7956212    0.1922740     0.7956965    0.1924587    -0.0191941    0.4194825 
   0.259375000    -0.0845405    0.4480151     0.8027745    0.1826115     0.8026597    0.1826060    -0.0107667    0.4124003 
   0.264362500    -0.0755576    0.4412220     0.8098710    0.1729075     0.8096353    0.1730743    -0.0024725    0.4054079 
   0.269350000    -0.0674480    0.4346500     0.8168024    0.1631876     0.8163395    0.1631292     0.0056171    0.3982473 
   0.274337500    -0.0593255    0.4281705     0.8235323    0.1533469     0.8230853    0.1537505     0.0130596    0.3910532 
   0.279325000    -0.0518428    0.4214597     0.8301002    0.1434738     0.8297179    0.1440363     0.0203588    0.3839682 
   0.284312500    -0.0445538    0.4147332     0.8364734    0.1330211     0.8359939    0.1341336     0.0272146    0.3768597 
   0.289300000    -0.0381393    0.4079054     0.8424421    0.1225661     0.8422849    0.1238166     0.0337139    0.3693475 
   0.294287500    -0.0315321    0.4011987     0.8481628    0.1116364     0.8483071    0.1134757     0.0400040    0.3620377 
   0.299275000    -0.0253674    0.3943757     0.8532563    0.1008247     0.8536629    0.1023019     0.0460317    0.3546039 
   0.304262500    -0.0191464    0.3875489     0.8579837    0.0896372     0.8587582    0.0917708     0.0519935    0.3472542 
   0.309250000    -0.0135923    0.3808767     0.8619567    0.0782918     0.8632531    0.0805061     0.0575362    0.3399873 
   0.314237500    -0.0079699    0.3744974     0.8655509    0.0672927     0.8672481    0.0694427     0.0630697    0.3328761 
   0.319225000    -0.0027674    0.3680099     0.8685575    0.0565527     0.8703703    0.0581087     0.0677775    0.3258362 
   0.324212500     0.0023032    0.3616716     0.8711141    0.0460262     0.8730291    0.0474705     0.0726293    0.3188956 
   0.329200000     0.0070575    0.3553547     0.8734586    0.0360850     0.8756096    0.0369341     0.0772262    0.3121164 
   0.334187500     0.0117962    0.3488528     0.8753096    0.0264504     0.8776277    0.0266289     0.0814046    0.3051468 
   0.339175000     0.0164194    0.3424214     0.8775830    0.0171102     0.8797868    0.0167426     0.0854031    0.2983334 
   0.344162500     0.0208551    0.3360893     0.8799505    0.0081096     0.8815809    0.0072879     0.0892114    0.2914371 
   0.349150000     0.0251026    0.3296342     0.8824635   -0.0008067     0.8835824   -0.0018932     0.0927877    0.2846050 
   0.354137500     0.0290444    0.3232417     0.8851630   -0.0096163     0.8857622   -0.0109480     0.0961408    0.2778482 
   0.359125000     0.0329177    0.3169316     0.8879063   -0.0186768     0.8879413   -0.0201111     0.0990496    0.2714081 
   0.364112500     0.0363499    0.3107227     0.8909273   -0.0279426     0.8903431   -0.0292134     0.1017970    0.2647912 
   0.369100000     0.0393952    0.3046284     0.8940471   -0.0374816     0.8928894   -0.0384444     0.1044755    0.2584503 
   0.374087500     0.0421669    0.2983788     0.8966827   -0.0473778     0.8953337   -0.0481606     0.1068536    0.2518783 
   0.379075000     0.0447881    0.2923410     0.8991563   -0.0578221     0.8977293   -0.0578891     0.1090500    0.2453470 
   0.384062500     0.0473441    0.2862330     0.9010835   -0.0685142     0.8994716   -0.0680052     0.1112700    0.2385802 
   0.389050000     0.0497735    0.2802012     0.9023781   -0.0793443     0.9012466   -0.0785610     0.1134805    0.2319952 
   0.394037500     0.0518668    0.2744087     0.9031366   -0.0902785     0.9024708   -0.0888670     0.1156086    0.2255993 
   0.399025000     0.0540231    0.2687830     0.9030414   -0.1007046     0.9030675   -0.0992084     0.1174730    0.2190820 
   0.404012500     0.0559310    0.2632698     0.9025953   -0.1113333     0.9028859   -0.1094979     0.1192766    0.2127234 
   0.409000000     0.0575467    0.2577506     0.9019561   -0.1209172     0.9027880   -0.1193464     0.1209141    0.2065443 
   0.413987500     0.0592590    0.2524560     0.9008710   -0.1301361     0.9025149   -0.1285660     0.1225626    0.2004792 
   0.418975000     0.0607881    0.2469582     0.8998783   -0.1390185     0.9017597   -0.1377246     0.1238531    0.1944027 
   0.423962500     0.0625349    0.2417749     0.8989115   -0.1472073     0.9009524   -0.1464933     0.1252201    0.1882675 
   0.428950000     0.0640090    0.2362500     0.8983853   -0.1550715     0.9001936   -0.1549038     0.1265215    0.1822376 
   0.433937500     0.0654346    0.2309385     0.8980138   -0.1629609     0.8996602   -0.1629501     0.1276886    0.1765242 
   0.438925000     0.0667323    0.2255733     0.8980082   -0.1705632     0.8993592   -0.1709342     0.1283148    0.1709196 
   0.443912500     0.0678402    0.2205205     0.8984700   -0.1787878     0.8995890   -0.1789471     0.1288730    0.1654650 
   0.448900000     0.0688591    0.2151567     0.8990264   -0.1868769     0.8998036   -0.1873252     0.1292755    0.1601032 
   0.453887500     0.0696321    0.2099681     0.8995580   -0.1953216     0.9003205   -0.1956095     0.1294240    0.1549910 
   0.458875000     0.0703816    0.2050658     0.9002292   -0.2044287     0.9005837   -0.2045024     0.1293928    0.1500501 
   0.463862500     0.0709228    0.2000728     0.9004992   -0.2137824     0.9008601   -0.2134861     0.1293742    0.1447981 
   0.468850000     0.0714622    0.1951183     0.9003440   -0.2232851     0.9005558   -0.2228475     0.1293815    0.1396609 
   0.473837500     0.0720368    0.1902858     0.8994130   -0.2331266     0.8999444   -0.2323563     0.1292290    0.1347229 
   0.478825000     0.0724637    0.1854978     0.8977438   -0.2430210     0.8987538   -0.2423191     0.1292535    0.1295254 
   0.483812500     0.0727525    0.1808022     0.8959731   -0.2523995     0.8971822   -0.2518590     0.1289119    0.1245278 
   0.488800000     0.0729626    0.1764979     0.8936314   -0.2618466     0.8950678   -0.2616232     0.1285465    0.1195730 
   0.493787500     0.0730345    0.1722702     0.8909870   -0.2706820     0.8931299   -0.2706404     0.1280587    0.1148214 
   0.498775000     0.0730391    0.1680481     0.8881480   -0.2789281     0.8901356   -0.2793440     0.1276151    0.1101202 
   0.503762500     0.0730422    0.1640432     0.8853875   -0.2863531     0.8875579   -0.2876381     0.1273350    0.1053186 
   0.508750000     0.0730697    0.1601887     0.8826847   -0.2935871     0.8845453   -0.2951869     0.1271563    0.1005500 
   0.513737500     0.0730311    0.1563506     0.8802627   -0.3007486     0.8817372   -0.3028547     0.1265701    0.0959065 
   0.518725000     0.0730213    0.1522638     0.8781779   -0.3075236     0.8792236   -0.3098203     0.1259657    0.0912242 
   0.523712500     0.0728976    0.1484584     0.8762042   -0.3143360     0.8767349   -0.3169718     0.1253406    0.0867321 
   0.528700000     0.0726806    0.1444216     0.8747059   -0.3214085     0.8745547   -0.3239680     0.1244694    0.0822558 
   0.533687500     0.0721281    0.1404584     0.8737058   -0.3287803     0.8730986   -0.3309799     0.1234695    0.0781618 
   0.538675000     0.0713534    0.1365675     0.8726154   -0.3361483     0.8717381   -0.3380180     0.1224162    0.0742020 
   0.543662500     0.0706591    0.1326987     0.8713833   -0.3439862     0.8704597   -0.3451980     0.1211045    0.0702422 
   0.548650000     0.0699798    0.1289499     0.8699299   -0.3519890     0.8689195   -0.3526929     0.1197893    0.0663125 
   0.553637500     0.0692354    0.1251072     0.8680334   -0.3602985     0.8672644   -0.3607686     0.1184096    0.0625605 
   0.558625000     0.0683129    0.1211533     0.8658571   -0.3688377     0.8653108   -0.3687169     0.1171037    0.0585311 
   0.563612500     0.0675584    0.1173560     0.8630780   -0.3774678     0.8628058   -0.3771270     0.1157087    0.0550220 
   0.568600000     0.0668428    0.1135157     0.8600112   -0.3860416     0.8601206   -0.3856500     0.1140837    0.0513530 
   0.573587500     0.0657374    0.1100109     0.8568031   -0.3940878     0.8572788   -0.3940726     0.1124691    0.0474946 
   0.578575000     0.0647212    0.1066889     0.8534266   -0.4018098     0.8541265   -0.4019916     0.1108745    0.0441274 
   0.583562500     0.0636893    0.1032789     0.8497521   -0.4090150     0.8506265   -0.4096528     0.1090200    0.0405992 
   0.588550000     0.0624569    0.1000502     0.8460049   -0.4159570     0.8465807   -0.4168446     0.1073982    0.0370567 
   0.593537500     0.0616048    0.0970133     0.8422154   -0.4227549     0.8425556   -0.4239377     0.1059571    0.0335847 
   0.598525000     0.0608463    0.0941598     0.8384050   -0.4292072     0.8388121   -0.4309596     0.1043925    0.0301088 
   0.603512500     0.0597755    0.0913322     0.8348008   -0.4357545     0.8349591   -0.4375896     0.1028104    0.0266496 
   0.608500000     0.0587803    0.0886695     0.8318616   -0.4420343     0.8309026   -0.4438981     0.1011714    0.0233652 
   0.613487500     0.0579538    0.0858537     0.8288385   -0.4483395     0.8274767   -0.4502828     0.0998644    0.0199800 
   0.618475000     0.0568917    0.0833487     0.8262130   -0.4548545     0.8247516   -0.4562663     0.0980737    0.0169444 
   0.623462500     0.0558857    0.0806897     0.8235107   -0.4613141     0.8217742   -0.4621887     0.0964056    0.0135998 
   0.628450000     0.0547092    0.0781567     0.8207223   -0.4677154     0.8187746   -0.4682336     0.0946713    0.0106032 
   0.633437500     0.0534496    0.0758285     0.8177518   -0.4746018     0.8155205   -0.4746561     0.0929136    0.0078751 
   0.638425000     0.0521167    0.0730357     0.8143448   -0.4814620     0.8124877   -0.4812257     0.0911537    0.0049859 
   0.643412500     0.0507979    0.0707134     0.8110870   -0.4886337     0.8093517   -0.4879259     0.0893978    0.0025481 
   0.648400000     0.0494800    0.0681776     0.8071409   -0.4956152     0.8061186   -0.4947669     0.0873449   -0.0000057 
   0.653387500     0.0479593    0.0657362     0.8034611   -0.5027181     0.8027592   -0.5018448     0.0852746   -0.0024746 
   0.658375000     0.0464106    0.0634271     0.7994289   -0.5094655     0.7996437   -0.5087249     0.0830777   -0.0049391 
   0.663362500     0.0444703    0.0609421     0.7954548   -0.5161957     0.7959480   -0.5154561     0.0809277   -0.0072150 
   0.668350000     0.0429745    0.0584153     0.7913685   -0.5223849     0.7919052   -0.5217338     0.0785660   -0.0094876 
   0.673337500     0.0412841    0.0561546     0.7872328   -0.5284748     0.7875530   -0.5282526     0.0762634   -0.0118082 
   0.678325000     0.0393695    0.0537635     0.7828107   -0.5343686     0.7832233   -0.5347064     0.0739173   -0.0139749 
   0.683312500     0.0377070    0.0517505     0.7782953   -0.5401072     0.7788576   -0.5407734     0.0716286   -0.0162400 
   0.688300000     0.0362534    0.0497327     0.7743993   -0.5459430     0.7741519   -0.5468355     0.0692746   -0.0185535 
   0.693287500     0.0346954    0.0477554     0.7703633   -0.5516675     0.7698743   -0.5526148     0.0670772   -0.0204920 
   0.698275000     0.0330856    0.0458364     0.7664651   -0.5576327     0.7657212   -0.5587711     0.0647678   -0.0226002 
   0.703262500     0.0314930    0.0440987     0.7627804   -0.5634606     0.7621900   -0.5641450     0.0626450   -0.0246453 
   0.708250000     0.0300603    0.0422146     0.7592133   -0.5691164     0.7579784   -0.5697396     0.0603469   -0.0265404 
   0.713237500     0.0287251    0.0405880     0.7553374   -0.5745320     0.7537571   -0.5749944     0.0583125   -0.0286228 
   0.718225000     0.0271308    0.0388845     0.7511193   -0.5806535     0.7495664   -0.5806698     0.0560920   -0.0304637 
   0.723212500     0.0256074    0.0372959     0.7470465   -0.5867587     0.7456037   -0.5865235     0.0540378   -0.0323139 
   0.728200000     0.0240395    0.0359227     0.7425299   -0.5926730     0.7411966   -0.5919996     0.0518788   -0.0340754 
   0.733187500     0.0225903    0.0341597     0.7381935   -0.5986330     0.7369736   -0.5978605     0.0497784   -0.0358502 
   0.738175000     0.0207505    0.0328500     0.7334766   -0.6044742     0.7326471   -0.6037717     0.0475304   -0.0374431 
   0.743162500     0.0192375    0.0313326     0.7290233   -0.6102785     0.7287393   -0.6094342     0.0455387   -0.0392009 
   0.748150000     0.0174024    0.0298362     0.7247772   -0.6158326     0.7246454   -0.6150743     0.0431985   -0.0407968 
   0.753137500     0.0153913    0.0285124     0.7198220   -0.6212139     0.7198682   -0.6202198     0.0409213   -0.0421825 
   0.758125000     0.0134779    0.0271409     0.7150869   -0.6262187     0.7148939   -0.6255875     0.0383259   -0.0434002 
   0.763112500     0.0117070    0.0259591     0.7100344   -0.6312524     0.7102892   -0.6309127     0.0359772   -0.0446308 
   0.768100000     0.0097526    0.0246703     0.7050573   -0.6363435     0.7053118   -0.6362718     0.0335420   -0.0458683 
   0.773087500     0.0078135    0.0236424     0.7007223   -0.6414807     0.7004794   -0.6415410     0.0309582   -0.0470766 
   0.778075000     0.0056926    0.0226768     0.6962395   -0.6463644     0.6956451   -0.6468002     0.0283991   -0.0480742 
   0.783062500     0.0038376    0.0216660     0.6913677   -0.6513522     0.6913685   -0.6519487     0.0258514   -0.0492539 
   0.788050000     0.0019112    0.0207949     0.6872539   -0.6564209     0.6869426   -0.6568432     0.0233580   -0.0499845 
   0.793037500     0.0001142    0.0196880     0.6828796   -0.6613738     0.6820732   -0.6616892     0.0209432   -0.0509615 
