! 5/5/2016 5:07:20 PM
! C:\ANRITSUVNA\DATA\INFINEON-SP4T-STATE01-C-RX2.S2P
! CHANNEL.1
! TR.MEASUREMENT
! CORRECTED.DATA
# GHZ S RI R 50.0
! FREQ.GHZ         S11RE         S11IM         S21RE         S21IM         S12RE         S12IM         S22RE         S22IM         
!; PortSelection: Port_12
   0.010000000    -0.9730805    0.0884943    -0.0000266    0.0000007    -0.0000194   -0.0000041    -0.7932918    0.0214962 
   0.014987500    -0.9612625    0.1263612    -0.0000063    0.0000318     0.0000086    0.0000137    -0.7903014    0.0206113 
   0.019975000    -0.9480595    0.1625532    -0.0000211    0.0000184    -0.0000291    0.0000122    -0.7900677    0.0270755 
   0.024962500    -0.9331792    0.1973061    -0.0000308    0.0000104    -0.0000357    0.0000229    -0.7895837    0.0334299 
   0.029950000    -0.9171792    0.2299779    -0.0000498    0.0000184    -0.0000523    0.0000292    -0.7890381    0.0399272 
   0.034937500    -0.8997061    0.2607548    -0.0000745    0.0000330    -0.0000730    0.0000315    -0.7887188    0.0463150 
   0.039925000    -0.8809357    0.2900629    -0.0000931    0.0000367    -0.0001028    0.0000444    -0.7881536    0.0524005 
   0.044912500    -0.8613676    0.3173431    -0.0001163    0.0000518    -0.0001266    0.0000615    -0.7875350    0.0588421 
   0.049900000    -0.8403804    0.3431647    -0.0001338    0.0000654    -0.0001410    0.0000627    -0.7867734    0.0651973 
   0.054887500    -0.8183082    0.3672025    -0.0001618    0.0000849    -0.0001669    0.0000837    -0.7861012    0.0713092 
   0.059875000    -0.7958241    0.3895780    -0.0001866    0.0001157    -0.0001906    0.0001064    -0.7853034    0.0775605 
   0.064862500    -0.7729800    0.4103943    -0.0002213    0.0001347    -0.0002203    0.0001319    -0.7847360    0.0838625 
   0.069850000    -0.7492830    0.4295683    -0.0002456    0.0001559    -0.0002385    0.0001524    -0.7838204    0.0901321 
   0.074837500    -0.7255560    0.4467056    -0.0002637    0.0001784    -0.0002644    0.0001805    -0.7830030    0.0962420 
   0.079825000    -0.7016151    0.4624484    -0.0003031    0.0002148    -0.0002921    0.0002108    -0.7820134    0.1024887 
   0.084812500    -0.6774541    0.4763904    -0.0003274    0.0002452    -0.0003242    0.0002408    -0.7809720    0.1085519 
   0.089800000    -0.6531557    0.4891632    -0.0003559    0.0002736    -0.0003509    0.0002810    -0.7800132    0.1148306 
   0.094787500    -0.6289226    0.5003504    -0.0003913    0.0003184    -0.0003889    0.0003159    -0.7788595    0.1209303 
   0.099775000    -0.6048535    0.5103057    -0.0004307    0.0003618    -0.0004274    0.0003618    -0.7776262    0.1271239 
   0.104762500    -0.5811938    0.5188745    -0.0004386    0.0004325    -0.0004255    0.0004289    -0.7764568    0.1330810 
   0.109750000    -0.5579923    0.5264671    -0.0004564    0.0004613    -0.0004463    0.0004626    -0.7752630    0.1393563 
   0.114737500    -0.5349841    0.5327622    -0.0004728    0.0004972    -0.0004666    0.0005050    -0.7740628    0.1454090 
   0.119725000    -0.5126548    0.5378231    -0.0004961    0.0005391    -0.0004843    0.0005363    -0.7728367    0.1516689 
   0.124712500    -0.4903018    0.5415491    -0.0005121    0.0005804    -0.0005093    0.0005834    -0.7714715    0.1575538 
   0.129700000    -0.4682951    0.5445113    -0.0005398    0.0006252    -0.0005327    0.0006292    -0.7701836    0.1637539 
   0.134687500    -0.4472142    0.5466285    -0.0005540    0.0006765    -0.0005489    0.0006794    -0.7684662    0.1695782 
   0.139675000    -0.4263312    0.5481380    -0.0005714    0.0007288    -0.0005668    0.0007236    -0.7670172    0.1756906 
   0.144662500    -0.4059916    0.5487144    -0.0005892    0.0007737    -0.0005870    0.0007768    -0.7653583    0.1816849 
   0.149650000    -0.3860416    0.5486786    -0.0006087    0.0008382    -0.0006047    0.0008238    -0.7637165    0.1874466 
   0.154637500    -0.3669829    0.5480677    -0.0006266    0.0008896    -0.0006162    0.0008766    -0.7622520    0.1936354 
   0.159625000    -0.3484322    0.5467651    -0.0006370    0.0009401    -0.0006350    0.0009312    -0.7605826    0.1996062 
   0.164612500    -0.3305740    0.5448380    -0.0006521    0.0010007    -0.0006449    0.0009919    -0.7588328    0.2056242 
   0.169600000    -0.3131677    0.5422712    -0.0006684    0.0010637    -0.0006541    0.0010491    -0.7567419    0.2114616 
   0.174587500    -0.2958927    0.5393246    -0.0006728    0.0011156    -0.0006664    0.0011145    -0.7551261    0.2175471 
   0.179575000    -0.2794233    0.5359879    -0.0006834    0.0011757    -0.0006739    0.0011648    -0.7532361    0.2235568 
   0.184562500    -0.2637012    0.5322520    -0.0006938    0.0012287    -0.0006883    0.0012314    -0.7513982    0.2295332 
   0.189550000    -0.2484192    0.5282466    -0.0006994    0.0012883    -0.0006914    0.0012787    -0.7493599    0.2353103 
   0.194537500    -0.2337104    0.5237770    -0.0007012    0.0013483    -0.0007004    0.0013486    -0.7475386    0.2412314 
   0.199525000    -0.2195885    0.5189907    -0.0007136    0.0014101    -0.0007069    0.0014109    -0.7453535    0.2472570 
   0.204512500    -0.2060289    0.5137312    -0.0007098    0.0014740    -0.0007067    0.0014696    -0.7432269    0.2530415 
   0.209500000    -0.1928477    0.5084154    -0.0007149    0.0015332    -0.0007032    0.0015306    -0.7411944    0.2588464 
   0.214487500    -0.1799364    0.5025974    -0.0007124    0.0015983    -0.0007024    0.0015827    -0.7388442    0.2645770 
   0.219475000    -0.1677006    0.4968150    -0.0007052    0.0016541    -0.0007042    0.0016451    -0.7364762    0.2705445 
   0.224462500    -0.1557053    0.4907456    -0.0007008    0.0017184    -0.0007006    0.0017035    -0.7339715    0.2762695 
   0.229450000    -0.1443420    0.4847835    -0.0006935    0.0017766    -0.0006880    0.0017731    -0.7316614    0.2819362 
   0.234437500    -0.1332499    0.4786285    -0.0006931    0.0018428    -0.0006855    0.0018327    -0.7291704    0.2877268 
   0.239425000    -0.1225842    0.4723814    -0.0006885    0.0019040    -0.0006753    0.0018921    -0.7265919    0.2934802 
   0.244412500    -0.1128221    0.4660556    -0.0006761    0.0019677    -0.0006722    0.0019500    -0.7243431    0.2992477 
   0.249400000    -0.1029314    0.4593953    -0.0006644    0.0020275    -0.0006626    0.0020111    -0.7217572    0.3047737 
   0.254387500    -0.0935193    0.4526683    -0.0006564    0.0020855    -0.0006476    0.0020761    -0.7192259    0.3101208 
   0.259375000    -0.0844705    0.4458839    -0.0006488    0.0021493    -0.0006387    0.0021443    -0.7166946    0.3155983 
   0.264362500    -0.0755303    0.4392448    -0.0006343    0.0022060    -0.0006296    0.0022013    -0.7141925    0.3211485 
   0.269350000    -0.0674833    0.4327723    -0.0006222    0.0022593    -0.0006226    0.0022543    -0.7115700    0.3266667 
   0.274337500    -0.0593092    0.4262095    -0.0006131    0.0023197    -0.0006094    0.0023216    -0.7091534    0.3319328 
   0.279325000    -0.0517415    0.4196848    -0.0005978    0.0023958    -0.0006019    0.0023960    -0.7063597    0.3375575 
   0.284312500    -0.0443888    0.4128772    -0.0005958    0.0024532    -0.0005939    0.0024469    -0.7038512    0.3430373 
   0.289300000    -0.0377898    0.4061405    -0.0005772    0.0025195    -0.0005732    0.0025061    -0.7011778    0.3484636 
   0.294287500    -0.0310498    0.3992698    -0.0005577    0.0025743    -0.0005431    0.0025759    -0.6983534    0.3536891 
   0.299275000    -0.0245995    0.3923169    -0.0005372    0.0026513    -0.0005284    0.0026438    -0.6953033    0.3589729 
   0.304262500    -0.0183578    0.3855197    -0.0005232    0.0027136    -0.0005119    0.0026986    -0.6922064    0.3644917 
   0.309250000    -0.0126444    0.3786148    -0.0004874    0.0027786    -0.0004746    0.0027498    -0.6889330    0.3699242 
   0.314237500    -0.0069726    0.3720831    -0.0004562    0.0028407    -0.0004363    0.0028188    -0.6855033    0.3751905 
   0.319225000    -0.0016494    0.3653889    -0.0004330    0.0029050    -0.0004165    0.0028794    -0.6823393    0.3808241 
   0.324212500     0.0033042    0.3587847    -0.0004041    0.0029671    -0.0004041    0.0029357    -0.6787961    0.3864351 
   0.329200000     0.0081865    0.3522539    -0.0003799    0.0030200    -0.0003788    0.0029866    -0.6753861    0.3918708 
   0.334187500     0.0127225    0.3453349    -0.0003469    0.0030700    -0.0003441    0.0030548    -0.6719798    0.3969755 
   0.339175000     0.0171739    0.3387992    -0.0003188    0.0031329    -0.0003237    0.0031077    -0.6683395    0.4024554 
   0.344162500     0.0212127    0.3322851    -0.0002943    0.0031819    -0.0003127    0.0031670    -0.6648550    0.4077085 
   0.349150000     0.0251219    0.3258960    -0.0002677    0.0032387    -0.0002845    0.0032137    -0.6615065    0.4129874 
   0.354137500     0.0290452    0.3194577    -0.0002446    0.0032808    -0.0002540    0.0032853    -0.6580280    0.4181904 
   0.359125000     0.0326716    0.3131372    -0.0002135    0.0033354    -0.0002188    0.0033474    -0.6547315    0.4235231 
   0.364112500     0.0359683    0.3071353    -0.0001961    0.0033889    -0.0002115    0.0033972    -0.6512817    0.4286069 
   0.369100000     0.0389792    0.3009591    -0.0001903    0.0034399    -0.0001902    0.0034540    -0.6482127    0.4336815 
   0.374087500     0.0419656    0.2947827    -0.0001731    0.0035037    -0.0001533    0.0035194    -0.6446976    0.4384780 
   0.379075000     0.0446973    0.2884184    -0.0001544    0.0035632    -0.0001229    0.0035918    -0.6416615    0.4432592 
   0.384062500     0.0474309    0.2823145    -0.0001301    0.0036383    -0.0001012    0.0036464    -0.6382549    0.4480222 
   0.389050000     0.0499413    0.2763149    -0.0000945    0.0037043    -0.0000654    0.0037034    -0.6347589    0.4528931 
   0.394037500     0.0523726    0.2702996    -0.0000551    0.0037896    -0.0000152    0.0037520    -0.6310465    0.4575932 
   0.399025000     0.0547411    0.2643348    -0.0000024    0.0038491     0.0000322    0.0038176    -0.6270741    0.4622245 
   0.404012500     0.0567701    0.2586526     0.0000472    0.0039178     0.0000595    0.0038681    -0.6230853    0.4669888 
   0.409000000     0.0588030    0.2528876     0.0000895    0.0039817     0.0000854    0.0039222    -0.6193476    0.4720181 
   0.413987500     0.0604207    0.2472290     0.0001426    0.0040367     0.0001366    0.0039735    -0.6156123    0.4769500 
   0.418975000     0.0620572    0.2416314     0.0002018    0.0040780     0.0001814    0.0040308    -0.6115612    0.4814926 
   0.423962500     0.0635767    0.2360319     0.0002511    0.0041253     0.0002037    0.0040859    -0.6072899    0.4860258 
   0.428950000     0.0650832    0.2304877     0.0002878    0.0041702     0.0002378    0.0041269    -0.6031976    0.4909234 
   0.433937500     0.0664762    0.2252190     0.0003306    0.0041955     0.0002830    0.0041825    -0.5987570    0.4954787 
   0.438925000     0.0676502    0.2198830     0.0003750    0.0042347     0.0003253    0.0042371    -0.5943300    0.5001633 
   0.443912500     0.0687414    0.2147601     0.0004069    0.0042696     0.0003542    0.0043030    -0.5901459    0.5046640 
   0.448900000     0.0695185    0.2094944     0.0004290    0.0043167     0.0003816    0.0043516    -0.5860028    0.5094352 
   0.453887500     0.0702640    0.2045922     0.0004492    0.0043518     0.0004179    0.0044038    -0.5818664    0.5141047 
   0.458875000     0.0708660    0.1995631     0.0004688    0.0044049     0.0004733    0.0044643    -0.5781558    0.5183653 
   0.463862500     0.0713516    0.1944044     0.0004888    0.0044646     0.0005158    0.0045182    -0.5741788    0.5227048 
   0.468850000     0.0718217    0.1893379     0.0005080    0.0045390     0.0005491    0.0045632    -0.5697435    0.5268555 
   0.473837500     0.0724695    0.1845337     0.0005427    0.0046043     0.0006107    0.0046242    -0.5656962    0.5313339 
   0.478825000     0.0728127    0.1797475     0.0006003    0.0046883     0.0006749    0.0046769    -0.5614818    0.5355889 
   0.483812500     0.0730607    0.1750393     0.0006578    0.0047681     0.0007257    0.0047289    -0.5570531    0.5397950 
   0.488800000     0.0732174    0.1702970     0.0007231    0.0048489     0.0007697    0.0047763    -0.5526270    0.5443498 
   0.493787500     0.0733164    0.1660010     0.0007923    0.0049067     0.0008252    0.0048261    -0.5483016    0.5488392 
   0.498775000     0.0734332    0.1613625     0.0008798    0.0049628     0.0008909    0.0048658    -0.5441144    0.5529425 
   0.503762500     0.0733792    0.1570224     0.0009619    0.0050042     0.0009391    0.0049160    -0.5396894    0.5570903 
   0.508750000     0.0731133    0.1526186     0.0010379    0.0050373     0.0009727    0.0049471    -0.5349780    0.5610581 
   0.513737500     0.0729987    0.1483389     0.0010977    0.0050584     0.0010343    0.0049988    -0.5300325    0.5652851 
   0.518725000     0.0727304    0.1441985     0.0011651    0.0050650     0.0010784    0.0050368    -0.5253304    0.5691395 
   0.523712500     0.0723491    0.1401601     0.0012260    0.0050799     0.0011252    0.0050858    -0.5202772    0.5730590 
   0.528700000     0.0716628    0.1362271     0.0012507    0.0050895     0.0011557    0.0051144    -0.5152986    0.5772707 
   0.533687500     0.0711994    0.1322593     0.0012821    0.0051289     0.0012010    0.0051718    -0.5105321    0.5816161 
   0.538675000     0.0703949    0.1284914     0.0013030    0.0051509     0.0012473    0.0052184    -0.5058832    0.5855798 
   0.543662500     0.0697056    0.1245320     0.0013254    0.0051877     0.0013054    0.0052573    -0.5012370    0.5891817 
   0.548650000     0.0688937    0.1207395     0.0013408    0.0052349     0.0013351    0.0053169    -0.4966539    0.5927192 
   0.553637500     0.0680572    0.1169441     0.0013519    0.0052920     0.0013898    0.0053633    -0.4916840    0.5964736 
   0.558625000     0.0672689    0.1132585     0.0013912    0.0053638     0.0014462    0.0054135    -0.4869492    0.5999915 
   0.563612500     0.0663206    0.1095690     0.0014246    0.0054460     0.0015187    0.0054599    -0.4820530    0.6036369 
   0.568600000     0.0653133    0.1058394     0.0014788    0.0055245     0.0015651    0.0055198    -0.4773618    0.6072974 
   0.573587500     0.0644418    0.1025252     0.0015366    0.0056135     0.0016278    0.0055640    -0.4723055    0.6112142 
   0.578575000     0.0634762    0.0990741     0.0016116    0.0056892     0.0016906    0.0056080    -0.4676499    0.6150104 
   0.583562500     0.0622463    0.0955320     0.0016938    0.0057512     0.0017610    0.0056532    -0.4631890    0.6183441 
   0.588550000     0.0613243    0.0922332     0.0017888    0.0057992     0.0018157    0.0057042    -0.4583153    0.6216840 
   0.593537500     0.0602028    0.0889758     0.0018714    0.0058371     0.0018668    0.0057371    -0.4531682    0.6250046 
   0.598525000     0.0591795    0.0858728     0.0019693    0.0058745     0.0019298    0.0057641    -0.4480498    0.6285526 
   0.603512500     0.0579027    0.0827001     0.0020587    0.0058788     0.0019919    0.0057988    -0.4428866    0.6320016 
   0.608500000     0.0566485    0.0797876     0.0021358    0.0058962     0.0020482    0.0058500    -0.4378363    0.6353459 
   0.613487500     0.0554164    0.0769223     0.0021920    0.0059058     0.0020835    0.0058816    -0.4321838    0.6387541 
   0.618475000     0.0539651    0.0741167     0.0022492    0.0059068     0.0021508    0.0059157    -0.4268953    0.6422791 
   0.623462500     0.0527206    0.0712391     0.0022981    0.0059301     0.0022074    0.0059457    -0.4217349    0.6453629 
   0.628450000     0.0511945    0.0686377     0.0023427    0.0059368     0.0022654    0.0059863    -0.4166077    0.6483753 
   0.633437500     0.0497280    0.0659616     0.0023701    0.0059610     0.0023004    0.0060215    -0.4110047    0.6514332 
   0.638425000     0.0482601    0.0632975     0.0024136    0.0059914     0.0023804    0.0060540    -0.4054610    0.6544615 
   0.643412500     0.0467552    0.0608480     0.0024370    0.0060357     0.0024369    0.0060887    -0.3998602    0.6574416 
   0.648400000     0.0450617    0.0582310     0.0024984    0.0060862     0.0025142    0.0061312    -0.3944280    0.6604484 
   0.653387500     0.0434400    0.0558572     0.0025358    0.0061486     0.0025590    0.0061719    -0.3886978    0.6634573 
   0.658375000     0.0418614    0.0535145     0.0025954    0.0062072     0.0026244    0.0062041    -0.3830675    0.6666136 
   0.663362500     0.0401079    0.0511961     0.0026627    0.0062721     0.0026913    0.0062379    -0.3779283    0.6695891 
   0.668350000     0.0384120    0.0486637     0.0027355    0.0063189     0.0027599    0.0062823    -0.3730929    0.6724385 
   0.673337500     0.0367975    0.0463989     0.0028188    0.0063674     0.0028106    0.0063032    -0.3679143    0.6751341 
   0.678325000     0.0347960    0.0442487     0.0028932    0.0064101     0.0028928    0.0063490    -0.3623649    0.6778973 
   0.683312500     0.0331041    0.0420704     0.0029939    0.0064422     0.0029539    0.0063853    -0.3568861    0.6808708 
   0.688300000     0.0314789    0.0399135     0.0030859    0.0064584     0.0030357    0.0064129    -0.3517018    0.6833838 
   0.693287500     0.0298081    0.0379007     0.0031657    0.0064696     0.0030841    0.0064514    -0.3461668    0.6860905 
   0.698275000     0.0281748    0.0359389     0.0032450    0.0064880     0.0031624    0.0064725    -0.3402981    0.6888160 
   0.703262500     0.0262652    0.0341496     0.0033208    0.0065073     0.0032165    0.0065053    -0.3350427    0.6914251 
   0.708250000     0.0245178    0.0323228     0.0033866    0.0065076     0.0033052    0.0065246    -0.3298394    0.6940449 
   0.713237500     0.0228231    0.0304920     0.0034457    0.0065109     0.0033602    0.0065608    -0.3240855    0.6960351 
   0.718225000     0.0209531    0.0288863     0.0034952    0.0065253     0.0034354    0.0065918    -0.3181986    0.6982823 
   0.723212500     0.0190914    0.0272552     0.0035684    0.0065475     0.0035122    0.0065992    -0.3126103    0.7003530 
   0.728200000     0.0173230    0.0257529     0.0036162    0.0065686     0.0035944    0.0066318    -0.3067055    0.7024134 
   0.733187500     0.0151908    0.0241280     0.0036738    0.0065880     0.0036543    0.0066583    -0.3009281    0.7046105 
   0.738175000     0.0134359    0.0227172     0.0037198    0.0066256     0.0037285    0.0066945    -0.2946991    0.7069200 
   0.743162500     0.0115179    0.0213260     0.0037886    0.0066709     0.0038085    0.0067122    -0.2887498    0.7087704 
   0.748150000     0.0094605    0.0198801     0.0038547    0.0067068     0.0038762    0.0067274    -0.2832169    0.7109486 
   0.753137500     0.0074583    0.0185874     0.0039255    0.0067454     0.0039313    0.0067608    -0.2775881    0.7128191 
   0.758125000     0.0054607    0.0171733     0.0039919    0.0067871     0.0040004    0.0067803    -0.2717809    0.7149771 
   0.763112500     0.0036349    0.0159526     0.0040912    0.0068155     0.0040753    0.0067989    -0.2659054    0.7168584 
   0.768100000     0.0014979    0.0146698     0.0041638    0.0068509     0.0041582    0.0068248    -0.2601744    0.7189027 
   0.773087500    -0.0003941    0.0136140     0.0042564    0.0068640     0.0041498    0.0069279    -0.2544334    0.7208257 
   0.778075000    -0.0023456    0.0124518     0.0043365    0.0068974     0.0042033    0.0068984    -0.2483902    0.7229084 
   0.783062500    -0.0043978    0.0113325     0.0044269    0.0069214     0.0042740    0.0069783    -0.2427341    0.7249105 
   0.788050000    -0.0064019    0.0103251     0.0045203    0.0069289     0.0043801    0.0070137    -0.2370648    0.7271488 
   0.793037500    -0.0083619    0.0092389     0.0045939    0.0069244     0.0044537    0.0070564    -0.2315121    0.7289549 
