! 5/5/2016 4:41:40 PM
! C:\ANRITSUVNA\DATA\PSEMI-SP4T-TRANSLINE.S2P
! CHANNEL.1
! TR.MEASUREMENT
! CORRECTED.DATA
# GHZ S RI R 50.0
! FREQ.GHZ         S11RE         S11IM         S21RE         S21IM         S12RE         S12IM         S22RE         S22IM         
!; PortSelection: Port_12
   0.010000000     0.0008285    0.0002004     0.9993430   -0.0116399     0.9988296   -0.0117387     0.0009110    0.0001178 
   0.014987500     0.0010433    0.0001034     0.9989663   -0.0171789     0.9985464   -0.0171517     0.0009625    0.0000772 
   0.019975000     0.0012835   -0.0000571     0.9986315   -0.0226823     0.9985386   -0.0226116     0.0011628   -0.0000581 
   0.024962500     0.0014656   -0.0002250     0.9982845   -0.0283043     0.9982365   -0.0281191     0.0012126   -0.0002150 
   0.029950000     0.0017251   -0.0004436     0.9978271   -0.0338127     0.9978306   -0.0336207     0.0013544   -0.0003285 
   0.034937500     0.0018182   -0.0005561     0.9975986   -0.0392023     0.9973313   -0.0389738     0.0015052   -0.0005059 
   0.039925000     0.0021215   -0.0008052     0.9971501   -0.0446813     0.9969632   -0.0445366     0.0014272   -0.0007330 
   0.044912500     0.0022183   -0.0008947     0.9967379   -0.0500976     0.9966463   -0.0499793     0.0016227   -0.0008570 
   0.049900000     0.0024005   -0.0011465     0.9962623   -0.0555292     0.9961953   -0.0553435     0.0015759   -0.0010100 
   0.054887500     0.0025659   -0.0013494     0.9960587   -0.0608632     0.9957210   -0.0608328     0.0016105   -0.0012723 
   0.059875000     0.0027479   -0.0015617     0.9955277   -0.0661565     0.9953396   -0.0660708     0.0017434   -0.0014453 
   0.064862500     0.0028743   -0.0017727     0.9950738   -0.0714777     0.9947321   -0.0715256     0.0017512   -0.0016257 
   0.069850000     0.0029737   -0.0019725     0.9944475   -0.0770572     0.9942064   -0.0769770     0.0017918   -0.0017682 
   0.074837500     0.0031069   -0.0022234     0.9938629   -0.0824131     0.9936448   -0.0824155     0.0018486   -0.0021038 
   0.079825000     0.0032137   -0.0024086     0.9933396   -0.0878122     0.9931794   -0.0875342     0.0018343   -0.0023729 
   0.084812500     0.0032739   -0.0026299     0.9927589   -0.0930918     0.9925425   -0.0930339     0.0019163   -0.0026565 
   0.089800000     0.0032837   -0.0028673     0.9919682   -0.0983933     0.9919840   -0.0982586     0.0020460   -0.0028904 
   0.094787500     0.0033713   -0.0031317     0.9914173   -0.1038444     0.9912354   -0.1036513     0.0020362   -0.0031098 
   0.099775000     0.0033874   -0.0032884     0.9909040   -0.1088465     0.9903034   -0.1087380     0.0020527   -0.0033678 
   0.104762500     0.0033868   -0.0035811     0.9900615   -0.1144147     0.9898065   -0.1142244     0.0020511   -0.0037215 
   0.109750000     0.0033716   -0.0039937     0.9892660   -0.1197776     0.9891338   -0.1196460     0.0020752   -0.0039590 
   0.114737500     0.0033123   -0.0041032     0.9884915   -0.1250868     0.9883999   -0.1249764     0.0021205   -0.0041600 
   0.119725000     0.0032352   -0.0044123     0.9878423   -0.1305032     0.9873879   -0.1301827     0.0022491   -0.0044343 
   0.124712500     0.0032944   -0.0047494     0.9868036   -0.1356997     0.9867578   -0.1354072     0.0022910   -0.0047911 
   0.129700000     0.0031503   -0.0049277     0.9859655   -0.1408824     0.9860585   -0.1404812     0.0023766   -0.0051929 
   0.134687500     0.0030683   -0.0052105     0.9852590   -0.1461544     0.9851024   -0.1459615     0.0024816   -0.0054156 
   0.139675000     0.0029657   -0.0055965     0.9841211   -0.1513349     0.9840519   -0.1511393     0.0025424   -0.0057061 
   0.144662500     0.0028816   -0.0058542     0.9832906   -0.1566395     0.9830822   -0.1563049     0.0026366   -0.0059717 
   0.149650000     0.0027931   -0.0060865     0.9824688   -0.1619426     0.9820612   -0.1615293     0.0026304   -0.0062400 
   0.154637500     0.0027259   -0.0064031     0.9813235   -0.1672693     0.9812146   -0.1670760     0.0027346   -0.0065691 
   0.159625000     0.0025826   -0.0065947     0.9804561   -0.1725330     0.9804874   -0.1724130     0.0027850   -0.0068121 
   0.164612500     0.0024936   -0.0068924     0.9796082   -0.1777557     0.9791164   -0.1774748     0.0029336   -0.0070625 
   0.169600000     0.0025099   -0.0070862     0.9785495   -0.1828109     0.9782320   -0.1827189     0.0028886   -0.0072689 
   0.174587500     0.0025121   -0.0072707     0.9772763   -0.1881820     0.9770586   -0.1879719     0.0029204   -0.0076860 
   0.179575000     0.0024883   -0.0074189     0.9762964   -0.1933704     0.9760712   -0.1931213     0.0029667   -0.0078567 
   0.184562500     0.0024075   -0.0074707     0.9751020   -0.1984253     0.9745104   -0.1983166     0.0030096   -0.0080276 
   0.189550000     0.0023321   -0.0076620     0.9737958   -0.2035814     0.9734898   -0.2035598     0.0029896   -0.0081759 
   0.194537500     0.0021912   -0.0078667     0.9723887   -0.2089889     0.9721898   -0.2088048     0.0028222   -0.0083814 
   0.199525000     0.0021932   -0.0080000     0.9713240   -0.2141417     0.9711549   -0.2141184     0.0026815   -0.0085634 
   0.204512500     0.0021268   -0.0082301     0.9700320   -0.2193461     0.9697714   -0.2189863     0.0026054   -0.0088362 
   0.209500000     0.0021125   -0.0084036     0.9688476   -0.2243382     0.9687308   -0.2241380     0.0026192   -0.0089480 
   0.214487500     0.0019898   -0.0086572     0.9674436   -0.2295146     0.9672942   -0.2293420     0.0025378   -0.0092433 
   0.219475000     0.0019103   -0.0088915     0.9661225   -0.2345086     0.9660554   -0.2343306     0.0024978   -0.0094073 
   0.224462500     0.0018891   -0.0091989     0.9648593   -0.2396022     0.9647093   -0.2392892     0.0024673   -0.0096614 
   0.229450000     0.0018339   -0.0095121     0.9633982   -0.2447977     0.9634022   -0.2446562     0.0024536   -0.0099399 
   0.234437500     0.0015884   -0.0097776     0.9620388   -0.2500461     0.9617742   -0.2496473     0.0022502   -0.0101623 
   0.239425000     0.0015102   -0.0100052     0.9606882   -0.2552344     0.9604616   -0.2551826     0.0021640   -0.0103877 
   0.244412500     0.0014084   -0.0104289     0.9593014   -0.2604032     0.9592955   -0.2600154     0.0020694   -0.0107540 
   0.249400000     0.0014074   -0.0108149     0.9578847   -0.2654618     0.9577652   -0.2651324     0.0019451   -0.0110644 
   0.254387500     0.0012712   -0.0109831     0.9563469   -0.2703919     0.9563100   -0.2701584     0.0018555   -0.0114696 
   0.259375000     0.0012229   -0.0112317     0.9546360   -0.2756420     0.9544731   -0.2752453     0.0017777   -0.0115644 
   0.264362500     0.0009943   -0.0114524     0.9532286   -0.2804497     0.9530283   -0.2802655     0.0016174   -0.0118526 
   0.269350000     0.0009277   -0.0116553     0.9513766   -0.2857341     0.9509945   -0.2854977     0.0015051   -0.0120613 
   0.274337500     0.0007798   -0.0119698     0.9496423   -0.2907603     0.9495632   -0.2904347     0.0011653   -0.0122781 
   0.279325000     0.0006128   -0.0122190     0.9478193   -0.2959081     0.9476966   -0.2957121     0.0011223   -0.0126929 
   0.284312500     0.0005080   -0.0125145     0.9463756   -0.3010031     0.9461396   -0.3006632     0.0009511   -0.0128558 
   0.289300000     0.0004172   -0.0127550     0.9449493   -0.3058494     0.9443729   -0.3055881     0.0007090   -0.0131784 
   0.294287500     0.0002384   -0.0130180     0.9431634   -0.3106334     0.9431159   -0.3102675     0.0006068   -0.0133737 
   0.299275000     0.0001612   -0.0131355     0.9414098   -0.3154372     0.9409436   -0.3152353     0.0004813   -0.0136090 
   0.304262500    -0.0000146   -0.0135228     0.9398218   -0.3203339     0.9394376   -0.3201618     0.0001954   -0.0139447 
   0.309250000    -0.0000161   -0.0137269     0.9377406   -0.3253862     0.9374365   -0.3251093    -0.0000122   -0.0140798 
   0.314237500    -0.0001382   -0.0139215     0.9358416   -0.3303592     0.9357925   -0.3300771    -0.0000424   -0.0144452 
   0.319225000    -0.0004010   -0.0142247     0.9341451   -0.3353584     0.9337934   -0.3352486    -0.0004128   -0.0145999 
   0.324212500    -0.0003796   -0.0143562     0.9321099   -0.3404604     0.9319819   -0.3403704    -0.0004881   -0.0149276 
   0.329200000    -0.0006032   -0.0146563     0.9306708   -0.3453907     0.9303515   -0.3450642    -0.0006075   -0.0150893 
   0.334187500    -0.0005781   -0.0149368     0.9286488   -0.3502378     0.9283974   -0.3500644    -0.0007298   -0.0152534 
   0.339175000    -0.0006731   -0.0150040     0.9267676   -0.3551256     0.9264025   -0.3549258    -0.0008397   -0.0153134 
   0.344162500    -0.0007905   -0.0153823     0.9246915   -0.3602216     0.9245372   -0.3600084    -0.0010601   -0.0154129 
   0.349150000    -0.0009919   -0.0155791     0.9224328   -0.3651843     0.9224382   -0.3645754    -0.0012816   -0.0155915 
   0.354137500    -0.0009467   -0.0156899     0.9203196   -0.3699812     0.9203175   -0.3696097    -0.0013701   -0.0156637 
   0.359125000    -0.0011702   -0.0159141     0.9180420   -0.3750901     0.9179837   -0.3744473    -0.0016082   -0.0157360 
   0.364112500    -0.0011874   -0.0161425     0.9159511   -0.3799716     0.9158447   -0.3797378    -0.0017477   -0.0158912 
   0.369100000    -0.0012515   -0.0162758     0.9139240   -0.3847401     0.9140475   -0.3842464    -0.0018687   -0.0159590 
   0.374087500    -0.0014894   -0.0163376     0.9117178   -0.3893850     0.9119179   -0.3890907    -0.0019379   -0.0161314 
   0.379075000    -0.0017379   -0.0164754     0.9097689   -0.3939116     0.9095735   -0.3934983    -0.0021759   -0.0162536 
   0.384062500    -0.0018581   -0.0167718     0.9072343   -0.3985516     0.9073696   -0.3983296    -0.0023620   -0.0163841 
   0.389050000    -0.0018520   -0.0167643     0.9051678   -0.4031214     0.9053573   -0.4030881    -0.0026066   -0.0164392 
   0.394037500    -0.0021284   -0.0168932     0.9029027   -0.4079198     0.9030318   -0.4077576    -0.0026789   -0.0166114 
   0.399025000    -0.0021197   -0.0170214     0.9007682   -0.4125355     0.9007829   -0.4126446    -0.0028834   -0.0168713 
   0.404012500    -0.0022952   -0.0170296     0.8986074   -0.4176760     0.8982027   -0.4175349    -0.0029428   -0.0171132 
   0.409000000    -0.0027233   -0.0171779     0.8965278   -0.4223087     0.8966230   -0.4221098    -0.0032575   -0.0171643 
   0.413987500    -0.0028980   -0.0173135     0.8943982   -0.4270038     0.8944680   -0.4269746    -0.0033995   -0.0173917 
   0.418975000    -0.0031038   -0.0174885     0.8923954   -0.4318822     0.8919861   -0.4315441    -0.0035652   -0.0177382 
   0.423962500    -0.0032635   -0.0173151     0.8898818   -0.4365785     0.8896098   -0.4366251    -0.0037209   -0.0177905 
   0.428950000    -0.0037840   -0.0174910     0.8875397   -0.4412107     0.8870144   -0.4412173    -0.0041372   -0.0179346 
   0.433937500    -0.0040388   -0.0177229     0.8849365   -0.4461493     0.8843604   -0.4456137    -0.0042915   -0.0181131 
   0.438925000    -0.0042558   -0.0176020     0.8822524   -0.4507461     0.8818135   -0.4504536    -0.0043947   -0.0182599 
   0.443912500    -0.0045937   -0.0177771     0.8795587   -0.4558899     0.8791314   -0.4553978    -0.0045657   -0.0184688 
   0.448900000    -0.0048526   -0.0181237     0.8770316   -0.4604710     0.8768560   -0.4603678    -0.0047896   -0.0184941 
   0.453887500    -0.0052563   -0.0182881     0.8744726   -0.4651959     0.8743873   -0.4645821    -0.0050319   -0.0186550 
   0.458875000    -0.0055110   -0.0185617     0.8719764   -0.4695048     0.8717542   -0.4690890    -0.0052714   -0.0186812 
   0.463862500    -0.0058273   -0.0185466     0.8692896   -0.4739280     0.8690510   -0.4733527    -0.0056364   -0.0189713 
   0.468850000    -0.0062540   -0.0189619     0.8665132   -0.4782988     0.8664455   -0.4779093    -0.0060213   -0.0192298 
   0.473837500    -0.0062825   -0.0193623     0.8638864   -0.4825211     0.8638496   -0.4822724    -0.0060777   -0.0192157 
   0.478825000    -0.0065744   -0.0194476     0.8610384   -0.4869741     0.8609171   -0.4866547    -0.0063399   -0.0193588 
   0.483812500    -0.0067750   -0.0198319     0.8585918   -0.4915102     0.8581733   -0.4911321    -0.0065465   -0.0194116 
   0.488800000    -0.0066560   -0.0200238     0.8558703   -0.4961621     0.8557048   -0.4959161    -0.0066666   -0.0195131 
   0.493787500    -0.0069379   -0.0202004     0.8535872   -0.5006258     0.8535539   -0.5001764    -0.0070483   -0.0194344 
   0.498775000    -0.0069340   -0.0202928     0.8510828   -0.5050149     0.8508189   -0.5046798    -0.0072899   -0.0195518 
   0.503762500    -0.0067687   -0.0204135     0.8487110   -0.5093687     0.8482094   -0.5090009    -0.0073549   -0.0196171 
   0.508750000    -0.0069261   -0.0204224     0.8459242   -0.5136939     0.8455096   -0.5133877    -0.0074991   -0.0196679 
   0.513737500    -0.0069739   -0.0204090     0.8432146   -0.5182104     0.8428614   -0.5178928    -0.0078818   -0.0195351 
   0.518725000    -0.0072257   -0.0204508     0.8402554   -0.5228764     0.8397984   -0.5223736    -0.0082269   -0.0196702 
   0.523712500    -0.0073825   -0.0202436     0.8369868   -0.5275608     0.8368526   -0.5270330    -0.0084219   -0.0197504 
   0.528700000    -0.0075373   -0.0202193     0.8341135   -0.5324416     0.8336493   -0.5319237    -0.0086863   -0.0196806 
   0.533687500    -0.0079376   -0.0200641     0.8313145   -0.5370935     0.8312582   -0.5362710    -0.0088872   -0.0196712 
   0.538675000    -0.0082714   -0.0200350     0.8284483   -0.5414214     0.8283251   -0.5405104    -0.0090059   -0.0196328 
   0.543662500    -0.0084751   -0.0199382     0.8254485   -0.5455770     0.8252283   -0.5447748    -0.0093355   -0.0197214 
   0.548650000    -0.0087249   -0.0198226     0.8222036   -0.5497625     0.8219469   -0.5490025    -0.0094641   -0.0198571 
   0.553637500    -0.0091480   -0.0197771     0.8190765   -0.5538425     0.8189533   -0.5532356    -0.0098706   -0.0199393 
   0.558625000    -0.0097173   -0.0198970     0.8156980   -0.5581901     0.8157774   -0.5574316    -0.0102318   -0.0202494 
   0.563612500    -0.0099900   -0.0200407     0.8124519   -0.5622600     0.8124287   -0.5614794    -0.0103412   -0.0201722 
   0.568600000    -0.0103164   -0.0201358     0.8091734   -0.5666292     0.8091664   -0.5658514    -0.0104730   -0.0201738 
   0.573587500    -0.0107901   -0.0202833     0.8065398   -0.5707390     0.8063098   -0.5703038    -0.0108071   -0.0204335 
   0.578575000    -0.0110728   -0.0204309     0.8036386   -0.5748545     0.8037143   -0.5742067    -0.0109023   -0.0204610 
   0.583562500    -0.0114119   -0.0206706     0.8008376   -0.5787473     0.8010125   -0.5780774    -0.0112408   -0.0206017 
   0.588550000    -0.0118030   -0.0207514     0.7978737   -0.5826380     0.7977259   -0.5819849    -0.0115446   -0.0206663 
   0.593537500    -0.0120737   -0.0211376     0.7944676   -0.5866559     0.7946621   -0.5859569    -0.0115994   -0.0207296 
   0.598525000    -0.0122390   -0.0212238     0.7915151   -0.5907938     0.7915908   -0.5903720    -0.0118492   -0.0209383 
   0.603512500    -0.0125718   -0.0215064     0.7882606   -0.5951290     0.7883605   -0.5947325    -0.0123407   -0.0209946 
   0.608500000    -0.0127966   -0.0216068     0.7850218   -0.5995792     0.7850552   -0.5990120    -0.0126842   -0.0208249 
   0.613487500    -0.0129975   -0.0216777     0.7817959   -0.6038697     0.7819921   -0.6036140    -0.0129192   -0.0209109 
   0.618475000    -0.0130374   -0.0216653     0.7789389   -0.6081891     0.7792049   -0.6078141    -0.0131889   -0.0208030 
   0.623462500    -0.0130924   -0.0217816     0.7757486   -0.6123052     0.7760184   -0.6117306    -0.0135663   -0.0208768 
   0.628450000    -0.0131899   -0.0216639     0.7725224   -0.6162665     0.7724060   -0.6156844    -0.0138338   -0.0210952 
   0.633437500    -0.0132220   -0.0213535     0.7690379   -0.6202471     0.7689578   -0.6199123    -0.0140094   -0.0211652 
   0.638425000    -0.0133721   -0.0214184     0.7653642   -0.6242633     0.7652166   -0.6238554    -0.0142500   -0.0211094 
   0.643412500    -0.0135608   -0.0210877     0.7617922   -0.6282845     0.7616289   -0.6279827    -0.0143287   -0.0210289 
   0.648400000    -0.0136086   -0.0210945     0.7578804   -0.6322739     0.7579483   -0.6320102    -0.0148145   -0.0209449 
   0.653387500    -0.0138697   -0.0208179     0.7545590   -0.6364200     0.7542332   -0.6361936    -0.0150928   -0.0209795 
   0.658375000    -0.0140441   -0.0206411     0.7510614   -0.6403459     0.7511473   -0.6402432    -0.0154818   -0.0211298 
   0.663362500    -0.0145853   -0.0204068     0.7477791   -0.6443387     0.7479594   -0.6437364    -0.0155371   -0.0213174 
   0.668350000    -0.0147038   -0.0204140     0.7444662   -0.6478901     0.7446430   -0.6472204    -0.0159383   -0.0213819 
   0.673337500    -0.0151502   -0.0202151     0.7411326   -0.6515209     0.7409658   -0.6508722    -0.0161495   -0.0215352 
   0.678325000    -0.0157363   -0.0201862     0.7375500   -0.6551358     0.7375779   -0.6547322    -0.0161519   -0.0213576 
   0.683312500    -0.0162024   -0.0200423     0.7339149   -0.6588016     0.7339674   -0.6583511    -0.0163954   -0.0214724 
   0.688300000    -0.0164064   -0.0200314     0.7304193   -0.6627558     0.7302142   -0.6622746    -0.0164536   -0.0215664 
   0.693287500    -0.0168309   -0.0200344     0.7268002   -0.6666576     0.7268144   -0.6663181    -0.0165270   -0.0215718 
   0.698275000    -0.0172049   -0.0199563     0.7235188   -0.6708833     0.7235079   -0.6705782    -0.0167255   -0.0214549 
   0.703262500    -0.0176082   -0.0201672     0.7200593   -0.6747550     0.7204744   -0.6741022    -0.0169856   -0.0212812 
   0.708250000    -0.0179426   -0.0203173     0.7167018   -0.6784893     0.7170022   -0.6779690    -0.0173194   -0.0212119 
   0.713237500    -0.0180209   -0.0204132     0.7133724   -0.6819489     0.7131843   -0.6815909    -0.0172968   -0.0211504 
   0.718225000    -0.0183992   -0.0205236     0.7090970   -0.6857728     0.7091652   -0.6854880    -0.0176604   -0.0209506 
   0.723212500    -0.0186043   -0.0205735     0.7054333   -0.6895872     0.7053996   -0.6894160    -0.0179275   -0.0209969 
   0.728200000    -0.0186558   -0.0204225     0.7013062   -0.6934913     0.7014032   -0.6929666    -0.0181972   -0.0207103 
   0.733187500    -0.0188241   -0.0206737     0.6974688   -0.6972249     0.6971584   -0.6968117    -0.0185746   -0.0205454 
   0.738175000    -0.0190540   -0.0205265     0.6932960   -0.7009534     0.6933482   -0.7005879    -0.0189999   -0.0205175 
   0.743162500    -0.0190142   -0.0204967     0.6896941   -0.7046463     0.6899148   -0.7041128    -0.0191227   -0.0206152 
   0.748150000    -0.0190694   -0.0205313     0.6864117   -0.7079503     0.6863607   -0.7076439    -0.0194515   -0.0205597 
   0.753137500    -0.0192409   -0.0203884     0.6821834   -0.7114426     0.6821929   -0.7104250    -0.0198634   -0.0204968 
   0.758125000    -0.0193015   -0.0202000     0.6783918   -0.7145696     0.6782072   -0.7137861    -0.0202584   -0.0202903 
   0.763112500    -0.0192495   -0.0199612     0.6743878   -0.7178459     0.6744988   -0.7170100    -0.0204076   -0.0201403 
   0.768100000    -0.0195041   -0.0198296     0.6704370   -0.7212381     0.6706280   -0.7205452    -0.0205477   -0.0201560 
   0.773087500    -0.0195546   -0.0195532     0.6668542   -0.7247025     0.6667456   -0.7240427    -0.0207623   -0.0201908 
   0.778075000    -0.0199265   -0.0192491     0.6628741   -0.7281435     0.6631044   -0.7277682    -0.0208747   -0.0199844 
   0.783062500    -0.0201149   -0.0189968     0.6592501   -0.7318959     0.6598959   -0.7314559    -0.0209366   -0.0200584 
   0.788050000    -0.0204102   -0.0187944     0.6558591   -0.7353085     0.6564032   -0.7349701    -0.0210541   -0.0198269 
   0.793037500    -0.0207654   -0.0185562     0.6521716   -0.7387432     0.6522873   -0.7382060    -0.0210829   -0.0196902 
