! 5/5/2016 4:47:31 PM
! C:\ANRITSUVNA\DATA\PSEMI-SP4T-STATE00-C-P4.S2P
! CHANNEL.1
! TR.MEASUREMENT
! CORRECTED.DATA
# GHZ S RI R 50.0
! FREQ.GHZ         S11RE         S11IM         S21RE         S21IM         S12RE         S12IM         S22RE         S22IM         
!; PortSelection: Port_12
   0.010000000     0.0689011   -0.0029824     0.0000092    0.0000200    -0.0000019    0.0000192     0.0367953   -0.0024322 
   0.014987500     0.0684492   -0.0016318     0.0000093    0.0000029     0.0000080   -0.0000038     0.0364023   -0.0013976 
   0.019975000     0.0686090   -0.0021792    -0.0000002    0.0000015    -0.0000058    0.0000102     0.0364870   -0.0018663 
   0.024962500     0.0688505   -0.0028831     0.0000048    0.0000064    -0.0000019    0.0000108     0.0365316   -0.0024700 
   0.029950000     0.0690510   -0.0036149    -0.0000013    0.0000093    -0.0000002    0.0000131     0.0366219   -0.0029029 
   0.034937500     0.0691977   -0.0041914     0.0000035    0.0000155     0.0000029    0.0000139     0.0367076   -0.0035482 
   0.039925000     0.0691846   -0.0050048    -0.0000016    0.0000128    -0.0000054    0.0000165     0.0366845   -0.0039753 
   0.044912500     0.0694026   -0.0057026     0.0000019    0.0000186    -0.0000018    0.0000174     0.0365971   -0.0043835 
   0.049900000     0.0695567   -0.0064198     0.0000035    0.0000195     0.0000023    0.0000201     0.0365827   -0.0049592 
   0.054887500     0.0696122   -0.0073191    -0.0000062    0.0000260    -0.0000019    0.0000221     0.0364804   -0.0054758 
   0.059875000     0.0698361   -0.0080732    -0.0000017    0.0000299    -0.0000002    0.0000219     0.0364390   -0.0060908 
   0.064862500     0.0699474   -0.0089699    -0.0000029    0.0000288     0.0000021    0.0000279     0.0363539   -0.0066491 
   0.069850000     0.0699839   -0.0097447     0.0000042    0.0000306     0.0000075    0.0000294     0.0362936   -0.0072130 
   0.074837500     0.0701217   -0.0104909    -0.0000009    0.0000283    -0.0000031    0.0000265     0.0363546   -0.0079237 
   0.079825000     0.0702813   -0.0113015     0.0000026    0.0000313     0.0000004    0.0000261     0.0362709   -0.0083749 
   0.084812500     0.0703546   -0.0119382     0.0000004    0.0000340     0.0000067    0.0000358     0.0361879   -0.0089631 
   0.089800000     0.0703351   -0.0128814     0.0000017    0.0000386     0.0000068    0.0000385     0.0360022   -0.0095201 
   0.094787500     0.0703307   -0.0136201    -0.0000029    0.0000459    -0.0000033    0.0000423     0.0360182   -0.0101250 
   0.099775000     0.0704239   -0.0143696     0.0000044    0.0000470     0.0000007    0.0000506     0.0359272   -0.0106491 
   0.104762500     0.0702863   -0.0151761     0.0000049    0.0000508     0.0000029    0.0000536     0.0357701   -0.0112457 
   0.109750000     0.0703232   -0.0159734     0.0000047    0.0000466     0.0000004    0.0000488     0.0356658   -0.0119957 
   0.114737500     0.0702406   -0.0167126     0.0000059    0.0000449    -0.0000006    0.0000439     0.0356077   -0.0125188 
   0.119725000     0.0700619   -0.0174069     0.0000040    0.0000529     0.0000039    0.0000510     0.0354817   -0.0130737 
   0.124712500     0.0700225   -0.0183200     0.0000087    0.0000552     0.0000068    0.0000563     0.0352882   -0.0139037 
   0.129700000     0.0700330   -0.0192903     0.0000033    0.0000530     0.0000048    0.0000528     0.0352474   -0.0144665 
   0.134687500     0.0697983   -0.0201163     0.0000070    0.0000608     0.0000057    0.0000543     0.0351014   -0.0150873 
   0.139675000     0.0696880   -0.0208527     0.0000059    0.0000665     0.0000075    0.0000554     0.0349906   -0.0155500 
   0.144662500     0.0696725   -0.0217991     0.0000111    0.0000606     0.0000029    0.0000596     0.0348313   -0.0161410 
   0.149650000     0.0696290   -0.0226911     0.0000065    0.0000674     0.0000125    0.0000565     0.0346529   -0.0167639 
   0.154637500     0.0694445   -0.0236956     0.0000101    0.0000713     0.0000076    0.0000650     0.0345943   -0.0173168 
   0.159625000     0.0693805   -0.0244184     0.0000053    0.0000693     0.0000031    0.0000638     0.0344565   -0.0178502 
   0.164612500     0.0693663   -0.0251942     0.0000057    0.0000743     0.0000086    0.0000726     0.0343964   -0.0182604 
   0.169600000     0.0692583   -0.0262285     0.0000074    0.0000713     0.0000145    0.0000807     0.0342866   -0.0188398 
   0.174587500     0.0692049   -0.0269435     0.0000099    0.0000805     0.0000142    0.0000776     0.0340548   -0.0192617 
   0.179575000     0.0691001   -0.0277188     0.0000142    0.0000833     0.0000187    0.0000830     0.0340469   -0.0197903 
   0.184562500     0.0687702   -0.0285967     0.0000160    0.0000847     0.0000072    0.0000867     0.0337535   -0.0205007 
   0.189550000     0.0685277   -0.0293741     0.0000154    0.0000875     0.0000143    0.0000877     0.0335094   -0.0209112 
   0.194537500     0.0683392   -0.0301203     0.0000214    0.0000824     0.0000158    0.0000908     0.0330720   -0.0213153 
   0.199525000     0.0681334   -0.0309804     0.0000175    0.0000842     0.0000100    0.0000843     0.0327291   -0.0218970 
   0.204512500     0.0678872   -0.0319058     0.0000083    0.0000836     0.0000136    0.0000840     0.0324369   -0.0223523 
   0.209500000     0.0676406   -0.0327075     0.0000160    0.0000855     0.0000111    0.0000821     0.0320896   -0.0230694 
   0.214487500     0.0673241   -0.0334464     0.0000184    0.0000932     0.0000093    0.0000894     0.0317809   -0.0235434 
   0.219475000     0.0670327   -0.0343653     0.0000117    0.0000943     0.0000143    0.0000965     0.0314756   -0.0240748 
   0.224462500     0.0667163   -0.0352881     0.0000197    0.0000998     0.0000148    0.0000917     0.0311933   -0.0247149 
   0.229450000     0.0664701   -0.0360653     0.0000174    0.0000996     0.0000224    0.0000978     0.0308990   -0.0251955 
   0.234437500     0.0660160   -0.0369971     0.0000185    0.0000985     0.0000217    0.0000915     0.0305210   -0.0258109 
   0.239425000     0.0657636   -0.0379307     0.0000262    0.0001052     0.0000188    0.0000973     0.0302634   -0.0262930 
   0.244412500     0.0653999   -0.0388511     0.0000233    0.0001052     0.0000213    0.0001104     0.0298711   -0.0270007 
   0.249400000     0.0651585   -0.0397987     0.0000229    0.0001127     0.0000179    0.0000994     0.0295584   -0.0277439 
   0.254387500     0.0648859   -0.0406588     0.0000197    0.0001095     0.0000253    0.0001090     0.0291931   -0.0282597 
   0.259375000     0.0643968   -0.0415094     0.0000245    0.0001054     0.0000227    0.0001087     0.0289588   -0.0289185 
   0.264362500     0.0641567   -0.0423474     0.0000177    0.0001201     0.0000263    0.0001191     0.0286748   -0.0295744 
   0.269350000     0.0638066   -0.0431972     0.0000201    0.0001188     0.0000288    0.0001179     0.0284464   -0.0300956 
   0.274337500     0.0635294   -0.0440237     0.0000224    0.0001195     0.0000228    0.0001165     0.0280943   -0.0304975 
   0.279325000     0.0631068   -0.0449549     0.0000294    0.0001137     0.0000188    0.0001171     0.0277920   -0.0311046 
   0.284312500     0.0627739   -0.0457731     0.0000242    0.0001202     0.0000240    0.0001160     0.0275328   -0.0318092 
   0.289300000     0.0623009   -0.0466517     0.0000296    0.0001236     0.0000221    0.0001196     0.0271171   -0.0323955 
   0.294287500     0.0619846   -0.0473463     0.0000271    0.0001192     0.0000240    0.0001179     0.0269037   -0.0329957 
   0.299275000     0.0616165   -0.0481352     0.0000318    0.0001181     0.0000230    0.0001104     0.0266415   -0.0335138 
   0.304262500     0.0611050   -0.0489642     0.0000304    0.0001234     0.0000284    0.0001148     0.0262961   -0.0338812 
   0.309250000     0.0606274   -0.0497497     0.0000257    0.0001235     0.0000256    0.0001196     0.0260126   -0.0344258 
   0.314237500     0.0602433   -0.0504997     0.0000231    0.0001248     0.0000259    0.0001224     0.0257271   -0.0348166 
   0.319225000     0.0596232   -0.0514200     0.0000243    0.0001332     0.0000277    0.0001272     0.0253710   -0.0353403 
   0.324212500     0.0591943   -0.0521977     0.0000227    0.0001307     0.0000336    0.0001283     0.0250851   -0.0357219 
   0.329200000     0.0587110   -0.0529390     0.0000303    0.0001319     0.0000223    0.0001318     0.0247283   -0.0361848 
   0.334187500     0.0581914   -0.0537410     0.0000246    0.0001376     0.0000340    0.0001270     0.0243260   -0.0366244 
   0.339175000     0.0577492   -0.0544589     0.0000320    0.0001380     0.0000274    0.0001375     0.0239647   -0.0369362 
   0.344162500     0.0572102   -0.0552234     0.0000334    0.0001485     0.0000324    0.0001433     0.0236026   -0.0374463 
   0.349150000     0.0565975   -0.0559433     0.0000288    0.0001492     0.0000269    0.0001508     0.0231011   -0.0378031 
   0.354137500     0.0560428   -0.0566640     0.0000320    0.0001532     0.0000384    0.0001496     0.0225595   -0.0382227 
   0.359125000     0.0554617   -0.0574259     0.0000359    0.0001596     0.0000294    0.0001551     0.0220176   -0.0384868 
   0.364112500     0.0549215   -0.0582942     0.0000404    0.0001545     0.0000329    0.0001589     0.0215055   -0.0390613 
   0.369100000     0.0543049   -0.0590523     0.0000386    0.0001562     0.0000337    0.0001618     0.0210158   -0.0396507 
   0.374087500     0.0537907   -0.0596658     0.0000421    0.0001560     0.0000429    0.0001591     0.0204821   -0.0401858 
   0.379075000     0.0530771   -0.0604101     0.0000454    0.0001557     0.0000416    0.0001572     0.0199929   -0.0406611 
   0.384062500     0.0523826   -0.0611027     0.0000468    0.0001610     0.0000413    0.0001625     0.0195365   -0.0412162 
   0.389050000     0.0519253   -0.0618197     0.0000467    0.0001608     0.0000421    0.0001653     0.0191174   -0.0417101 
   0.394037500     0.0513354   -0.0623651     0.0000499    0.0001598     0.0000472    0.0001526     0.0186919   -0.0422616 
   0.399025000     0.0506550   -0.0631878     0.0000573    0.0001636     0.0000502    0.0001509     0.0183310   -0.0428867 
   0.404012500     0.0499706   -0.0638526     0.0000506    0.0001691     0.0000548    0.0001552     0.0179198   -0.0434595 
   0.409000000     0.0494229   -0.0644438     0.0000531    0.0001642     0.0000627    0.0001612     0.0175815   -0.0439280 
   0.413987500     0.0486092   -0.0651145     0.0000555    0.0001605     0.0000561    0.0001598     0.0173375   -0.0442860 
   0.418975000     0.0480634   -0.0657815     0.0000625    0.0001601     0.0000632    0.0001569     0.0168891   -0.0447778 
   0.423962500     0.0472678   -0.0662887     0.0000575    0.0001654     0.0000592    0.0001620     0.0165928   -0.0450264 
   0.428950000     0.0465001   -0.0668599     0.0000567    0.0001634     0.0000562    0.0001641     0.0161630   -0.0453787 
   0.433937500     0.0457748   -0.0673585     0.0000600    0.0001595     0.0000586    0.0001658     0.0157262   -0.0457051 
   0.438925000     0.0449798   -0.0679965     0.0000633    0.0001657     0.0000658    0.0001584     0.0154140   -0.0459472 
   0.443912500     0.0442115   -0.0686979     0.0000595    0.0001585     0.0000601    0.0001568     0.0148881   -0.0462404 
   0.448900000     0.0431854   -0.0693367     0.0000625    0.0001577     0.0000657    0.0001561     0.0143855   -0.0465703 
   0.453887500     0.0424901   -0.0698760     0.0000646    0.0001615     0.0000648    0.0001554     0.0139560   -0.0468456 
   0.458875000     0.0417294   -0.0704511     0.0000658    0.0001602     0.0000601    0.0001566     0.0133011   -0.0471795 
   0.463862500     0.0407606   -0.0711122     0.0000731    0.0001551     0.0000629    0.0001556     0.0128162   -0.0475140 
   0.468850000     0.0399753   -0.0718402     0.0000705    0.0001664     0.0000639    0.0001549     0.0122131   -0.0478352 
   0.473837500     0.0393610   -0.0723950     0.0000754    0.0001590     0.0000711    0.0001543     0.0115985   -0.0482721 
   0.478825000     0.0384956   -0.0732208     0.0000746    0.0001653     0.0000789    0.0001566     0.0110043   -0.0486822 
   0.483812500     0.0376748   -0.0737028     0.0000812    0.0001657     0.0000860    0.0001628     0.0105254   -0.0491715 
   0.488800000     0.0369646   -0.0744518     0.0000775    0.0001688     0.0000750    0.0001644     0.0101453   -0.0496668 
   0.493787500     0.0362714   -0.0748946     0.0000870    0.0001756     0.0000895    0.0001655     0.0097844   -0.0500638 
   0.498775000     0.0356800   -0.0755531     0.0000908    0.0001718     0.0000918    0.0001716     0.0092438   -0.0503850 
   0.503762500     0.0349591   -0.0760179     0.0000964    0.0001784     0.0000997    0.0001762     0.0088763   -0.0506922 
   0.508750000     0.0342348   -0.0764262     0.0000886    0.0001757     0.0001008    0.0001818     0.0083789   -0.0509723 
   0.513737500     0.0334587   -0.0768468     0.0000958    0.0001864     0.0001059    0.0001816     0.0080490   -0.0511890 
   0.518725000     0.0327020   -0.0772009     0.0001018    0.0001843     0.0001016    0.0001844     0.0075688   -0.0514602 
   0.523712500     0.0320217   -0.0774847     0.0001071    0.0001830     0.0001034    0.0001894     0.0072495   -0.0517372 
   0.528700000     0.0310885   -0.0778359     0.0001088    0.0001869     0.0001055    0.0001874     0.0067286   -0.0518053 
   0.533687500     0.0302115   -0.0782358     0.0001093    0.0001893     0.0001059    0.0001923     0.0063275   -0.0519272 
   0.538675000     0.0293219   -0.0784013     0.0001105    0.0001940     0.0001072    0.0001843     0.0058101   -0.0519692 
   0.543662500     0.0284701   -0.0787109     0.0001155    0.0001902     0.0001081    0.0001928     0.0052327   -0.0521354 
   0.548650000     0.0274093   -0.0789306     0.0001247    0.0001940     0.0001093    0.0001914     0.0046894   -0.0522411 
   0.553637500     0.0265239   -0.0793540     0.0001144    0.0001916     0.0001137    0.0001907     0.0038870   -0.0522558 
   0.558625000     0.0253596   -0.0795575     0.0001172    0.0001961     0.0001114    0.0001902     0.0031716   -0.0524283 
   0.563612500     0.0244057   -0.0800089     0.0001254    0.0001977     0.0001187    0.0001955     0.0025088   -0.0527055 
   0.568600000     0.0234643   -0.0804457     0.0001230    0.0001987     0.0001206    0.0001988     0.0018317   -0.0529434 
   0.573587500     0.0225423   -0.0806782     0.0001216    0.0002004     0.0001227    0.0001916     0.0011717   -0.0531511 
   0.578575000     0.0215420   -0.0811374     0.0001206    0.0002039     0.0001228    0.0001927     0.0004675   -0.0533365 
   0.583562500     0.0206248   -0.0816102     0.0001258    0.0002027     0.0001245    0.0001957    -0.0001409   -0.0536255 
   0.588550000     0.0197746   -0.0818508     0.0001200    0.0001992     0.0001241    0.0001995    -0.0008000   -0.0538854 
   0.593537500     0.0187478   -0.0822322     0.0001241    0.0002020     0.0001280    0.0002000    -0.0012617   -0.0542105 
   0.598525000     0.0177903   -0.0825524     0.0001242    0.0001972     0.0001272    0.0001981    -0.0018124   -0.0545037 
   0.603512500     0.0168157   -0.0828223     0.0001311    0.0002011     0.0001304    0.0001990    -0.0024260   -0.0546378 
   0.608500000     0.0157803   -0.0831778     0.0001300    0.0001982     0.0001308    0.0002021    -0.0028924   -0.0549125 
   0.613487500     0.0148994   -0.0834764     0.0001335    0.0001986     0.0001361    0.0001992    -0.0034315   -0.0551299 
   0.618475000     0.0139959   -0.0837848     0.0001388    0.0001978     0.0001304    0.0001997    -0.0039548   -0.0553201 
   0.623462500     0.0129927   -0.0840730     0.0001437    0.0001946     0.0001373    0.0001899    -0.0044287   -0.0556043 
   0.628450000     0.0122587   -0.0842478     0.0001452    0.0001897     0.0001457    0.0001933    -0.0047235   -0.0557078 
   0.633437500     0.0112681   -0.0844729     0.0001397    0.0001940     0.0001354    0.0001865    -0.0051268   -0.0556904 
   0.638425000     0.0103509   -0.0845486     0.0001471    0.0001962     0.0001462    0.0001937    -0.0056177   -0.0556697 
   0.643412500     0.0095563   -0.0846141     0.0001516    0.0001932     0.0001537    0.0001938    -0.0061931   -0.0553883 
   0.648400000     0.0085756   -0.0849702     0.0001581    0.0001993     0.0001649    0.0001864    -0.0066969   -0.0553164 
   0.653387500     0.0075223   -0.0850721     0.0001545    0.0001975     0.0001648    0.0001890    -0.0074122   -0.0551547 
   0.658375000     0.0066224   -0.0852258     0.0001698    0.0002022     0.0001648    0.0001904    -0.0081288   -0.0550601 
   0.663362500     0.0056543   -0.0852218     0.0001676    0.0002060     0.0001751    0.0001978    -0.0090175   -0.0550643 
   0.668350000     0.0048182   -0.0854998     0.0001713    0.0002006     0.0001761    0.0002002    -0.0097090   -0.0551339 
   0.673337500     0.0038742   -0.0856294     0.0001754    0.0001996     0.0001825    0.0002004    -0.0104053   -0.0551148 
   0.678325000     0.0028002   -0.0857710     0.0001774    0.0002035     0.0001821    0.0002071    -0.0113050   -0.0551140 
   0.683312500     0.0018061   -0.0857270     0.0001756    0.0002063     0.0001825    0.0002062    -0.0120342   -0.0552001 
   0.688300000     0.0009774   -0.0858962     0.0001875    0.0002084     0.0001818    0.0002061    -0.0128350   -0.0554747 
   0.693287500     0.0000535   -0.0858987     0.0001835    0.0002063     0.0001818    0.0002076    -0.0136979   -0.0555612 
   0.698275000    -0.0008582   -0.0860099     0.0001882    0.0002110     0.0001814    0.0002028    -0.0142769   -0.0557487 
   0.703262500    -0.0019163   -0.0859713     0.0001894    0.0002069     0.0001939    0.0001954    -0.0149685   -0.0558728 
   0.708250000    -0.0027269   -0.0860781     0.0001922    0.0002078     0.0001938    0.0002073    -0.0156273   -0.0559998 
   0.713237500    -0.0035119   -0.0860618     0.0001950    0.0002092     0.0001964    0.0002045    -0.0161999   -0.0562026 
   0.718225000    -0.0047434   -0.0858400     0.0001939    0.0002081     0.0001935    0.0002043    -0.0167248   -0.0563155 
   0.723212500    -0.0056076   -0.0858258     0.0002040    0.0002099     0.0002017    0.0001940    -0.0173938   -0.0564127 
   0.728200000    -0.0063757   -0.0857155     0.0002046    0.0002067     0.0002032    0.0002038    -0.0177788   -0.0564685 
   0.733187500    -0.0074107   -0.0857883     0.0002043    0.0002083     0.0002014    0.0002020    -0.0183610   -0.0562944 
   0.738175000    -0.0083801   -0.0856496     0.0002156    0.0002002     0.0002037    0.0001981    -0.0190271   -0.0563336 
   0.743162500    -0.0095016   -0.0855791     0.0002183    0.0002105     0.0002171    0.0002038    -0.0194931   -0.0563828 
   0.748150000    -0.0103192   -0.0855275     0.0002154    0.0002088     0.0002223    0.0002006    -0.0200222   -0.0563630 
   0.753137500    -0.0111760   -0.0854577     0.0002125    0.0002068     0.0002237    0.0002075    -0.0206048   -0.0561721 
   0.758125000    -0.0122463   -0.0852392     0.0002244    0.0002103     0.0002215    0.0002041    -0.0212994   -0.0559976 
   0.763112500    -0.0130602   -0.0851250     0.0002270    0.0002059     0.0002258    0.0002052    -0.0218378   -0.0559411 
   0.768100000    -0.0140187   -0.0850683     0.0002195    0.0002108     0.0002317    0.0002108    -0.0226029   -0.0557292 
   0.773087500    -0.0149593   -0.0849430     0.0002279    0.0002056     0.0002257    0.0002107    -0.0233485   -0.0556368 
   0.778075000    -0.0159719   -0.0846832     0.0002270    0.0002110     0.0002338    0.0002003    -0.0239436   -0.0554968 
   0.783062500    -0.0168968   -0.0843732     0.0002353    0.0002147     0.0002357    0.0002044    -0.0246614   -0.0555338 
   0.788050000    -0.0177147   -0.0841925     0.0002364    0.0002129     0.0002394    0.0002066    -0.0253449   -0.0554732 
   0.793037500    -0.0187412   -0.0841396     0.0002504    0.0002094     0.0002355    0.0002063    -0.0259540   -0.0552500 
