! 5/5/2016 4:50:36 PM
! C:\ANRITSUVNA\DATA\PSEMI-SP4T-STATE01-C-P2.S2P
! CHANNEL.1
! TR.MEASUREMENT
! CORRECTED.DATA
# GHZ S RI R 50.0
! FREQ.GHZ         S11RE         S11IM         S21RE         S21IM         S12RE         S12IM         S22RE         S22IM         
!; PortSelection: Port_12
   0.010000000     0.0735275   -0.0034197     0.9180480   -0.0164342     0.9175920   -0.0162832     0.0744591   -0.0042504 
   0.014987500     0.0728792   -0.0019839     0.9170846   -0.0201875     0.9165397   -0.0202588     0.0735540   -0.0018821 
   0.019975000     0.0731772   -0.0026791     0.9166678   -0.0265989     0.9162561   -0.0264697     0.0737271   -0.0025900 
   0.024962500     0.0733637   -0.0035049     0.9160965   -0.0329594     0.9159769   -0.0326308     0.0738139   -0.0035174 
   0.029950000     0.0735373   -0.0042570     0.9155216   -0.0391754     0.9153614   -0.0389484     0.0739832   -0.0041575 
   0.034937500     0.0735421   -0.0048677     0.9151732   -0.0453258     0.9149080   -0.0452490     0.0740129   -0.0048316 
   0.039925000     0.0736580   -0.0058775     0.9146986   -0.0516168     0.9143290   -0.0515052     0.0738123   -0.0057730 
   0.044912500     0.0737964   -0.0066190     0.9142598   -0.0578389     0.9140157   -0.0576546     0.0739687   -0.0066204 
   0.049900000     0.0738138   -0.0075507     0.9134608   -0.0642245     0.9132879   -0.0639985     0.0739651   -0.0074283 
   0.054887500     0.0740665   -0.0082933     0.9131479   -0.0703608     0.9126825   -0.0702252     0.0740513   -0.0081901 
   0.059875000     0.0740319   -0.0091703     0.9122096   -0.0764067     0.9121444   -0.0764248     0.0740478   -0.0090933 
   0.064862500     0.0740552   -0.0100374     0.9116880   -0.0826928     0.9113368   -0.0826188     0.0739136   -0.0099748 
   0.069850000     0.0739671   -0.0108765     0.9107367   -0.0889720     0.9106553   -0.0888029     0.0739630   -0.0109836 
   0.074837500     0.0739556   -0.0118566     0.9099811   -0.0951038     0.9097192   -0.0951632     0.0739792   -0.0118791 
   0.079825000     0.0740479   -0.0127175     0.9091197   -0.1012746     0.9091837   -0.1010132     0.0739367   -0.0128680 
   0.084812500     0.0740168   -0.0134352     0.9083267   -0.1071871     0.9081383   -0.1072633     0.0739263   -0.0136790 
   0.089800000     0.0739633   -0.0145233     0.9071355   -0.1135208     0.9070719   -0.1134148     0.0739143   -0.0146694 
   0.094787500     0.0737613   -0.0154423     0.9063615   -0.1194822     0.9061000   -0.1194844     0.0738480   -0.0157103 
   0.099775000     0.0737060   -0.0163345     0.9053136   -0.1254449     0.9051147   -0.1253413     0.0737749   -0.0165973 
   0.104762500     0.0735742   -0.0173207     0.9044957   -0.1316388     0.9042780   -0.1314361     0.0735786   -0.0176171 
   0.109750000     0.0734095   -0.0182608     0.9031776   -0.1376505     0.9032178   -0.1375416     0.0734433   -0.0185682 
   0.114737500     0.0731372   -0.0190704     0.9023526   -0.1437944     0.9021029   -0.1436338     0.0732293   -0.0193763 
   0.119725000     0.0730211   -0.0200798     0.9012956   -0.1497641     0.9010190   -0.1494319     0.0730763   -0.0203730 
   0.124712500     0.0727831   -0.0210417     0.9001004   -0.1557788     0.9000244   -0.1555787     0.0729381   -0.0214090 
   0.129700000     0.0726090   -0.0220418     0.8989303   -0.1617945     0.8988075   -0.1614401     0.0726542   -0.0224283 
   0.134687500     0.0723028   -0.0230635     0.8976267   -0.1678278     0.8975756   -0.1675592     0.0724018   -0.0234089 
   0.139675000     0.0722254   -0.0240552     0.8964878   -0.1737804     0.8961729   -0.1735372     0.0723261   -0.0243314 
   0.144662500     0.0720982   -0.0249049     0.8950731   -0.1797991     0.8949191   -0.1793588     0.0721657   -0.0252566 
   0.149650000     0.0719513   -0.0260059     0.8938572   -0.1859148     0.8933465   -0.1853451     0.0719506   -0.0262217 
   0.154637500     0.0717271   -0.0269720     0.8921883   -0.1919270     0.8922005   -0.1917192     0.0717547   -0.0272343 
   0.159625000     0.0715608   -0.0277533     0.8908625   -0.1980616     0.8907009   -0.1976635     0.0715737   -0.0281424 
   0.164612500     0.0713654   -0.0286426     0.8894949   -0.2039159     0.8891903   -0.2035492     0.0715010   -0.0288658 
   0.169600000     0.0711159   -0.0295749     0.8879341   -0.2096237     0.8878539   -0.2093250     0.0712275   -0.0297288 
   0.174587500     0.0708844   -0.0303587     0.8862962   -0.2155552     0.8861055   -0.2155208     0.0711288   -0.0306660 
   0.179575000     0.0706909   -0.0310811     0.8847712   -0.2214182     0.8846428   -0.2212118     0.0709390   -0.0314040 
   0.184562500     0.0702515   -0.0318660     0.8830349   -0.2272703     0.8827590   -0.2271239     0.0705416   -0.0322295 
   0.189550000     0.0698122   -0.0326253     0.8812492   -0.2330903     0.8812506   -0.2329746     0.0702404   -0.0330232 
   0.194537500     0.0694748   -0.0334276     0.8794589   -0.2390589     0.8794401   -0.2390118     0.0697438   -0.0338950 
   0.199525000     0.0691627   -0.0343017     0.8777428   -0.2449867     0.8776714   -0.2448447     0.0694632   -0.0347811 
   0.204512500     0.0687539   -0.0351237     0.8762594   -0.2506454     0.8760395   -0.2505690     0.0689379   -0.0356764 
   0.209500000     0.0684855   -0.0359748     0.8743186   -0.2562446     0.8744018   -0.2562205     0.0685951   -0.0365680 
   0.214487500     0.0681269   -0.0367793     0.8724897   -0.2621488     0.8722459   -0.2620375     0.0682425   -0.0374624 
   0.219475000     0.0677243   -0.0376245     0.8706132   -0.2678505     0.8705134   -0.2677931     0.0677351   -0.0383779 
   0.224462500     0.0674473   -0.0386905     0.8688350   -0.2735667     0.8685721   -0.2732596     0.0673387   -0.0392634 
   0.229450000     0.0671596   -0.0396387     0.8667907   -0.2792240     0.8668137   -0.2791395     0.0668543   -0.0400789 
   0.234437500     0.0666578   -0.0406856     0.8648723   -0.2851433     0.8645775   -0.2848206     0.0662415   -0.0410827 
   0.239425000     0.0662169   -0.0417620     0.8630175   -0.2910637     0.8625985   -0.2908789     0.0657868   -0.0420361 
   0.244412500     0.0658894   -0.0428543     0.8610834   -0.2968100     0.8609859   -0.2964798     0.0653787   -0.0429446 
   0.249400000     0.0655379   -0.0438958     0.8589807   -0.3022600     0.8589995   -0.3022167     0.0648915   -0.0439556 
   0.254387500     0.0650631   -0.0448717     0.8568013   -0.3080543     0.8565742   -0.3077599     0.0644501   -0.0448362 
   0.259375000     0.0645631   -0.0457032     0.8547907   -0.3138793     0.8543594   -0.3135772     0.0639453   -0.0456487 
   0.264362500     0.0639171   -0.0466302     0.8525293   -0.3193035     0.8525094   -0.3191194     0.0634542   -0.0465726 
   0.269350000     0.0633692   -0.0473923     0.8499637   -0.3252600     0.8497556   -0.3250383     0.0630413   -0.0473873 
   0.274337500     0.0628258   -0.0482324     0.8477052   -0.3308740     0.8475317   -0.3306057     0.0625157   -0.0483199 
   0.279325000     0.0622244   -0.0489681     0.8450887   -0.3368575     0.8449929   -0.3367270     0.0621872   -0.0494400 
   0.284312500     0.0615093   -0.0497217     0.8427437   -0.3423758     0.8426352   -0.3422306     0.0616452   -0.0503412 
   0.289300000     0.0609041   -0.0502539     0.8405009   -0.3478976     0.8402187   -0.3478468     0.0612103   -0.0512839 
   0.294287500     0.0602962   -0.0507123     0.8379222   -0.3533061     0.8378337   -0.3531443     0.0608230   -0.0520445 
   0.299275000     0.0595982   -0.0512659     0.8352342   -0.3585936     0.8348457   -0.3586616     0.0605063   -0.0528825 
   0.304262500     0.0589739   -0.0518980     0.8326325   -0.3639557     0.8325869   -0.3639151     0.0598399   -0.0538717 
   0.309250000     0.0586332   -0.0525337     0.8299400   -0.3693270     0.8297598   -0.3693867     0.0594884   -0.0546058 
   0.314237500     0.0581428   -0.0530665     0.8272582   -0.3746180     0.8271871   -0.3746894     0.0591238   -0.0554141 
   0.319225000     0.0574855   -0.0537691     0.8247619   -0.3800488     0.8242306   -0.3802819     0.0585574   -0.0562111 
   0.324212500     0.0572097   -0.0544481     0.8222338   -0.3853863     0.8219288   -0.3855785     0.0580808   -0.0570704 
   0.329200000     0.0566558   -0.0552533     0.8199952   -0.3907933     0.8196931   -0.3907945     0.0577213   -0.0576420 
   0.334187500     0.0562632   -0.0560226     0.8173445   -0.3958894     0.8170182   -0.3960111     0.0572910   -0.0583306 
   0.339175000     0.0558554   -0.0567587     0.8150226   -0.4012648     0.8142822   -0.4012431     0.0566862   -0.0587879 
   0.344162500     0.0553495   -0.0575542     0.8124073   -0.4068407     0.8118446   -0.4067174     0.0559240   -0.0594437 
   0.349150000     0.0547278   -0.0585070     0.8095297   -0.4122668     0.8090478   -0.4119111     0.0551338   -0.0599976 
   0.354137500     0.0542237   -0.0592212     0.8066759   -0.4176597     0.8061163   -0.4174109     0.0544997   -0.0604612 
   0.359125000     0.0535944   -0.0600004     0.8035997   -0.4236749     0.8028940   -0.4229038     0.0537621   -0.0611037 
   0.364112500     0.0528810   -0.0608947     0.8006304   -0.4293366     0.8003412   -0.4288049     0.0528937   -0.0617756 
   0.369100000     0.0523201   -0.0614829     0.7976798   -0.4347981     0.7976459   -0.4339992     0.0523530   -0.0623919 
   0.374087500     0.0514543   -0.0619851     0.7945945   -0.4398888     0.7943140   -0.4393722     0.0517798   -0.0631278 
   0.379075000     0.0506204   -0.0626101     0.7912347   -0.4450639     0.7911403   -0.4443716     0.0509452   -0.0639366 
   0.384062500     0.0499309   -0.0632059     0.7876780   -0.4500023     0.7877902   -0.4495023     0.0502587   -0.0647769 
   0.389050000     0.0492123   -0.0636730     0.7844837   -0.4549685     0.7847847   -0.4546066     0.0495505   -0.0655067 
   0.394037500     0.0483446   -0.0639800     0.7808630   -0.4596493     0.7811623   -0.4595406     0.0489481   -0.0663544 
   0.399025000     0.0476801   -0.0643107     0.7776366   -0.4644995     0.7778118   -0.4645870     0.0483951   -0.0673203 
   0.404012500     0.0470051   -0.0646399     0.7744985   -0.4696424     0.7744884   -0.4697761     0.0479021   -0.0682984 
   0.409000000     0.0460510   -0.0652428     0.7717925   -0.4743768     0.7719104   -0.4746563     0.0472422   -0.0691860 
   0.413987500     0.0454964   -0.0655770     0.7689542   -0.4789854     0.7690149   -0.4795338     0.0466460   -0.0700203 
   0.418975000     0.0447547   -0.0660984     0.7662759   -0.4839256     0.7658483   -0.4844537     0.0462222   -0.0707943 
   0.423962500     0.0440582   -0.0664169     0.7634272   -0.4889268     0.7626051   -0.4896808     0.0456283   -0.0715311 
   0.428950000     0.0431188   -0.0669534     0.7601842   -0.4939039     0.7595224   -0.4944275     0.0447639   -0.0720546 
   0.433937500     0.0422293   -0.0674594     0.7569200   -0.4992979     0.7560087   -0.4995664     0.0440887   -0.0725759 
   0.438925000     0.0414000   -0.0679951     0.7536381   -0.5046280     0.7526354   -0.5047504     0.0434110   -0.0729996 
   0.443912500     0.0407430   -0.0685425     0.7500743   -0.5103913     0.7491144   -0.5104172     0.0425879   -0.0736106 
   0.448900000     0.0397041   -0.0694063     0.7464446   -0.5157154     0.7455892   -0.5156523     0.0417311   -0.0740545 
   0.453887500     0.0389558   -0.0700785     0.7427733   -0.5209144     0.7420321   -0.5206152     0.0410710   -0.0742900 
   0.458875000     0.0379307   -0.0708832     0.7390856   -0.5259959     0.7380726   -0.5253943     0.0400154   -0.0747354 
   0.463862500     0.0371363   -0.0713811     0.7349859   -0.5306388     0.7342876   -0.5301916     0.0391774   -0.0752721 
   0.468850000     0.0362579   -0.0721205     0.7308095   -0.5354003     0.7303721   -0.5348151     0.0381936   -0.0757644 
   0.473837500     0.0353365   -0.0727541     0.7266288   -0.5399239     0.7263245   -0.5391480     0.0371940   -0.0761967 
   0.478825000     0.0344081   -0.0732477     0.7225237   -0.5442149     0.7219991   -0.5436341     0.0363403   -0.0767396 
   0.483812500     0.0335169   -0.0738198     0.7185780   -0.5484964     0.7179418   -0.5482111     0.0354790   -0.0773353 
   0.488800000     0.0330759   -0.0742971     0.7147651   -0.5529937     0.7142972   -0.5526971     0.0347690   -0.0780747 
   0.493787500     0.0323173   -0.0745227     0.7114772   -0.5572444     0.7111663   -0.5569269     0.0339314   -0.0784656 
   0.498775000     0.0319652   -0.0748261     0.7082545   -0.5613351     0.7076525   -0.5611453     0.0333493   -0.0791519 
   0.503762500     0.0313118   -0.0751738     0.7051212   -0.5654100     0.7041861   -0.5652411     0.0327282   -0.0798025 
   0.508750000     0.0306846   -0.0753522     0.7016090   -0.5697635     0.7006329   -0.5695364     0.0320619   -0.0803627 
   0.513737500     0.0301464   -0.0753319     0.6984254   -0.5744796     0.6972825   -0.5740932     0.0311796   -0.0807679 
   0.518725000     0.0291996   -0.0756192     0.6948437   -0.5791376     0.6935343   -0.5788346     0.0302157   -0.0813340 
   0.523712500     0.0286012   -0.0755994     0.6909356   -0.5842181     0.6896437   -0.5837818     0.0295968   -0.0816240 
   0.528700000     0.0277625   -0.0759811     0.6870543   -0.5896508     0.6857529   -0.5890633     0.0288723   -0.0819271 
   0.533687500     0.0269797   -0.0761770     0.6833813   -0.5947309     0.6822332   -0.5938662     0.0280017   -0.0822123 
   0.538675000     0.0260407   -0.0762483     0.6793846   -0.5996624     0.6781774   -0.5986742     0.0273574   -0.0823480 
   0.543662500     0.0251056   -0.0765345     0.6749030   -0.6042729     0.6739974   -0.6032473     0.0263090   -0.0827386 
   0.548650000     0.0242675   -0.0768779     0.6704075   -0.6089328     0.6692282   -0.6077596     0.0256490   -0.0830598 
   0.553637500     0.0233222   -0.0771759     0.6654814   -0.6132505     0.6648890   -0.6120781     0.0245794   -0.0830998 
   0.558625000     0.0220082   -0.0775821     0.6605486   -0.6174660     0.6601721   -0.6162627     0.0234010   -0.0837862 
   0.563612500     0.0209529   -0.0781927     0.6556413   -0.6216401     0.6552442   -0.6203191     0.0225373   -0.0839548 
   0.568600000     0.0199577   -0.0786378     0.6510625   -0.6258827     0.6506665   -0.6245901     0.0217429   -0.0842472 
   0.573587500     0.0188636   -0.0789410     0.6467945   -0.6295697     0.6465893   -0.6287041     0.0205282   -0.0846290 
   0.578575000     0.0178857   -0.0793226     0.6426240   -0.6332566     0.6425183   -0.6320978     0.0197437   -0.0849317 
   0.583562500     0.0171045   -0.0796680     0.6387996   -0.6366671     0.6386831   -0.6356135     0.0186920   -0.0854056 
   0.588550000     0.0162241   -0.0798577     0.6348423   -0.6400220     0.6346151   -0.6390531     0.0178850   -0.0857804 
   0.593537500     0.0154135   -0.0801288     0.6305515   -0.6437320     0.6307842   -0.6426893     0.0171555   -0.0862100 
   0.598525000     0.0146309   -0.0802965     0.6267797   -0.6475427     0.6268393   -0.6467592     0.0161189   -0.0868098 
   0.603512500     0.0139373   -0.0804872     0.6225477   -0.6519386     0.6227030   -0.6507970     0.0152789   -0.0871132 
   0.608500000     0.0131082   -0.0806506     0.6187369   -0.6561858     0.6186199   -0.6552483     0.0143450   -0.0874014 
   0.613487500     0.0123466   -0.0807448     0.6144641   -0.6606365     0.6148835   -0.6599188     0.0135397   -0.0879563 
   0.618475000     0.0119673   -0.0808992     0.6106498   -0.6651937     0.6111084   -0.6644914     0.0127920   -0.0882683 
   0.623462500     0.0113438   -0.0810157     0.6066180   -0.6693975     0.6069682   -0.6686789     0.0120239   -0.0885963 
   0.628450000     0.0107381   -0.0809441     0.6021098   -0.6735811     0.6020685   -0.6729710     0.0112956   -0.0887551 
   0.633437500     0.0100576   -0.0808456     0.5972115   -0.6779287     0.5973979   -0.6771865     0.0105072   -0.0888258 
   0.638425000     0.0093245   -0.0809669     0.5921220   -0.6820085     0.5921670   -0.6813064     0.0097784   -0.0890053 
   0.643412500     0.0085699   -0.0810745     0.5872008   -0.6859366     0.5870681   -0.6854252     0.0089858   -0.0891649 
   0.648400000     0.0077472   -0.0814759     0.5817726   -0.6896945     0.5816383   -0.6894146     0.0079846   -0.0891949 
   0.653387500     0.0067979   -0.0814304     0.5768179   -0.6934784     0.5765494   -0.6933941     0.0069077   -0.0891167 
   0.658375000     0.0058997   -0.0815696     0.5720934   -0.6972188     0.5719637   -0.6969733     0.0057069   -0.0891418 
   0.663362500     0.0046973   -0.0815301     0.5675238   -0.7005691     0.5674758   -0.7000547     0.0047001   -0.0891788 
   0.668350000     0.0038801   -0.0818790     0.5628197   -0.7036178     0.5625691   -0.7029225     0.0035392   -0.0893017 
   0.673337500     0.0029185   -0.0819220     0.5582762   -0.7068412     0.5578659   -0.7061146     0.0025899   -0.0892468 
   0.678325000     0.0015775   -0.0820635     0.5534564   -0.7098681     0.5531727   -0.7092676     0.0015146   -0.0890760 
   0.683312500     0.0005412   -0.0820638     0.5488272   -0.7131714     0.5486718   -0.7125530     0.0003380   -0.0892699 
   0.688300000    -0.0001955   -0.0822005     0.5443424   -0.7166263     0.5439442   -0.7159088    -0.0007378   -0.0895503 
   0.693287500    -0.0011474   -0.0822658     0.5398157   -0.7203876     0.5397403   -0.7197927    -0.0015737   -0.0896156 
   0.698275000    -0.0020403   -0.0822062     0.5354481   -0.7243249     0.5355332   -0.7238609    -0.0025392   -0.0896140 
   0.703262500    -0.0029848   -0.0823338     0.5310676   -0.7279330     0.5315123   -0.7272654    -0.0034568   -0.0897460 
   0.708250000    -0.0036988   -0.0824071     0.5264088   -0.7315761     0.5266148   -0.7308829    -0.0044127   -0.0897986 
   0.713237500    -0.0043092   -0.0824241     0.5217916   -0.7350128     0.5217765   -0.7347072    -0.0049892   -0.0900583 
   0.718225000    -0.0053026   -0.0823574     0.5163996   -0.7385386     0.5166017   -0.7383199    -0.0059735   -0.0900151 
   0.723212500    -0.0060051   -0.0822093     0.5111443   -0.7423778     0.5112420   -0.7421288    -0.0067380   -0.0902129 
   0.728200000    -0.0065814   -0.0821759     0.5057457   -0.7457001     0.5056573   -0.7455731    -0.0074935   -0.0902565 
   0.733187500    -0.0074807   -0.0823627     0.5004027   -0.7493697     0.5000916   -0.7488912    -0.0083709   -0.0904598 
   0.738175000    -0.0083751   -0.0820781     0.4948691   -0.7525740     0.4946139   -0.7523316    -0.0094870   -0.0904923 
   0.743162500    -0.0090827   -0.0821134     0.4898537   -0.7559063     0.4896924   -0.7553662    -0.0102469   -0.0907064 
   0.748150000    -0.0098882   -0.0822264     0.4850084   -0.7588784     0.4846149   -0.7580523    -0.0111265   -0.0908357 
   0.753137500    -0.0107631   -0.0818754     0.4796331   -0.7614465     0.4790465   -0.7603387    -0.0119072   -0.0907782 
   0.758125000    -0.0117261   -0.0817235     0.4745458   -0.7638888     0.4741213   -0.7629141    -0.0130978   -0.0904763 
   0.763112500    -0.0124549   -0.0813989     0.4691526   -0.7667050     0.4690362   -0.7654068    -0.0140781   -0.0904435 
   0.768100000    -0.0134296   -0.0814036     0.4642010   -0.7693520     0.4638588   -0.7681381    -0.0150423   -0.0902644 
   0.773087500    -0.0143253   -0.0811706     0.4592975   -0.7721455     0.4590022   -0.7710754    -0.0160104   -0.0902322 
   0.778075000    -0.0153550   -0.0806667     0.4543003   -0.7750952     0.4544673   -0.7742043    -0.0170737   -0.0898852 
   0.783062500    -0.0161756   -0.0804513     0.4496096   -0.7781513     0.4500580   -0.7773654    -0.0180925   -0.0899580 
   0.788050000    -0.0169765   -0.0800317     0.4451266   -0.7812621     0.4455743   -0.7802857    -0.0190101   -0.0896006 
   0.793037500    -0.0179366   -0.0799896     0.4402775   -0.7840223     0.4403767   -0.7834373    -0.0198933   -0.0895289 
