! 5/5/2016 4:49:25 PM
! C:\ANRITSUVNA\DATA\PSEMI-SP4T-STATE01-C-P4.S2P
! CHANNEL.1
! TR.MEASUREMENT
! CORRECTED.DATA
# GHZ S RI R 50.0
! FREQ.GHZ         S11RE         S11IM         S21RE         S21IM         S12RE         S12IM         S22RE         S22IM         
!; PortSelection: Port_12
   0.010000000     0.0653172   -0.0027332    -0.0000089   -0.0000190     0.0000071   -0.0000026     0.0361209   -0.0023943 
   0.014987500     0.0648167   -0.0014698     0.0000007    0.0000142     0.0000274   -0.0000064     0.0357175   -0.0014112 
   0.019975000     0.0650954   -0.0019524     0.0000009    0.0000043    -0.0000009    0.0000063     0.0358117   -0.0019127 
   0.024962500     0.0652468   -0.0026476    -0.0000021    0.0000054     0.0000001    0.0000075     0.0358662   -0.0025324 
   0.029950000     0.0654895   -0.0033449    -0.0000048   -0.0000017    -0.0000018   -0.0000057     0.0359560   -0.0029245 
   0.034937500     0.0656351   -0.0039207    -0.0000013    0.0000010    -0.0000083    0.0000015     0.0359788   -0.0036113 
   0.039925000     0.0656579   -0.0046380    -0.0000035   -0.0000013    -0.0000075   -0.0000026     0.0360281   -0.0040518 
   0.044912500     0.0658570   -0.0052822    -0.0000029   -0.0000031    -0.0000041    0.0000046     0.0359974   -0.0044609 
   0.049900000     0.0659803   -0.0059667    -0.0000070   -0.0000053    -0.0000069   -0.0000007     0.0359651   -0.0050278 
   0.054887500     0.0660645   -0.0067407    -0.0000067   -0.0000046    -0.0000060   -0.0000021     0.0359416   -0.0054860 
   0.059875000     0.0662866   -0.0074476    -0.0000013    0.0000079    -0.0000119   -0.0000023     0.0357775   -0.0061858 
   0.064862500     0.0663602   -0.0083104    -0.0000072    0.0000006    -0.0000036    0.0000040     0.0357935   -0.0067091 
   0.069850000     0.0663962   -0.0090274    -0.0000076    0.0000035    -0.0000035    0.0000042     0.0356896   -0.0072947 
   0.074837500     0.0664840   -0.0098265    -0.0000112    0.0000073    -0.0000122    0.0000052     0.0357062   -0.0079180 
   0.079825000     0.0667029   -0.0104517    -0.0000110    0.0000145    -0.0000064    0.0000078     0.0356440   -0.0084334 
   0.084812500     0.0667507   -0.0110853    -0.0000146    0.0000083    -0.0000127    0.0000121     0.0355327   -0.0090169 
   0.089800000     0.0667806   -0.0119321    -0.0000105    0.0000091    -0.0000146    0.0000084     0.0354294   -0.0095873 
   0.094787500     0.0667331   -0.0126095    -0.0000164    0.0000176    -0.0000143    0.0000205     0.0354186   -0.0102243 
   0.099775000     0.0668506   -0.0132951    -0.0000104    0.0000173    -0.0000158    0.0000175     0.0352989   -0.0107658 
   0.104762500     0.0666991   -0.0140914    -0.0000109    0.0000206    -0.0000142    0.0000213     0.0350940   -0.0112730 
   0.109750000     0.0666795   -0.0148379    -0.0000125    0.0000078    -0.0000156    0.0000183     0.0351015   -0.0120492 
   0.114737500     0.0666498   -0.0155277    -0.0000156    0.0000200    -0.0000220    0.0000165     0.0349686   -0.0126220 
   0.119725000     0.0664971   -0.0161752    -0.0000134    0.0000155    -0.0000192    0.0000227     0.0348559   -0.0132226 
   0.124712500     0.0665171   -0.0169830    -0.0000168    0.0000043    -0.0000224    0.0000173     0.0346798   -0.0140045 
   0.129700000     0.0664710   -0.0179176    -0.0000173    0.0000142    -0.0000213    0.0000124     0.0345852   -0.0145718 
   0.134687500     0.0662587   -0.0186703    -0.0000181    0.0000176    -0.0000237    0.0000171     0.0344729   -0.0152422 
   0.139675000     0.0662075   -0.0193918    -0.0000222    0.0000218    -0.0000195    0.0000138     0.0343696   -0.0157184 
   0.144662500     0.0660993   -0.0202654    -0.0000188    0.0000200    -0.0000189    0.0000202     0.0342251   -0.0162650 
   0.149650000     0.0660440   -0.0210974    -0.0000267    0.0000261    -0.0000193    0.0000203     0.0340186   -0.0169469 
   0.154637500     0.0659804   -0.0219978    -0.0000239    0.0000212    -0.0000191    0.0000250     0.0340408   -0.0175142 
   0.159625000     0.0659905   -0.0226608    -0.0000203    0.0000280    -0.0000173    0.0000342     0.0339484   -0.0180027 
   0.164612500     0.0659756   -0.0234247    -0.0000280    0.0000343    -0.0000243    0.0000371     0.0339265   -0.0184660 
   0.169600000     0.0658338   -0.0244413    -0.0000235    0.0000373    -0.0000219    0.0000299     0.0336955   -0.0190770 
   0.174587500     0.0657839   -0.0251006    -0.0000214    0.0000357    -0.0000186    0.0000382     0.0335042   -0.0195247 
   0.179575000     0.0657098   -0.0257603    -0.0000240    0.0000382    -0.0000214    0.0000413     0.0334436   -0.0200488 
   0.184562500     0.0654325   -0.0265912    -0.0000263    0.0000374    -0.0000236    0.0000388     0.0331970   -0.0207688 
   0.189550000     0.0652159   -0.0272631    -0.0000235    0.0000328    -0.0000284    0.0000385     0.0330456   -0.0211345 
   0.194537500     0.0650155   -0.0279318    -0.0000204    0.0000303    -0.0000235    0.0000371     0.0326689   -0.0216231 
   0.199525000     0.0649130   -0.0287670    -0.0000321    0.0000347    -0.0000326    0.0000344     0.0322386   -0.0221356 
   0.204512500     0.0646551   -0.0296038    -0.0000279    0.0000477    -0.0000226    0.0000415     0.0320296   -0.0227369 
   0.209500000     0.0645122   -0.0304037    -0.0000337    0.0000435    -0.0000331    0.0000398     0.0317261   -0.0233893 
   0.214487500     0.0641897   -0.0310847    -0.0000288    0.0000345    -0.0000371    0.0000436     0.0313849   -0.0239598 
   0.219475000     0.0638793   -0.0318472    -0.0000321    0.0000509    -0.0000304    0.0000451     0.0311338   -0.0243906 
   0.224462500     0.0635611   -0.0326899    -0.0000246    0.0000487    -0.0000281    0.0000428     0.0308374   -0.0250532 
   0.229450000     0.0634139   -0.0334560    -0.0000299    0.0000470    -0.0000285    0.0000436     0.0305715   -0.0255071 
   0.234437500     0.0630541   -0.0342899    -0.0000306    0.0000443    -0.0000265    0.0000412     0.0302110   -0.0261920 
   0.239425000     0.0628764   -0.0352180    -0.0000272    0.0000519    -0.0000303    0.0000460     0.0299882   -0.0267031 
   0.244412500     0.0625083   -0.0359423    -0.0000289    0.0000537    -0.0000292    0.0000518     0.0296502   -0.0273910 
   0.249400000     0.0622621   -0.0368338    -0.0000248    0.0000609    -0.0000301    0.0000587     0.0293711   -0.0280884 
   0.254387500     0.0620958   -0.0376654    -0.0000297    0.0000608    -0.0000256    0.0000556     0.0290335   -0.0286475 
   0.259375000     0.0616884   -0.0384354    -0.0000271    0.0000684    -0.0000304    0.0000650     0.0288513   -0.0292828 
   0.264362500     0.0614576   -0.0392252    -0.0000273    0.0000638    -0.0000337    0.0000665     0.0285906   -0.0299766 
   0.269350000     0.0611800   -0.0399974    -0.0000314    0.0000704    -0.0000267    0.0000666     0.0283973   -0.0304883 
   0.274337500     0.0609405   -0.0407683    -0.0000271    0.0000643    -0.0000329    0.0000684     0.0280421   -0.0308857 
   0.279325000     0.0605975   -0.0415677    -0.0000281    0.0000632    -0.0000334    0.0000688     0.0278490   -0.0314735 
   0.284312500     0.0603500   -0.0423271    -0.0000343    0.0000574    -0.0000326    0.0000697     0.0275537   -0.0321421 
   0.289300000     0.0599261   -0.0431235    -0.0000334    0.0000612    -0.0000326    0.0000674     0.0271759   -0.0327753 
   0.294287500     0.0596258   -0.0437602    -0.0000314    0.0000628    -0.0000349    0.0000631     0.0269802   -0.0332930 
   0.299275000     0.0593932   -0.0445197    -0.0000365    0.0000630    -0.0000403    0.0000643     0.0267783   -0.0338439 
   0.304262500     0.0589574   -0.0452832    -0.0000389    0.0000640    -0.0000414    0.0000657     0.0264410   -0.0342419 
   0.309250000     0.0585318   -0.0459729    -0.0000434    0.0000710    -0.0000415    0.0000632     0.0262338   -0.0347884 
   0.314237500     0.0581861   -0.0466701    -0.0000418    0.0000686    -0.0000350    0.0000696     0.0259780   -0.0351759 
   0.319225000     0.0576540   -0.0473661    -0.0000413    0.0000693    -0.0000410    0.0000687     0.0255815   -0.0356270 
   0.324212500     0.0572812   -0.0482427    -0.0000409    0.0000752    -0.0000444    0.0000764     0.0253769   -0.0359889 
   0.329200000     0.0568466   -0.0488998    -0.0000469    0.0000742    -0.0000467    0.0000788     0.0251166   -0.0364843 
   0.334187500     0.0564188   -0.0496069    -0.0000439    0.0000858    -0.0000401    0.0000852     0.0247711   -0.0368322 
   0.339175000     0.0560874   -0.0503165    -0.0000474    0.0000847    -0.0000420    0.0000888     0.0243469   -0.0371504 
   0.344162500     0.0555830   -0.0509308    -0.0000429    0.0000921    -0.0000432    0.0000975     0.0240035   -0.0376164 
   0.349150000     0.0550531   -0.0516060    -0.0000513    0.0000917    -0.0000490    0.0000979     0.0236563   -0.0379399 
   0.354137500     0.0546933   -0.0522328    -0.0000458    0.0001017    -0.0000487    0.0001020     0.0230518   -0.0383478 
   0.359125000     0.0541569   -0.0530148    -0.0000465    0.0000993    -0.0000418    0.0001118     0.0225415   -0.0386543 
   0.364112500     0.0535429   -0.0536399    -0.0000422    0.0001015    -0.0000422    0.0001100     0.0220694   -0.0392099 
   0.369100000     0.0531397   -0.0544529    -0.0000380    0.0001044    -0.0000405    0.0001072     0.0215703   -0.0397092 
   0.374087500     0.0526693   -0.0549906    -0.0000354    0.0001117    -0.0000437    0.0001073     0.0211105   -0.0401778 
   0.379075000     0.0519828   -0.0556026    -0.0000344    0.0001025    -0.0000378    0.0001031     0.0206174   -0.0406970 
   0.384062500     0.0513897   -0.0563650    -0.0000362    0.0001028    -0.0000396    0.0001010     0.0201336   -0.0412666 
   0.389050000     0.0510499   -0.0570368    -0.0000384    0.0001087    -0.0000394    0.0001097     0.0197710   -0.0417038 
   0.394037500     0.0504873   -0.0575937    -0.0000289    0.0001088    -0.0000352    0.0001028     0.0192966   -0.0422059 
   0.399025000     0.0498518   -0.0582185    -0.0000313    0.0001088    -0.0000348    0.0001000     0.0189955   -0.0427786 
   0.404012500     0.0492124   -0.0589626    -0.0000368    0.0001071    -0.0000329    0.0001090     0.0186530   -0.0433884 
   0.409000000     0.0487747   -0.0595440    -0.0000330    0.0001130    -0.0000345    0.0001086     0.0183816   -0.0437631 
   0.413987500     0.0481547   -0.0600912    -0.0000370    0.0001075    -0.0000401    0.0001120     0.0180852   -0.0441673 
   0.418975000     0.0475424   -0.0607935    -0.0000365    0.0001142    -0.0000296    0.0001144     0.0176784   -0.0445889 
   0.423962500     0.0469247   -0.0613073    -0.0000386    0.0001087    -0.0000378    0.0001145     0.0173977   -0.0447913 
   0.428950000     0.0462166   -0.0618991    -0.0000392    0.0001083    -0.0000342    0.0001122     0.0170449   -0.0451092 
   0.433937500     0.0456376   -0.0622955    -0.0000375    0.0001100    -0.0000353    0.0001163     0.0166748   -0.0453941 
   0.438925000     0.0449217   -0.0628234    -0.0000354    0.0001097    -0.0000305    0.0001134     0.0162989   -0.0456080 
   0.443912500     0.0442508   -0.0635359    -0.0000400    0.0001041    -0.0000402    0.0001106     0.0157631   -0.0458141 
   0.448900000     0.0432683   -0.0642122    -0.0000357    0.0001082    -0.0000375    0.0001046     0.0153174   -0.0460812 
   0.453887500     0.0427088   -0.0647632    -0.0000361    0.0001026    -0.0000364    0.0001017     0.0148831   -0.0463555 
   0.458875000     0.0419534   -0.0652609    -0.0000322    0.0001073    -0.0000402    0.0001109     0.0142975   -0.0465748 
   0.463862500     0.0412484   -0.0659895    -0.0000373    0.0001044    -0.0000372    0.0001065     0.0137812   -0.0468866 
   0.468850000     0.0404789   -0.0667511    -0.0000398    0.0001103    -0.0000376    0.0001081     0.0131468   -0.0471601 
   0.473837500     0.0398918   -0.0672871    -0.0000349    0.0001107    -0.0000383    0.0001098     0.0125240   -0.0475219 
   0.478825000     0.0392671   -0.0679201    -0.0000320    0.0001145    -0.0000339    0.0001123     0.0120105   -0.0478958 
   0.483812500     0.0384852   -0.0685520    -0.0000278    0.0001178    -0.0000217    0.0001190     0.0114945   -0.0483112 
   0.488800000     0.0378261   -0.0692369    -0.0000283    0.0001206    -0.0000234    0.0001200     0.0110462   -0.0488278 
   0.493787500     0.0372405   -0.0697446    -0.0000218    0.0001276    -0.0000218    0.0001224     0.0106278   -0.0490825 
   0.498775000     0.0367956   -0.0703924    -0.0000223    0.0001204    -0.0000186    0.0001278     0.0101358   -0.0494040 
   0.503762500     0.0361262   -0.0708485    -0.0000202    0.0001348    -0.0000125    0.0001274     0.0097394   -0.0497280 
   0.508750000     0.0354966   -0.0712434    -0.0000187    0.0001295    -0.0000112    0.0001311     0.0093009   -0.0499645 
   0.513737500     0.0348310   -0.0717042    -0.0000180    0.0001410    -0.0000147    0.0001385     0.0087897   -0.0501533 
   0.518725000     0.0341732   -0.0721382    -0.0000143    0.0001438    -0.0000130    0.0001442     0.0084507   -0.0503589 
   0.523712500     0.0335638   -0.0723876    -0.0000185    0.0001413    -0.0000134    0.0001387     0.0080601   -0.0506328 
   0.528700000     0.0326852   -0.0727909    -0.0000154    0.0001433    -0.0000151    0.0001449     0.0074987   -0.0506533 
   0.533687500     0.0319288   -0.0731511    -0.0000100    0.0001524    -0.0000134    0.0001501     0.0071486   -0.0507631 
   0.538675000     0.0310538   -0.0734079    -0.0000099    0.0001522    -0.0000119    0.0001480     0.0066391   -0.0507964 
   0.543662500     0.0303099   -0.0736890    -0.0000070    0.0001486    -0.0000081    0.0001492     0.0059658   -0.0509387 
   0.548650000     0.0294676   -0.0740023    -0.0000110    0.0001499    -0.0000101    0.0001484     0.0054023   -0.0509430 
   0.553637500     0.0286685   -0.0743366    -0.0000075    0.0001578    -0.0000067    0.0001486     0.0046604   -0.0509372 
   0.558625000     0.0276229   -0.0747043    -0.0000093    0.0001564    -0.0000082    0.0001490     0.0038741   -0.0511357 
   0.563612500     0.0267470   -0.0752354    -0.0000126    0.0001573    -0.0000082    0.0001509     0.0032243   -0.0513958 
   0.568600000     0.0258798   -0.0756799    -0.0000086    0.0001556    -0.0000081    0.0001584     0.0024437   -0.0515041 
   0.573587500     0.0251595   -0.0759612    -0.0000074    0.0001574    -0.0000049    0.0001566     0.0017987   -0.0517587 
   0.578575000     0.0242263   -0.0764445    -0.0000137    0.0001591    -0.0000047    0.0001592     0.0009885   -0.0519074 
   0.583562500     0.0233529   -0.0769807    -0.0000091    0.0001634    -0.0000054    0.0001629     0.0003580   -0.0521964 
   0.588550000     0.0226746   -0.0772173    -0.0000106    0.0001605    -0.0000044    0.0001686    -0.0003642   -0.0523959 
   0.593537500     0.0217493   -0.0775784    -0.0000079    0.0001702    -0.0000053    0.0001664    -0.0008690   -0.0527683 
   0.598525000     0.0209373   -0.0779883    -0.0000079    0.0001632    -0.0000044    0.0001622    -0.0014233   -0.0530486 
   0.603512500     0.0200198   -0.0783436    -0.0000130    0.0001657    -0.0000122    0.0001653    -0.0019692   -0.0532367 
   0.608500000     0.0191673   -0.0787433    -0.0000091    0.0001641    -0.0000131    0.0001683    -0.0024731   -0.0533583 
   0.613487500     0.0183589   -0.0790247    -0.0000089    0.0001603    -0.0000106    0.0001680    -0.0030847   -0.0535735 
   0.618475000     0.0175483   -0.0794098    -0.0000064    0.0001676    -0.0000107    0.0001699    -0.0036076   -0.0537620 
   0.623462500     0.0167844   -0.0797139    -0.0000152    0.0001662    -0.0000087    0.0001729    -0.0041144   -0.0540299 
   0.628450000     0.0159339   -0.0799896    -0.0000050    0.0001701    -0.0000104    0.0001632    -0.0044852   -0.0540681 
   0.633437500     0.0151387   -0.0802067     0.0000021    0.0001652     0.0000021    0.0001599    -0.0049097   -0.0541313 
   0.638425000     0.0142577   -0.0804051     0.0000013    0.0001639    -0.0000012    0.0001661    -0.0053876   -0.0540888 
   0.643412500     0.0135404   -0.0804561     0.0000044    0.0001672     0.0000060    0.0001706    -0.0059225   -0.0538371 
   0.648400000     0.0126718   -0.0808853     0.0000027    0.0001740     0.0000153    0.0001725    -0.0065756   -0.0537205 
   0.653387500     0.0117960   -0.0810295     0.0000103    0.0001805     0.0000110    0.0001664    -0.0073125   -0.0535847 
   0.658375000     0.0108812   -0.0812004     0.0000132    0.0001740     0.0000136    0.0001695    -0.0081213   -0.0535102 
   0.663362500     0.0100312   -0.0812617     0.0000108    0.0001831     0.0000174    0.0001754    -0.0088363   -0.0535620 
   0.668350000     0.0091593   -0.0816691     0.0000159    0.0001873     0.0000192    0.0001746    -0.0096814   -0.0535922 
   0.673337500     0.0084197   -0.0818656     0.0000173    0.0001875     0.0000234    0.0001803    -0.0104029   -0.0535114 
   0.678325000     0.0073196   -0.0820306     0.0000220    0.0001881     0.0000203    0.0001925    -0.0113105   -0.0536333 
   0.683312500     0.0063569   -0.0821360     0.0000143    0.0001926     0.0000265    0.0001935    -0.0120976   -0.0537321 
   0.688300000     0.0056055   -0.0823548     0.0000202    0.0001892     0.0000290    0.0001923    -0.0128885   -0.0539681 
   0.693287500     0.0048074   -0.0824124     0.0000217    0.0001953     0.0000273    0.0001854    -0.0137864   -0.0540827 
   0.698275000     0.0039557   -0.0826617     0.0000250    0.0001889     0.0000244    0.0001914    -0.0143717   -0.0542802 
   0.703262500     0.0029590   -0.0827379     0.0000279    0.0001974     0.0000262    0.0001966    -0.0151520   -0.0543725 
   0.708250000     0.0022477   -0.0829482     0.0000287    0.0001924     0.0000317    0.0001967    -0.0158210   -0.0545785 
   0.713237500     0.0015592   -0.0829851     0.0000262    0.0001985     0.0000320    0.0001961    -0.0164158   -0.0547674 
   0.718225000     0.0005074   -0.0829029     0.0000333    0.0002083     0.0000314    0.0001930    -0.0169935   -0.0549794 
   0.723212500    -0.0003438   -0.0830106     0.0000397    0.0002071     0.0000353    0.0001945    -0.0176262   -0.0550510 
   0.728200000    -0.0010953   -0.0830070     0.0000389    0.0001998     0.0000370    0.0001967    -0.0180278   -0.0551062 
   0.733187500    -0.0020768   -0.0831504     0.0000404    0.0002047     0.0000414    0.0001954    -0.0187164   -0.0550262 
   0.738175000    -0.0030152   -0.0830750     0.0000400    0.0002121     0.0000422    0.0002044    -0.0193565   -0.0550231 
   0.743162500    -0.0039471   -0.0831257     0.0000429    0.0002074     0.0000469    0.0001990    -0.0198653   -0.0551713 
   0.748150000    -0.0047333   -0.0832041     0.0000463    0.0002054     0.0000524    0.0001995    -0.0203044   -0.0550860 
   0.753137500    -0.0056199   -0.0832319     0.0000543    0.0002081     0.0000509    0.0002013    -0.0209499   -0.0549938 
   0.758125000    -0.0063994   -0.0831562     0.0000498    0.0002107     0.0000579    0.0002041    -0.0216331   -0.0548669 
   0.763112500    -0.0073550   -0.0830766     0.0000528    0.0002078     0.0000497    0.0002135    -0.0223170   -0.0547740 
   0.768100000    -0.0082685   -0.0830680     0.0000530    0.0002153     0.0000566    0.0002195    -0.0230298   -0.0545785 
   0.773087500    -0.0089890   -0.0829666     0.0000558    0.0002125     0.0000605    0.0002205    -0.0237399   -0.0544698 
   0.778075000    -0.0100588   -0.0828841     0.0000566    0.0002135     0.0000531    0.0002129    -0.0243379   -0.0544773 
   0.783062500    -0.0108757   -0.0827354     0.0000608    0.0002137     0.0000558    0.0002239    -0.0250734   -0.0544533 
   0.788050000    -0.0117090   -0.0826652     0.0000650    0.0002211     0.0000521    0.0002199    -0.0257316   -0.0544169 
   0.793037500    -0.0126984   -0.0826708     0.0000667    0.0002258     0.0000633    0.0002212    -0.0263524   -0.0543024 
