! 5/5/2016 4:43:08 PM
! C:\ANRITSUVNA\DATA\PSEMI-SP4T-C-P1.S2P
! CHANNEL.1
! TR.MEASUREMENT
! CORRECTED.DATA
# GHZ S RI R 50.0
! FREQ.GHZ         S11RE         S11IM         S21RE         S21IM         S12RE         S12IM         S22RE         S22IM         
!; PortSelection: Port_12
   0.010000000     0.0735339   -0.0034130     0.9179813   -0.0165527     0.9176407   -0.0160455     0.0743916   -0.0042311 
   0.014987500     0.0728951   -0.0020190     0.9170955   -0.0202535     0.9165875   -0.0203009     0.0735689   -0.0019391 
   0.019975000     0.0731559   -0.0027328     0.9167257   -0.0267434     0.9163935   -0.0266886     0.0737839   -0.0027246 
   0.024962500     0.0732715   -0.0035874     0.9160933   -0.0331012     0.9160712   -0.0328184     0.0738975   -0.0036237 
   0.029950000     0.0734936   -0.0043622     0.9155856   -0.0393009     0.9155036   -0.0392772     0.0740716   -0.0043202 
   0.034937500     0.0734852   -0.0050291     0.9152474   -0.0457299     0.9150814   -0.0456263     0.0740397   -0.0050790 
   0.039925000     0.0735721   -0.0060371     0.9147422   -0.0519873     0.9144576   -0.0519058     0.0739264   -0.0060389 
   0.044912500     0.0737283   -0.0068377     0.9142312   -0.0582567     0.9141236   -0.0581843     0.0739870   -0.0068318 
   0.049900000     0.0737197   -0.0077320     0.9134400   -0.0647526     0.9133604   -0.0645439     0.0739747   -0.0077019 
   0.054887500     0.0739138   -0.0085321     0.9131888   -0.0709236     0.9126926   -0.0708048     0.0741495   -0.0085155 
   0.059875000     0.0739374   -0.0094482     0.9121931   -0.0770942     0.9121992   -0.0771953     0.0741930   -0.0094462 
   0.064862500     0.0739002   -0.0104021     0.9116840   -0.0834548     0.9114408   -0.0834525     0.0740141   -0.0103918 
   0.069850000     0.0738864   -0.0112440     0.9107555   -0.0898287     0.9106184   -0.0897597     0.0740045   -0.0113678 
   0.074837500     0.0738317   -0.0122103     0.9100365   -0.0959453     0.9098225   -0.0959866     0.0740997   -0.0123409 
   0.079825000     0.0738964   -0.0130796     0.9091582   -0.1020952     0.9091716   -0.1019348     0.0740422   -0.0133729 
   0.084812500     0.0738733   -0.0139098     0.9082595   -0.1082451     0.9082764   -0.1083493     0.0741267   -0.0141680 
   0.089800000     0.0738048   -0.0149645     0.9072353   -0.1145065     0.9071321   -0.1144463     0.0740178   -0.0152564 
   0.094787500     0.0735955   -0.0159560     0.9063409   -0.1206245     0.9061950   -0.1206624     0.0739581   -0.0162302 
   0.099775000     0.0735518   -0.0167817     0.9052758   -0.1266633     0.9051375   -0.1265512     0.0738672   -0.0171572 
   0.104762500     0.0733750   -0.0178050     0.9044080   -0.1327974     0.9042908   -0.1327245     0.0737874   -0.0183079 
   0.109750000     0.0731583   -0.0187311     0.9031540   -0.1390019     0.9032505   -0.1389011     0.0735567   -0.0192462 
   0.114737500     0.0729402   -0.0195916     0.9023201   -0.1452073     0.9020032   -0.1449930     0.0734071   -0.0201477 
   0.119725000     0.0727308   -0.0205544     0.9011430   -0.1511719     0.9009969   -0.1509145     0.0732625   -0.0211325 
   0.124712500     0.0724432   -0.0215002     0.9000418   -0.1573178     0.8998811   -0.1571591     0.0731363   -0.0222867 
   0.129700000     0.0721848   -0.0225596     0.8986994   -0.1633552     0.8987346   -0.1631383     0.0729097   -0.0233039 
   0.134687500     0.0718516   -0.0235430     0.8974525   -0.1694930     0.8973557   -0.1693423     0.0726904   -0.0242965 
   0.139675000     0.0716723   -0.0245776     0.8963648   -0.1754196     0.8960243   -0.1752805     0.0726261   -0.0253584 
   0.144662500     0.0714199   -0.0254778     0.8947914   -0.1816756     0.8947212   -0.1811902     0.0725112   -0.0263426 
   0.149650000     0.0712057   -0.0265576     0.8935215   -0.1877341     0.8931727   -0.1872650     0.0723141   -0.0274127 
   0.154637500     0.0710083   -0.0274906     0.8918927   -0.1938180     0.8918690   -0.1936211     0.0721586   -0.0284424 
   0.159625000     0.0707064   -0.0283441     0.8905143   -0.1999945     0.8904368   -0.1996902     0.0720362   -0.0293423 
   0.164612500     0.0704471   -0.0292623     0.8890955   -0.2058956     0.8888130   -0.2056304     0.0719712   -0.0302311 
   0.169600000     0.0701847   -0.0301956     0.8875452   -0.2116501     0.8875197   -0.2114951     0.0716899   -0.0310919 
   0.174587500     0.0700495   -0.0309775     0.8858734   -0.2176535     0.8856137   -0.2176710     0.0715431   -0.0321143 
   0.179575000     0.0697328   -0.0317039     0.8842433   -0.2236916     0.8841785   -0.2234884     0.0713440   -0.0328693 
   0.184562500     0.0692790   -0.0325592     0.8825665   -0.2295273     0.8822847   -0.2293878     0.0709570   -0.0337928 
   0.189550000     0.0689107   -0.0333514     0.8807644   -0.2354738     0.8807797   -0.2354076     0.0706518   -0.0346245 
   0.194537500     0.0685294   -0.0341866     0.8789260   -0.2414608     0.8788503   -0.2415118     0.0701537   -0.0354667 
   0.199525000     0.0682884   -0.0350458     0.8772212   -0.2474591     0.8771695   -0.2473761     0.0698418   -0.0363524 
   0.204512500     0.0678819   -0.0359262     0.8756160   -0.2531310     0.8754660   -0.2530773     0.0693442   -0.0372681 
   0.209500000     0.0675395   -0.0367525     0.8737112   -0.2588308     0.8737531   -0.2587619     0.0689848   -0.0381811 
   0.214487500     0.0671320   -0.0375753     0.8718451   -0.2648034     0.8716448   -0.2646970     0.0687023   -0.0390497 
   0.219475000     0.0666467   -0.0383890     0.8698328   -0.2705079     0.8697900   -0.2704902     0.0682787   -0.0399192 
   0.224462500     0.0662763   -0.0394052     0.8679739   -0.2763016     0.8678613   -0.2761445     0.0678853   -0.0408100 
   0.229450000     0.0658983   -0.0401956     0.8658610   -0.2819748     0.8660483   -0.2820671     0.0675266   -0.0416810 
   0.234437500     0.0653118   -0.0411444     0.8638671   -0.2880339     0.8636486   -0.2879056     0.0669587   -0.0426250 
   0.239425000     0.0649228   -0.0421172     0.8619680   -0.2940347     0.8616228   -0.2938536     0.0665719   -0.0435815 
   0.244412500     0.0645449   -0.0431174     0.8601025   -0.2999048     0.8599660   -0.2994152     0.0662322   -0.0445773 
   0.249400000     0.0641409   -0.0440110     0.8578314   -0.3052904     0.8578939   -0.3052198     0.0658598   -0.0455007 
   0.254387500     0.0636827   -0.0449479     0.8556732   -0.3110860     0.8555270   -0.3108623     0.0653954   -0.0464145 
   0.259375000     0.0632141   -0.0457389     0.8536612   -0.3169619     0.8532231   -0.3167092     0.0648944   -0.0471541 
   0.264362500     0.0626701   -0.0466284     0.8512648   -0.3223873     0.8512788   -0.3222921     0.0644133   -0.0480156 
   0.269350000     0.0620672   -0.0474085     0.8487012   -0.3283488     0.8486195   -0.3281746     0.0639904   -0.0488093 
   0.274337500     0.0616726   -0.0483021     0.8463860   -0.3341496     0.8462929   -0.3339485     0.0634022   -0.0496637 
   0.279325000     0.0611556   -0.0490726     0.8439003   -0.3400811     0.8437482   -0.3400572     0.0629630   -0.0506588 
   0.284312500     0.0604951   -0.0498819     0.8414437   -0.3457744     0.8413602   -0.3455690     0.0623349   -0.0515475 
   0.289300000     0.0599774   -0.0506022     0.8390944   -0.3513413     0.8388489   -0.3512471     0.0617518   -0.0524539 
   0.294287500     0.0594277   -0.0513134     0.8364884   -0.3567642     0.8364077   -0.3566120     0.0611772   -0.0531700 
   0.299275000     0.0587721   -0.0520458     0.8337372   -0.3620289     0.8333813   -0.3621519     0.0606259   -0.0539798 
   0.304262500     0.0580708   -0.0528411     0.8310529   -0.3674977     0.8310937   -0.3675377     0.0598288   -0.0549078 
   0.309250000     0.0577510   -0.0535682     0.8283067   -0.3729382     0.8281792   -0.3729715     0.0594107   -0.0557403 
   0.314237500     0.0572229   -0.0541589     0.8255847   -0.3782569     0.8255249   -0.3783402     0.0589007   -0.0566054 
   0.319225000     0.0565282   -0.0549183     0.8230332   -0.3837467     0.8224996   -0.3839861     0.0581800   -0.0573822 
   0.324212500     0.0560733   -0.0556487     0.8205057   -0.3891635     0.8202733   -0.3894139     0.0576064   -0.0583705 
   0.329200000     0.0554055   -0.0564379     0.8181303   -0.3944763     0.8178272   -0.3945503     0.0572898   -0.0590901 
   0.334187500     0.0548848   -0.0571648     0.8155621   -0.3997617     0.8152176   -0.3998185     0.0568307   -0.0597753 
   0.339175000     0.0543969   -0.0577849     0.8130403   -0.4052405     0.8123820   -0.4051649     0.0562431   -0.0604964 
   0.344162500     0.0537748   -0.0585190     0.8103399   -0.4108255     0.8098055   -0.4106572     0.0555883   -0.0612567 
   0.349150000     0.0531197   -0.0592597     0.8074414   -0.4163432     0.8069243   -0.4159635     0.0548779   -0.0619472 
   0.354137500     0.0525901   -0.0599200     0.8044349   -0.4218160     0.8040109   -0.4215547     0.0543544   -0.0625756 
   0.359125000     0.0519354   -0.0606520     0.8013477   -0.4276720     0.8007814   -0.4271062     0.0536773   -0.0632949 
   0.364112500     0.0512592   -0.0614240     0.7982901   -0.4334596     0.7981030   -0.4329711     0.0529280   -0.0639721 
   0.369100000     0.0507971   -0.0620446     0.7953062   -0.4388575     0.7952679   -0.4381341     0.0525372   -0.0645144 
   0.374087500     0.0499643   -0.0625553     0.7921219   -0.4439956     0.7918496   -0.4434571     0.0519392   -0.0652303 
   0.379075000     0.0492124   -0.0631669     0.7887116   -0.4492188     0.7886868   -0.4485496     0.0510656   -0.0658927 
   0.384062500     0.0485661   -0.0638188     0.7851332   -0.4541890     0.7851369   -0.4537312     0.0503843   -0.0666117 
   0.389050000     0.0479975   -0.0644043     0.7818157   -0.4591505     0.7820854   -0.4589209     0.0496944   -0.0671418 
   0.394037500     0.0472255   -0.0648700     0.7782833   -0.4639718     0.7785757   -0.4638188     0.0489829   -0.0678267 
   0.399025000     0.0465651   -0.0654498     0.7747394   -0.4687144     0.7752399   -0.4688236     0.0483186   -0.0686264 
   0.404012500     0.0459446   -0.0659359     0.7716368   -0.4738929     0.7717420   -0.4740630     0.0476743   -0.0694673 
   0.409000000     0.0450358   -0.0665469     0.7688519   -0.4786893     0.7691715   -0.4789687     0.0468745   -0.0701855 
   0.413987500     0.0444503   -0.0671178     0.7660392   -0.4832611     0.7661419   -0.4838598     0.0461589   -0.0709804 
   0.418975000     0.0436611   -0.0676740     0.7631347   -0.4882722     0.7629889   -0.4888491     0.0455424   -0.0716176 
   0.423962500     0.0429047   -0.0680628     0.7603951   -0.4933011     0.7596543   -0.4941070     0.0447781   -0.0723900 
   0.428950000     0.0419975   -0.0685325     0.7571366   -0.4983642     0.7565569   -0.4988790     0.0437964   -0.0729190 
   0.433937500     0.0411400   -0.0689536     0.7539135   -0.5037579     0.7529422   -0.5040358     0.0429912   -0.0734798 
   0.438925000     0.0402973   -0.0695089     0.7504100   -0.5091110     0.7493500   -0.5092482     0.0422185   -0.0740186 
   0.443912500     0.0395912   -0.0698958     0.7467507   -0.5149729     0.7458245   -0.5149595     0.0412948   -0.0746271 
   0.448900000     0.0386143   -0.0706168     0.7430326   -0.5202493     0.7421510   -0.5202684     0.0405270   -0.0751680 
   0.453887500     0.0378334   -0.0711924     0.7393343   -0.5254845     0.7385924   -0.5251340     0.0398322   -0.0754918 
   0.458875000     0.0369191   -0.0718552     0.7355608   -0.5306422     0.7346765   -0.5299881     0.0389339   -0.0760492 
   0.463862500     0.0361251   -0.0722998     0.7313994   -0.5352955     0.7305179   -0.5347506     0.0380917   -0.0766294 
   0.468850000     0.0353104   -0.0729499     0.7269644   -0.5400188     0.7266602   -0.5393400     0.0372910   -0.0771530 
   0.473837500     0.0344220   -0.0735127     0.7229820   -0.5445728     0.7223634   -0.5439027     0.0363750   -0.0775463 
   0.478825000     0.0335372   -0.0740796     0.7186471   -0.5489053     0.7181270   -0.5482704     0.0355672   -0.0781213 
   0.483812500     0.0327224   -0.0747209     0.7146975   -0.5530530     0.7139624   -0.5528811     0.0347270   -0.0786260 
   0.488800000     0.0322220   -0.0752102     0.7108453   -0.5576020     0.7104310   -0.5573490     0.0340182   -0.0792445 
   0.493787500     0.0314681   -0.0756294     0.7074929   -0.5618867     0.7072433   -0.5616340     0.0332611   -0.0796571 
   0.498775000     0.0310555   -0.0759599     0.7041278   -0.5660860     0.7036338   -0.5659081     0.0326914   -0.0801235 
   0.503762500     0.0303654   -0.0764972     0.7008119   -0.5701530     0.7001384   -0.5699074     0.0319320   -0.0805894 
   0.508750000     0.0296181   -0.0767086     0.6973286   -0.5744812     0.6966194   -0.5742598     0.0312178   -0.0812126 
   0.513737500     0.0289736   -0.0767780     0.6940396   -0.5792947     0.6930996   -0.5788934     0.0302056   -0.0815590 
   0.518725000     0.0279735   -0.0770697     0.6904256   -0.5840558     0.6892810   -0.5836095     0.0291704   -0.0820248 
   0.523712500     0.0271723   -0.0769896     0.6864324   -0.5890205     0.6852574   -0.5886695     0.0285176   -0.0823944 
   0.528700000     0.0264192   -0.0772790     0.6824705   -0.5944439     0.6813930   -0.5939913     0.0276087   -0.0827892 
   0.533687500     0.0254551   -0.0773603     0.6787068   -0.5996233     0.6778249   -0.5988185     0.0266896   -0.0831615 
   0.538675000     0.0245103   -0.0772475     0.6745983   -0.6045368     0.6736123   -0.6036136     0.0260465   -0.0834616 
   0.543662500     0.0235380   -0.0773464     0.6701000   -0.6092161     0.6693154   -0.6081358     0.0250947   -0.0840019 
   0.548650000     0.0227979   -0.0775089     0.6654329   -0.6137853     0.6645939   -0.6126161     0.0243730   -0.0845548 
   0.553637500     0.0217834   -0.0775731     0.6604362   -0.6181626     0.6599000   -0.6169975     0.0234212   -0.0847969 
   0.558625000     0.0204883   -0.0777957     0.6554568   -0.6223376     0.6552511   -0.6211475     0.0223261   -0.0855634 
   0.563612500     0.0194893   -0.0781897     0.6503956   -0.6265613     0.6503083   -0.6252863     0.0215404   -0.0859413 
   0.568600000     0.0185301   -0.0785037     0.6457329   -0.6307226     0.6456441   -0.6295146     0.0208351   -0.0863312 
   0.573587500     0.0174417   -0.0787141     0.6414763   -0.6344478     0.6414220   -0.6335930     0.0198040   -0.0867402 
   0.578575000     0.0165606   -0.0790846     0.6372627   -0.6380452     0.6373669   -0.6370373     0.0190809   -0.0870958 
   0.583562500     0.0157837   -0.0794997     0.6334279   -0.6415483     0.6335067   -0.6404559     0.0183091   -0.0875155 
   0.588550000     0.0148434   -0.0797010     0.6294122   -0.6449594     0.6292304   -0.6440207     0.0174765   -0.0877859 
   0.593537500     0.0138984   -0.0800304     0.6249859   -0.6486651     0.6254396   -0.6475493     0.0168107   -0.0880809 
   0.598525000     0.0130941   -0.0803722     0.6210655   -0.6525315     0.6214030   -0.6516904     0.0157408   -0.0885735 
   0.603512500     0.0122539   -0.0806258     0.6169808   -0.6567671     0.6172239   -0.6557819     0.0148069   -0.0886996 
   0.608500000     0.0112583   -0.0809359     0.6128935   -0.6611137     0.6130204   -0.6602739     0.0138192   -0.0889027 
   0.613487500     0.0103852   -0.0811684     0.6086604   -0.6656653     0.6091238   -0.6649186     0.0129007   -0.0892284 
   0.618475000     0.0098038   -0.0813540     0.6046996   -0.6701875     0.6052549   -0.6695232     0.0119960   -0.0895499 
   0.623462500     0.0092251   -0.0814870     0.6005704   -0.6744582     0.6010302   -0.6736200     0.0111741   -0.0897720 
   0.628450000     0.0085053   -0.0812857     0.5959377   -0.6785505     0.5960814   -0.6778902     0.0102073   -0.0899543 
   0.633437500     0.0078765   -0.0810538     0.5908865   -0.6828707     0.5912087   -0.6821743     0.0092486   -0.0901877 
   0.638425000     0.0071822   -0.0810880     0.5856768   -0.6869765     0.5858163   -0.6862818     0.0084094   -0.0903735 
   0.643412500     0.0065157   -0.0810363     0.5807959   -0.6908597     0.5808062   -0.6902982     0.0075136   -0.0906876 
   0.648400000     0.0057021   -0.0811428     0.5752138   -0.6946279     0.5751959   -0.6942736     0.0065074   -0.0909344 
   0.653387500     0.0048781   -0.0808535     0.5702353   -0.6983182     0.5701497   -0.6982121     0.0054401   -0.0911217 
   0.658375000     0.0040827   -0.0807792     0.5653456   -0.7021185     0.5654339   -0.7018111     0.0043026   -0.0913627 
   0.663362500     0.0029537   -0.0805464     0.5608396   -0.7054004     0.5608130   -0.7050239     0.0034897   -0.0917012 
   0.668350000     0.0023001   -0.0806874     0.5559714   -0.7085211     0.5559205   -0.7077392     0.0024054   -0.0919427 
   0.673337500     0.0013475   -0.0804138     0.5512785   -0.7115572     0.5509746   -0.7109092     0.0015935   -0.0921753 
   0.678325000     0.0000061   -0.0803907     0.5466133   -0.7146280     0.5464659   -0.7141690     0.0007873   -0.0921594 
   0.683312500    -0.0010910   -0.0803835     0.5418574   -0.7178288     0.5417874   -0.7174280    -0.0002430   -0.0924194 
   0.688300000    -0.0018449   -0.0803864     0.5374070   -0.7214487     0.5370941   -0.7206812    -0.0011403   -0.0927392 
   0.693287500    -0.0029110   -0.0803789     0.5326415   -0.7250929     0.5327757   -0.7246228    -0.0017962   -0.0928219 
   0.698275000    -0.0038902   -0.0803481     0.5282281   -0.7290337     0.5284701   -0.7286518    -0.0026205   -0.0928338 
   0.703262500    -0.0049690   -0.0804838     0.5238290   -0.7326745     0.5243745   -0.7322080    -0.0035767   -0.0928339 
   0.708250000    -0.0057560   -0.0805596     0.5189759   -0.7362650     0.5193753   -0.7357751    -0.0044038   -0.0927769 
   0.713237500    -0.0064960   -0.0805605     0.5143455   -0.7397668     0.5143086   -0.7395059    -0.0050979   -0.0929245 
   0.718225000    -0.0076521   -0.0806453     0.5088413   -0.7433605     0.5089738   -0.7431741    -0.0061727   -0.0927393 
   0.723212500    -0.0084437   -0.0804704     0.5036191   -0.7470170     0.5036042   -0.7469170    -0.0070760   -0.0927812 
   0.728200000    -0.0090201   -0.0804426     0.4978226   -0.7504700     0.4979675   -0.7503063    -0.0080194   -0.0927628 
   0.733187500    -0.0099966   -0.0806177     0.4924874   -0.7539890     0.4923470   -0.7536225    -0.0090121   -0.0928237 
   0.738175000    -0.0107350   -0.0803140     0.4869305   -0.7571802     0.4865961   -0.7569347    -0.0103505   -0.0927648 
   0.743162500    -0.0114664   -0.0804217     0.4817362   -0.7603973     0.4816870   -0.7600431    -0.0112409   -0.0929929 
   0.748150000    -0.0121124   -0.0803628     0.4767957   -0.7631639     0.4765065   -0.7625868    -0.0122077   -0.0930700 
   0.753137500    -0.0128256   -0.0801330     0.4714980   -0.7659144     0.4709017   -0.7648241    -0.0131693   -0.0931096 
   0.758125000    -0.0136767   -0.0798954     0.4661142   -0.7681925     0.4659408   -0.7673028    -0.0143269   -0.0928648 
   0.763112500    -0.0142639   -0.0795822     0.4609867   -0.7710888     0.4607630   -0.7698150    -0.0152708   -0.0928617 
   0.768100000    -0.0150792   -0.0795099     0.4558277   -0.7736275     0.4556696   -0.7725555    -0.0162705   -0.0929943 
   0.773087500    -0.0158879   -0.0791657     0.4508640   -0.7764339     0.4505653   -0.7754353    -0.0171378   -0.0929723 
   0.778075000    -0.0168781   -0.0786986     0.4458477   -0.7792361     0.4460682   -0.7785637    -0.0180519   -0.0927025 
   0.783062500    -0.0176146   -0.0784274     0.4410000   -0.7823634     0.4415069   -0.7817982    -0.0189949   -0.0928515 
   0.788050000    -0.0184355   -0.0779479     0.4363455   -0.7854807     0.4369692   -0.7847826    -0.0198069   -0.0925906 
   0.793037500    -0.0194482   -0.0778776     0.4315064   -0.7882195     0.4316852   -0.7878730    -0.0205252   -0.0924744 
