! 5/5/2016 4:46:23 PM
! C:\ANRITSUVNA\DATA\PSEMI-SP4T-STATE00-C-P2.S2P
! CHANNEL.1
! TR.MEASUREMENT
! CORRECTED.DATA
# GHZ S RI R 50.0
! FREQ.GHZ         S11RE         S11IM         S21RE         S21IM         S12RE         S12IM         S22RE         S22IM         
!; PortSelection: Port_12
   0.010000000     0.0796205   -0.0039034     0.0000084   -0.0000204    -0.0000172    0.0000065     0.0437429   -0.0030185 
   0.014987500     0.0789758   -0.0024481     0.0000091   -0.0000012     0.0000142   -0.0000119     0.0431416   -0.0016566 
   0.019975000     0.0791554   -0.0033182    -0.0000006    0.0000132    -0.0000078    0.0000035     0.0431764   -0.0022923 
   0.024962500     0.0792355   -0.0042692    -0.0000077    0.0000045     0.0000009    0.0000087     0.0432450   -0.0029201 
   0.029950000     0.0794434   -0.0053285    -0.0000084    0.0000140    -0.0000053    0.0000127     0.0432542   -0.0033960 
   0.034937500     0.0794805   -0.0061850    -0.0000039    0.0000107    -0.0000086    0.0000062     0.0433745   -0.0040927 
   0.039925000     0.0794681   -0.0072488    -0.0000031    0.0000116    -0.0000080    0.0000119     0.0432787   -0.0046842 
   0.044912500     0.0796730   -0.0082203    -0.0000061    0.0000117    -0.0000044    0.0000067     0.0431259   -0.0051392 
   0.049900000     0.0796985   -0.0092822    -0.0000069    0.0000094    -0.0000084    0.0000071     0.0430948   -0.0057393 
   0.054887500     0.0797132   -0.0104230    -0.0000023    0.0000165    -0.0000017    0.0000058     0.0429627   -0.0063941 
   0.059875000     0.0797172   -0.0113222    -0.0000056    0.0000148    -0.0000102    0.0000100     0.0428700   -0.0070997 
   0.064862500     0.0797307   -0.0125595    -0.0000074    0.0000166    -0.0000023    0.0000131     0.0428658   -0.0077925 
   0.069850000     0.0798002   -0.0135345    -0.0000075    0.0000161    -0.0000070    0.0000142     0.0426927   -0.0084685 
   0.074837500     0.0798404   -0.0145707    -0.0000109    0.0000209    -0.0000074    0.0000163     0.0427735   -0.0091096 
   0.079825000     0.0798126   -0.0155970    -0.0000087    0.0000272    -0.0000083    0.0000233     0.0425748   -0.0097622 
   0.084812500     0.0798047   -0.0164998    -0.0000096    0.0000250    -0.0000104    0.0000308     0.0425165   -0.0103767 
   0.089800000     0.0795522   -0.0176519    -0.0000043    0.0000305    -0.0000097    0.0000249     0.0423643   -0.0110834 
   0.094787500     0.0794179   -0.0186659    -0.0000102    0.0000259    -0.0000093    0.0000273     0.0423282   -0.0117465 
   0.099775000     0.0794000   -0.0195264    -0.0000141    0.0000254    -0.0000103    0.0000349     0.0422652   -0.0124561 
   0.104762500     0.0792119   -0.0206040    -0.0000152    0.0000326    -0.0000117    0.0000370     0.0421270   -0.0130400 
   0.109750000     0.0789006   -0.0216239    -0.0000097    0.0000355    -0.0000145    0.0000284     0.0421072   -0.0138364 
   0.114737500     0.0786835   -0.0225302    -0.0000237    0.0000272    -0.0000241    0.0000347     0.0418975   -0.0144947 
   0.119725000     0.0784696   -0.0235238    -0.0000224    0.0000434    -0.0000192    0.0000363     0.0417877   -0.0151246 
   0.124712500     0.0781888   -0.0245846    -0.0000210    0.0000388    -0.0000196    0.0000433     0.0416290   -0.0159573 
   0.129700000     0.0778551   -0.0257891    -0.0000196    0.0000485    -0.0000208    0.0000437     0.0415247   -0.0165673 
   0.134687500     0.0774047   -0.0268150    -0.0000189    0.0000440    -0.0000256    0.0000409     0.0413571   -0.0172479 
   0.139675000     0.0772511   -0.0278536    -0.0000149    0.0000450    -0.0000189    0.0000417     0.0412794   -0.0177951 
   0.144662500     0.0769665   -0.0288978    -0.0000167    0.0000507    -0.0000233    0.0000453     0.0410731   -0.0183821 
   0.149650000     0.0766620   -0.0301236    -0.0000192    0.0000522    -0.0000131    0.0000495     0.0408697   -0.0190864 
   0.154637500     0.0762656   -0.0312197    -0.0000155    0.0000560    -0.0000198    0.0000533     0.0407472   -0.0196944 
   0.159625000     0.0760856   -0.0321293    -0.0000245    0.0000603    -0.0000164    0.0000561     0.0407104   -0.0202602 
   0.164612500     0.0758147   -0.0332655    -0.0000185    0.0000650    -0.0000152    0.0000596     0.0405560   -0.0207198 
   0.169600000     0.0755989   -0.0343829    -0.0000154    0.0000708    -0.0000133    0.0000648     0.0403099   -0.0214235 
   0.174587500     0.0752223   -0.0352864    -0.0000190    0.0000596    -0.0000158    0.0000714     0.0399996   -0.0218976 
   0.179575000     0.0749036   -0.0361636    -0.0000171    0.0000722    -0.0000170    0.0000660     0.0398444   -0.0226217 
   0.184562500     0.0744877   -0.0372705    -0.0000151    0.0000751    -0.0000196    0.0000754     0.0394732   -0.0232180 
   0.189550000     0.0740020   -0.0381524    -0.0000147    0.0000741    -0.0000153    0.0000725     0.0392087   -0.0237479 
   0.194537500     0.0736472   -0.0391086    -0.0000176    0.0000742    -0.0000204    0.0000684     0.0387354   -0.0242995 
   0.199525000     0.0732833   -0.0400334    -0.0000104    0.0000769    -0.0000161    0.0000723     0.0382919   -0.0249669 
   0.204512500     0.0727112   -0.0410110    -0.0000185    0.0000736    -0.0000142    0.0000739     0.0378888   -0.0256388 
   0.209500000     0.0722960   -0.0419322    -0.0000152    0.0000771    -0.0000163    0.0000675     0.0376327   -0.0263984 
   0.214487500     0.0718510   -0.0427397    -0.0000168    0.0000787    -0.0000181    0.0000778     0.0372964   -0.0271626 
   0.219475000     0.0711068   -0.0437630    -0.0000131    0.0000844    -0.0000154    0.0000724     0.0370313   -0.0277351 
   0.224462500     0.0706621   -0.0446785    -0.0000141    0.0000773    -0.0000160    0.0000707     0.0367279   -0.0284572 
   0.229450000     0.0701745   -0.0454451    -0.0000188    0.0000739    -0.0000143    0.0000690     0.0364561   -0.0290480 
   0.234437500     0.0694414   -0.0465639    -0.0000143    0.0000757    -0.0000152    0.0000701     0.0361481   -0.0297663 
   0.239425000     0.0689661   -0.0474558    -0.0000172    0.0000866    -0.0000176    0.0000758     0.0359510   -0.0304333 
   0.244412500     0.0683376   -0.0483833    -0.0000143    0.0000886    -0.0000163    0.0000825     0.0356987   -0.0311463 
   0.249400000     0.0678031   -0.0494689    -0.0000179    0.0000864    -0.0000202    0.0000855     0.0353202   -0.0317759 
   0.254387500     0.0672177   -0.0503418    -0.0000234    0.0000854    -0.0000129    0.0000865     0.0351301   -0.0323783 
   0.259375000     0.0665196   -0.0512279    -0.0000278    0.0000891    -0.0000154    0.0000935     0.0348144   -0.0331143 
   0.264362500     0.0658900   -0.0521056    -0.0000199    0.0000991    -0.0000249    0.0000982     0.0345161   -0.0336333 
   0.269350000     0.0653412   -0.0529626    -0.0000287    0.0000958    -0.0000223    0.0001057     0.0343277   -0.0341407 
   0.274337500     0.0647339   -0.0539455    -0.0000265    0.0001096    -0.0000297    0.0001062     0.0339906   -0.0346221 
   0.279325000     0.0640849   -0.0548108    -0.0000205    0.0001141    -0.0000258    0.0001021     0.0335419   -0.0351266 
   0.284312500     0.0634525   -0.0556264    -0.0000101    0.0001056    -0.0000242    0.0001126     0.0331187   -0.0357635 
   0.289300000     0.0627140   -0.0564818    -0.0000210    0.0001101    -0.0000192    0.0001104     0.0327005   -0.0363581 
   0.294287500     0.0621475   -0.0572174    -0.0000144    0.0001173    -0.0000160    0.0001109     0.0323571   -0.0369814 
   0.299275000     0.0615959   -0.0581825    -0.0000136    0.0001140    -0.0000087    0.0001118     0.0318889   -0.0374733 
   0.304262500     0.0606887   -0.0589203    -0.0000102    0.0001147    -0.0000161    0.0001157     0.0314207   -0.0379534 
   0.309250000     0.0600247   -0.0596401    -0.0000143    0.0001211    -0.0000082    0.0001168     0.0310030   -0.0385558 
   0.314237500     0.0593532   -0.0605324    -0.0000102    0.0001204    -0.0000144    0.0001110     0.0305790   -0.0390697 
   0.319225000     0.0585260   -0.0612827    -0.0000142    0.0001259    -0.0000048    0.0001113     0.0301188   -0.0396381 
   0.324212500     0.0578090   -0.0621128    -0.0000088    0.0001260    -0.0000121    0.0001207     0.0297452   -0.0401442 
   0.329200000     0.0570673   -0.0627705    -0.0000101    0.0001330    -0.0000064    0.0001279     0.0293664   -0.0407087 
   0.334187500     0.0562936   -0.0634901    -0.0000041    0.0001252    -0.0000082    0.0001293     0.0288560   -0.0412957 
   0.339175000     0.0555986   -0.0642107    -0.0000105    0.0001339    -0.0000048    0.0001291     0.0284466   -0.0418125 
   0.344162500     0.0548206   -0.0649300    -0.0000100    0.0001341    -0.0000066    0.0001358     0.0281365   -0.0423533 
   0.349150000     0.0539047   -0.0655629    -0.0000079    0.0001390    -0.0000043    0.0001388     0.0276557   -0.0428522 
   0.354137500     0.0532103   -0.0662033    -0.0000115    0.0001333    -0.0000089    0.0001460     0.0271027   -0.0433599 
   0.359125000     0.0524057   -0.0669962    -0.0000035    0.0001438    -0.0000127    0.0001468     0.0265135   -0.0436999 
   0.364112500     0.0516034   -0.0677438    -0.0000012    0.0001446    -0.0000062    0.0001509     0.0260374   -0.0444139 
   0.369100000     0.0507671   -0.0684938    -0.0000100    0.0001466    -0.0000055    0.0001530     0.0255907   -0.0449840 
   0.374087500     0.0500884   -0.0690204    -0.0000038    0.0001578    -0.0000040    0.0001520     0.0250368   -0.0454858 
   0.379075000     0.0491788   -0.0697101    -0.0000052    0.0001534    -0.0000007    0.0001543     0.0243954   -0.0458916 
   0.384062500     0.0482732   -0.0703803     0.0000015    0.0001592    -0.0000003    0.0001585     0.0239159   -0.0465403 
   0.389050000     0.0476584   -0.0709329     0.0000013    0.0001602    -0.0000052    0.0001518     0.0235479   -0.0470597 
   0.394037500     0.0467881   -0.0715136     0.0000077    0.0001585     0.0000035    0.0001609     0.0229750   -0.0475389 
   0.399025000     0.0459456   -0.0721288     0.0000126    0.0001676     0.0000082    0.0001678     0.0224049   -0.0481370 
   0.404012500     0.0450933   -0.0726837     0.0000127    0.0001751     0.0000120    0.0001711     0.0219039   -0.0488303 
   0.409000000     0.0443782   -0.0731279     0.0000076    0.0001730     0.0000196    0.0001681     0.0215035   -0.0492433 
   0.413987500     0.0434911   -0.0736580     0.0000207    0.0001772     0.0000174    0.0001753     0.0211281   -0.0496317 
   0.418975000     0.0427023   -0.0741537     0.0000182    0.0001818     0.0000164    0.0001763     0.0206480   -0.0502316 
   0.423962500     0.0418262   -0.0744893     0.0000236    0.0001813     0.0000210    0.0001802     0.0201353   -0.0507224 
   0.428950000     0.0408179   -0.0748722     0.0000210    0.0001868     0.0000204    0.0001866     0.0197110   -0.0511633 
   0.433937500     0.0399906   -0.0752021     0.0000153    0.0001895     0.0000210    0.0001836     0.0193039   -0.0516317 
   0.438925000     0.0389355   -0.0757090     0.0000187    0.0001924     0.0000298    0.0001891     0.0187591   -0.0518767 
   0.443912500     0.0379563   -0.0761647     0.0000222    0.0001919     0.0000229    0.0001967     0.0181737   -0.0522648 
   0.448900000     0.0369306   -0.0766426     0.0000207    0.0001921     0.0000229    0.0001892     0.0177226   -0.0527026 
   0.453887500     0.0360104   -0.0770255     0.0000225    0.0001941     0.0000254    0.0001925     0.0172443   -0.0530600 
   0.458875000     0.0349824   -0.0774781     0.0000302    0.0001950     0.0000284    0.0001933     0.0166868   -0.0533604 
   0.463862500     0.0339793   -0.0779643     0.0000240    0.0002019     0.0000299    0.0001952     0.0162484   -0.0537722 
   0.468850000     0.0330687   -0.0784311     0.0000267    0.0002079     0.0000289    0.0001973     0.0155025   -0.0540515 
   0.473837500     0.0321978   -0.0788240     0.0000269    0.0002140     0.0000255    0.0002042     0.0149347   -0.0544132 
   0.478825000     0.0313866   -0.0793850     0.0000302    0.0002134     0.0000333    0.0002075     0.0144397   -0.0549035 
   0.483812500     0.0303822   -0.0796882     0.0000352    0.0002217     0.0000425    0.0002099     0.0138347   -0.0553793 
   0.488800000     0.0294998   -0.0801809     0.0000340    0.0002118     0.0000417    0.0002137     0.0133689   -0.0557795 
   0.493787500     0.0286898   -0.0804351     0.0000388    0.0002190     0.0000424    0.0002171     0.0128677   -0.0560616 
   0.498775000     0.0279361   -0.0810137     0.0000391    0.0002218     0.0000421    0.0002187     0.0122110   -0.0563917 
   0.503762500     0.0271367   -0.0811934     0.0000417    0.0002246     0.0000483    0.0002225     0.0116808   -0.0565684 
   0.508750000     0.0261805   -0.0813699     0.0000478    0.0002234     0.0000523    0.0002321     0.0111741   -0.0568759 
   0.513737500     0.0253761   -0.0815442     0.0000466    0.0002239     0.0000499    0.0002300     0.0104569   -0.0571494 
   0.518725000     0.0245718   -0.0817004     0.0000456    0.0002328     0.0000513    0.0002346     0.0098027   -0.0574843 
   0.523712500     0.0237950   -0.0818159     0.0000502    0.0002306     0.0000554    0.0002314     0.0092522   -0.0577310 
   0.528700000     0.0227536   -0.0819454     0.0000500    0.0002368     0.0000535    0.0002285     0.0085360   -0.0579908 
   0.533687500     0.0216563   -0.0821263     0.0000535    0.0002264     0.0000539    0.0002336     0.0079846   -0.0582291 
   0.538675000     0.0207187   -0.0820161     0.0000521    0.0002337     0.0000550    0.0002285     0.0073298   -0.0585358 
   0.543662500     0.0196455   -0.0820147     0.0000605    0.0002359     0.0000636    0.0002230     0.0066250   -0.0588909 
   0.548650000     0.0186278   -0.0820406     0.0000635    0.0002350     0.0000565    0.0002261     0.0060737   -0.0591532 
   0.553637500     0.0176823   -0.0822798     0.0000680    0.0002329     0.0000622    0.0002324     0.0052013   -0.0593310 
   0.558625000     0.0164377   -0.0823217     0.0000720    0.0002268     0.0000697    0.0002282     0.0044820   -0.0597430 
   0.563612500     0.0153215   -0.0824544     0.0000703    0.0002384     0.0000730    0.0002327     0.0038879   -0.0601618 
   0.568600000     0.0142996   -0.0827503     0.0000771    0.0002422     0.0000805    0.0002403     0.0033184   -0.0604256 
   0.573587500     0.0132273   -0.0828106     0.0000788    0.0002457     0.0000791    0.0002380     0.0027213   -0.0607859 
   0.578575000     0.0122620   -0.0830829     0.0000772    0.0002486     0.0000777    0.0002419     0.0021261   -0.0610867 
   0.583562500     0.0112105   -0.0833051     0.0000763    0.0002452     0.0000856    0.0002413     0.0015652   -0.0613441 
   0.588550000     0.0102489   -0.0833271     0.0000789    0.0002489     0.0000834    0.0002488     0.0010287   -0.0615732 
   0.593537500     0.0092090   -0.0836193     0.0000863    0.0002576     0.0000898    0.0002528     0.0004761   -0.0617508 
   0.598525000     0.0083705   -0.0837180     0.0000830    0.0002617     0.0000909    0.0002582     0.0000147   -0.0619518 
   0.603512500     0.0073625   -0.0838496     0.0000905    0.0002523     0.0000881    0.0002546    -0.0005851   -0.0619695 
   0.608500000     0.0062462   -0.0840080     0.0000883    0.0002587     0.0000885    0.0002631    -0.0011505   -0.0620235 
   0.613487500     0.0054503   -0.0841806     0.0000838    0.0002646     0.0000885    0.0002602    -0.0018998   -0.0621586 
   0.618475000     0.0044738   -0.0843261     0.0000928    0.0002655     0.0000871    0.0002644    -0.0025270   -0.0622549 
   0.623462500     0.0036307   -0.0844335     0.0000871    0.0002602     0.0000928    0.0002549    -0.0032321   -0.0624264 
   0.628450000     0.0027545   -0.0843296     0.0000993    0.0002649     0.0000936    0.0002631    -0.0038023   -0.0624755 
   0.633437500     0.0020373   -0.0843766     0.0000961    0.0002703     0.0000917    0.0002661    -0.0044225   -0.0624734 
   0.638425000     0.0011615   -0.0842461     0.0000929    0.0002711     0.0001019    0.0002690    -0.0050421   -0.0625038 
   0.643412500     0.0004388   -0.0840987     0.0001019    0.0002777     0.0001006    0.0002725    -0.0058403   -0.0624649 
   0.648400000    -0.0005471   -0.0842404     0.0000994    0.0002789     0.0001001    0.0002709    -0.0066160   -0.0623858 
   0.653387500    -0.0014808   -0.0840918     0.0001039    0.0002751     0.0001120    0.0002809    -0.0075582   -0.0623825 
   0.658375000    -0.0022891   -0.0839834     0.0001001    0.0002847     0.0001142    0.0002735    -0.0083667   -0.0624748 
   0.663362500    -0.0031786   -0.0838388     0.0001097    0.0002810     0.0001113    0.0002851    -0.0091641   -0.0627711 
   0.668350000    -0.0040325   -0.0839422     0.0001085    0.0002859     0.0001114    0.0002814    -0.0099405   -0.0630438 
   0.673337500    -0.0048354   -0.0837858     0.0001152    0.0002900     0.0001152    0.0002842    -0.0106810   -0.0631441 
   0.678325000    -0.0058870   -0.0836494     0.0001182    0.0002935     0.0001195    0.0002898    -0.0115063   -0.0633040 
   0.683312500    -0.0067849   -0.0834908     0.0001191    0.0003000     0.0001174    0.0002933    -0.0122090   -0.0635317 
   0.688300000    -0.0075584   -0.0833544     0.0001236    0.0002939     0.0001155    0.0002928    -0.0129133   -0.0638293 
   0.693287500    -0.0085399   -0.0831753     0.0001148    0.0002883     0.0001223    0.0002929    -0.0135513   -0.0638733 
   0.698275000    -0.0092954   -0.0830665     0.0001263    0.0002923     0.0001266    0.0002968    -0.0141317   -0.0641110 
   0.703262500    -0.0103292   -0.0829263     0.0001226    0.0002918     0.0001218    0.0002972    -0.0147531   -0.0641975 
   0.708250000    -0.0109807   -0.0827827     0.0001326    0.0002950     0.0001210    0.0002904    -0.0153566   -0.0641321 
   0.713237500    -0.0118663   -0.0825728     0.0001269    0.0002997     0.0001328    0.0002876    -0.0158977   -0.0642641 
   0.718225000    -0.0128253   -0.0823451     0.0001259    0.0002892     0.0001358    0.0002975    -0.0165414   -0.0642774 
   0.723212500    -0.0135958   -0.0820772     0.0001379    0.0002991     0.0001303    0.0002947    -0.0171946   -0.0642151 
   0.728200000    -0.0143521   -0.0819267     0.0001409    0.0003046     0.0001427    0.0002985    -0.0176999   -0.0641522 
   0.733187500    -0.0152855   -0.0817024     0.0001461    0.0003071     0.0001395    0.0003043    -0.0185037   -0.0638745 
   0.738175000    -0.0162025   -0.0814044     0.0001392    0.0003114     0.0001463    0.0002961    -0.0192692   -0.0638339 
   0.743162500    -0.0170032   -0.0812203     0.0001423    0.0003129     0.0001479    0.0003078    -0.0200411   -0.0639229 
   0.748150000    -0.0176539   -0.0811354     0.0001487    0.0003100     0.0001518    0.0003135    -0.0207006   -0.0638680 
   0.753137500    -0.0184547   -0.0807585     0.0001534    0.0003157     0.0001543    0.0003031    -0.0215021   -0.0638060 
   0.758125000    -0.0192555   -0.0804701     0.0001485    0.0003267     0.0001521    0.0003125    -0.0223416   -0.0636680 
   0.763112500    -0.0199330   -0.0801558     0.0001485    0.0003203     0.0001512    0.0003213    -0.0231195   -0.0636814 
   0.768100000    -0.0207468   -0.0798857     0.0001480    0.0003217     0.0001569    0.0003121    -0.0238776   -0.0636286 
   0.773087500    -0.0216175   -0.0795816     0.0001529    0.0003204     0.0001520    0.0003285    -0.0245562   -0.0637079 
   0.778075000    -0.0223238   -0.0791560     0.0001529    0.0003302     0.0001537    0.0003205    -0.0252537   -0.0636231 
   0.783062500    -0.0230768   -0.0788160     0.0001645    0.0003310     0.0001562    0.0003258    -0.0260465   -0.0637358 
   0.788050000    -0.0237843   -0.0783359     0.0001581    0.0003276     0.0001584    0.0003262    -0.0266416   -0.0637048 
   0.793037500    -0.0247199   -0.0781716     0.0001580    0.0003286     0.0001539    0.0003237    -0.0271892   -0.0637036 
