! 5/5/2016 4:45:18 PM
! C:\ANRITSUVNA\DATA\PSEMI-SP4T-STATE00-C-P3.S2P
! CHANNEL.1
! TR.MEASUREMENT
! CORRECTED.DATA
# GHZ S RI R 50.0
! FREQ.GHZ         S11RE         S11IM         S21RE         S21IM         S12RE         S12IM         S22RE         S22IM         
!; PortSelection: Port_12
   0.010000000     0.0788947   -0.0037970    -0.0000115    0.0000097    -0.0000038    0.0000014     0.0416406   -0.0028267 
   0.014987500     0.0782735   -0.0023927     0.0000025   -0.0000259    -0.0000318    0.0000053     0.0410547   -0.0015785 
   0.019975000     0.0784507   -0.0031689     0.0000053    0.0000045    -0.0000058   -0.0000010     0.0412048   -0.0021122 
   0.024962500     0.0785865   -0.0041030     0.0000036    0.0000039    -0.0000030    0.0000078     0.0412617   -0.0027110 
   0.029950000     0.0788218   -0.0051128     0.0000021    0.0000012    -0.0000093    0.0000065     0.0413992   -0.0031858 
   0.034937500     0.0788520   -0.0059720    -0.0000021   -0.0000066    -0.0000088    0.0000028     0.0414647   -0.0038214 
   0.039925000     0.0788295   -0.0069500    -0.0000056    0.0000050    -0.0000072   -0.0000012     0.0413360   -0.0044175 
   0.044912500     0.0790399   -0.0078496    -0.0000073   -0.0000005    -0.0000060    0.0000044     0.0413549   -0.0048204 
   0.049900000     0.0790330   -0.0089067    -0.0000107    0.0000025    -0.0000059    0.0000048     0.0413367   -0.0054211 
   0.054887500     0.0791227   -0.0100147    -0.0000013    0.0000034    -0.0000072    0.0000034     0.0412400   -0.0060057 
   0.059875000     0.0791023   -0.0109090    -0.0000089    0.0000070    -0.0000026    0.0000012     0.0410854   -0.0066462 
   0.064862500     0.0791424   -0.0120987    -0.0000051    0.0000049    -0.0000093    0.0000022     0.0411330   -0.0072422 
   0.069850000     0.0792108   -0.0130241    -0.0000153    0.0000067    -0.0000083    0.0000064     0.0410669   -0.0078565 
   0.074837500     0.0792211   -0.0140925    -0.0000085    0.0000152    -0.0000065    0.0000079     0.0410705   -0.0084809 
   0.079825000     0.0791711   -0.0150379    -0.0000036    0.0000106    -0.0000041    0.0000127     0.0409940   -0.0090998 
   0.084812500     0.0792145   -0.0159524    -0.0000116    0.0000146    -0.0000090    0.0000137     0.0408869   -0.0096754 
   0.089800000     0.0790161   -0.0170754    -0.0000106    0.0000121    -0.0000104    0.0000194     0.0407745   -0.0103022 
   0.094787500     0.0788590   -0.0180494    -0.0000096    0.0000212    -0.0000089    0.0000194     0.0407386   -0.0108999 
   0.099775000     0.0788155   -0.0189320    -0.0000155    0.0000092    -0.0000074    0.0000239     0.0406248   -0.0115778 
   0.104762500     0.0786606   -0.0199788    -0.0000165    0.0000121    -0.0000104    0.0000230     0.0405230   -0.0121768 
   0.109750000     0.0783569   -0.0209989    -0.0000194    0.0000158    -0.0000184    0.0000213     0.0404418   -0.0129515 
   0.114737500     0.0782286   -0.0218690    -0.0000154    0.0000157    -0.0000187    0.0000198     0.0402146   -0.0135477 
   0.119725000     0.0778914   -0.0228307    -0.0000243    0.0000211    -0.0000235    0.0000224     0.0401156   -0.0141472 
   0.124712500     0.0776558   -0.0238559    -0.0000138    0.0000289    -0.0000234    0.0000271     0.0398765   -0.0149884 
   0.129700000     0.0774540   -0.0250127    -0.0000100    0.0000337    -0.0000183    0.0000226     0.0398544   -0.0155754 
   0.134687500     0.0770167   -0.0260501    -0.0000158    0.0000256    -0.0000136    0.0000196     0.0397297   -0.0163285 
   0.139675000     0.0768457   -0.0270481    -0.0000177    0.0000216    -0.0000176    0.0000318     0.0396388   -0.0169136 
   0.144662500     0.0765460   -0.0280521    -0.0000118    0.0000249    -0.0000172    0.0000287     0.0395196   -0.0175438 
   0.149650000     0.0762540   -0.0292903    -0.0000154    0.0000272    -0.0000140    0.0000221     0.0393848   -0.0181890 
   0.154637500     0.0759051   -0.0303424    -0.0000190    0.0000330    -0.0000199    0.0000273     0.0393251   -0.0188325 
   0.159625000     0.0756958   -0.0312621    -0.0000149    0.0000352    -0.0000158    0.0000346     0.0393229   -0.0193649 
   0.164612500     0.0754132   -0.0324492    -0.0000158    0.0000358    -0.0000191    0.0000397     0.0393454   -0.0199611 
   0.169600000     0.0751526   -0.0335146    -0.0000207    0.0000333    -0.0000175    0.0000386     0.0391469   -0.0205248 
   0.174587500     0.0748665   -0.0344180    -0.0000172    0.0000417    -0.0000165    0.0000381     0.0389790   -0.0209923 
   0.179575000     0.0744546   -0.0353067    -0.0000177    0.0000451    -0.0000123    0.0000421     0.0389043   -0.0215727 
   0.184562500     0.0741477   -0.0364181    -0.0000209    0.0000413    -0.0000119    0.0000384     0.0386766   -0.0221273 
   0.189550000     0.0736057   -0.0372388    -0.0000200    0.0000328    -0.0000239    0.0000457     0.0384930   -0.0225977 
   0.194537500     0.0732906   -0.0382891    -0.0000195    0.0000418    -0.0000197    0.0000431     0.0381375   -0.0230500 
   0.199525000     0.0729999   -0.0392604    -0.0000255    0.0000398    -0.0000229    0.0000379     0.0377631   -0.0236477 
   0.204512500     0.0724322   -0.0401739    -0.0000232    0.0000389    -0.0000198    0.0000414     0.0374638   -0.0241797 
   0.209500000     0.0720171   -0.0411317    -0.0000264    0.0000414    -0.0000218    0.0000436     0.0372422   -0.0248174 
   0.214487500     0.0716067   -0.0419640    -0.0000206    0.0000442    -0.0000227    0.0000466     0.0368970   -0.0253548 
   0.219475000     0.0709602   -0.0430295    -0.0000211    0.0000433    -0.0000282    0.0000416     0.0366413   -0.0258897 
   0.224462500     0.0705197   -0.0438892    -0.0000207    0.0000502    -0.0000224    0.0000435     0.0364246   -0.0264364 
   0.229450000     0.0699838   -0.0447608    -0.0000160    0.0000513    -0.0000208    0.0000407     0.0361301   -0.0269594 
   0.234437500     0.0693010   -0.0457758    -0.0000215    0.0000441    -0.0000231    0.0000475     0.0358001   -0.0275435 
   0.239425000     0.0688244   -0.0466422    -0.0000195    0.0000539    -0.0000213    0.0000454     0.0356118   -0.0280879 
   0.244412500     0.0682523   -0.0476804    -0.0000182    0.0000546    -0.0000214    0.0000449     0.0352941   -0.0287249 
   0.249400000     0.0676878   -0.0487495    -0.0000255    0.0000488    -0.0000211    0.0000549     0.0350095   -0.0292884 
   0.254387500     0.0671455   -0.0496169    -0.0000276    0.0000506    -0.0000146    0.0000536     0.0346470   -0.0298079 
   0.259375000     0.0663934   -0.0505123    -0.0000203    0.0000541    -0.0000225    0.0000559     0.0344001   -0.0304621 
   0.264362500     0.0657871   -0.0513720    -0.0000231    0.0000561    -0.0000284    0.0000616     0.0341147   -0.0309643 
   0.269350000     0.0652237   -0.0522854    -0.0000274    0.0000574    -0.0000211    0.0000580     0.0338913   -0.0314625 
   0.274337500     0.0646708   -0.0533551    -0.0000319    0.0000645    -0.0000348    0.0000635     0.0335455   -0.0318249 
   0.279325000     0.0640938   -0.0542485    -0.0000282    0.0000622    -0.0000225    0.0000667     0.0330060   -0.0322616 
   0.284312500     0.0634342   -0.0550789    -0.0000308    0.0000566    -0.0000312    0.0000635     0.0326644   -0.0328717 
   0.289300000     0.0627574   -0.0560208    -0.0000251    0.0000699    -0.0000339    0.0000660     0.0322357   -0.0334172 
   0.294287500     0.0622025   -0.0567879    -0.0000259    0.0000662    -0.0000258    0.0000657     0.0319182   -0.0339898 
   0.299275000     0.0617268   -0.0577600    -0.0000233    0.0000670    -0.0000251    0.0000645     0.0314585   -0.0344920 
   0.304262500     0.0608722   -0.0585446    -0.0000218    0.0000651    -0.0000163    0.0000578     0.0310600   -0.0349696 
   0.309250000     0.0602191   -0.0593129    -0.0000294    0.0000656    -0.0000276    0.0000557     0.0306407   -0.0354281 
   0.314237500     0.0596358   -0.0602170    -0.0000283    0.0000694    -0.0000279    0.0000694     0.0302223   -0.0358836 
   0.319225000     0.0588312   -0.0609485    -0.0000228    0.0000710    -0.0000225    0.0000673     0.0297392   -0.0364764 
   0.324212500     0.0582531   -0.0617512    -0.0000223    0.0000668    -0.0000313    0.0000712     0.0294099   -0.0369938 
   0.329200000     0.0575497   -0.0624350    -0.0000223    0.0000738    -0.0000246    0.0000758     0.0290303   -0.0374953 
   0.334187500     0.0568338   -0.0631362    -0.0000264    0.0000773    -0.0000277    0.0000752     0.0286483   -0.0380071 
   0.339175000     0.0562044   -0.0638843    -0.0000254    0.0000773    -0.0000262    0.0000749     0.0282765   -0.0385028 
   0.344162500     0.0554670   -0.0644918    -0.0000321    0.0000805    -0.0000238    0.0000748     0.0278888   -0.0390416 
   0.349150000     0.0545303   -0.0651913    -0.0000362    0.0000810    -0.0000333    0.0000776     0.0274670   -0.0394530 
   0.354137500     0.0537394   -0.0657576    -0.0000368    0.0000729    -0.0000319    0.0000851     0.0270145   -0.0399199 
   0.359125000     0.0530118   -0.0665476    -0.0000392    0.0000820    -0.0000415    0.0000884     0.0264650   -0.0402406 
   0.364112500     0.0521431   -0.0672981    -0.0000345    0.0000903    -0.0000431    0.0000943     0.0260360   -0.0408639 
   0.369100000     0.0512823   -0.0680198    -0.0000376    0.0000887    -0.0000345    0.0000898     0.0256396   -0.0413353 
   0.374087500     0.0505199   -0.0686135    -0.0000367    0.0000891    -0.0000342    0.0000958     0.0251658   -0.0417460 
   0.379075000     0.0495422   -0.0692758    -0.0000337    0.0000895    -0.0000390    0.0000954     0.0246182   -0.0421381 
   0.384062500     0.0485636   -0.0701129    -0.0000416    0.0000975    -0.0000413    0.0000958     0.0241257   -0.0425925 
   0.389050000     0.0478843   -0.0706982    -0.0000402    0.0000996    -0.0000394    0.0000947     0.0238077   -0.0430471 
   0.394037500     0.0470530   -0.0713072    -0.0000418    0.0001069    -0.0000400    0.0000995     0.0231362   -0.0433925 
   0.399025000     0.0461737   -0.0720356    -0.0000310    0.0001133    -0.0000358    0.0001073     0.0227146   -0.0438826 
   0.404012500     0.0453819   -0.0726405    -0.0000392    0.0001195    -0.0000331    0.0001137     0.0221995   -0.0444397 
   0.409000000     0.0446844   -0.0732006    -0.0000329    0.0001282    -0.0000251    0.0001194     0.0218318   -0.0448105 
   0.413987500     0.0437947   -0.0738181    -0.0000299    0.0001232    -0.0000234    0.0001254     0.0214089   -0.0451218 
   0.418975000     0.0430416   -0.0743329    -0.0000248    0.0001292    -0.0000173    0.0001261     0.0209029   -0.0455289 
   0.423962500     0.0422241   -0.0748013    -0.0000231    0.0001295    -0.0000169    0.0001183     0.0203215   -0.0458569 
   0.428950000     0.0413528   -0.0752248    -0.0000243    0.0001279    -0.0000197    0.0001236     0.0198230   -0.0462570 
   0.433937500     0.0405272   -0.0755340    -0.0000256    0.0001291    -0.0000219    0.0001295     0.0192644   -0.0466157 
   0.438925000     0.0395817   -0.0760930    -0.0000276    0.0001199    -0.0000233    0.0001286     0.0187622   -0.0468577 
   0.443912500     0.0386476   -0.0766108    -0.0000154    0.0001281    -0.0000130    0.0001332     0.0181938   -0.0472096 
   0.448900000     0.0376271   -0.0770471    -0.0000171    0.0001269    -0.0000165    0.0001283     0.0176295   -0.0475490 
   0.453887500     0.0367676   -0.0773937    -0.0000191    0.0001305    -0.0000212    0.0001281     0.0171515   -0.0479076 
   0.458875000     0.0357402   -0.0778030    -0.0000187    0.0001207    -0.0000231    0.0001282     0.0165290   -0.0482891 
   0.463862500     0.0347355   -0.0783924    -0.0000141    0.0001263    -0.0000226    0.0001318     0.0159659   -0.0486559 
   0.468850000     0.0338419   -0.0787992    -0.0000219    0.0001307    -0.0000256    0.0001355     0.0152995   -0.0490089 
   0.473837500     0.0329062   -0.0792884    -0.0000159    0.0001366    -0.0000173    0.0001352     0.0147370   -0.0494136 
   0.478825000     0.0319959   -0.0798236    -0.0000187    0.0001340    -0.0000157    0.0001376     0.0141182   -0.0498000 
   0.483812500     0.0310017   -0.0801113    -0.0000110    0.0001437    -0.0000112    0.0001324     0.0135578   -0.0502118 
   0.488800000     0.0301209   -0.0807112    -0.0000136    0.0001479    -0.0000091    0.0001372     0.0131178   -0.0506915 
   0.493787500     0.0293243   -0.0810300    -0.0000096    0.0001453    -0.0000108    0.0001496     0.0126524   -0.0509871 
   0.498775000     0.0284999   -0.0816123    -0.0000051    0.0001531    -0.0000082    0.0001515     0.0120984   -0.0512904 
   0.503762500     0.0277699   -0.0818999    -0.0000016    0.0001604    -0.0000030    0.0001547     0.0115584   -0.0515936 
   0.508750000     0.0268558   -0.0822055    -0.0000059    0.0001538    -0.0000039    0.0001541     0.0110224   -0.0518315 
   0.513737500     0.0260332   -0.0824376    -0.0000016    0.0001613    -0.0000043    0.0001577     0.0103910   -0.0520983 
   0.518725000     0.0252970   -0.0826420    -0.0000071    0.0001556     0.0000015    0.0001552     0.0097893   -0.0523377 
   0.523712500     0.0245532   -0.0827407    -0.0000089    0.0001621    -0.0000042    0.0001589     0.0092898   -0.0526617 
   0.528700000     0.0235529   -0.0829164    -0.0000043    0.0001658     0.0000089    0.0001629     0.0086560   -0.0528180 
   0.533687500     0.0225480   -0.0831760     0.0000008    0.0001611     0.0000010    0.0001630     0.0081861   -0.0530795 
   0.538675000     0.0216266   -0.0830444     0.0000008    0.0001608     0.0000026    0.0001567     0.0075012   -0.0531777 
   0.543662500     0.0206315   -0.0830042     0.0000066    0.0001617     0.0000019    0.0001575     0.0069267   -0.0535043 
   0.548650000     0.0197695   -0.0830501     0.0000035    0.0001607     0.0000021    0.0001661     0.0062784   -0.0537161 
   0.553637500     0.0188149   -0.0832169     0.0000035    0.0001668     0.0000119    0.0001609     0.0055311   -0.0537876 
   0.558625000     0.0176065   -0.0832088     0.0000113    0.0001612     0.0000116    0.0001579     0.0048597   -0.0541037 
   0.563612500     0.0164974   -0.0834024     0.0000183    0.0001644     0.0000106    0.0001590     0.0041998   -0.0544604 
   0.568600000     0.0154899   -0.0835260     0.0000167    0.0001734     0.0000214    0.0001585     0.0035292   -0.0546979 
   0.573587500     0.0143572   -0.0835623     0.0000162    0.0001697     0.0000140    0.0001609     0.0029356   -0.0548951 
   0.578575000     0.0133065   -0.0837905     0.0000171    0.0001660     0.0000263    0.0001668     0.0023554   -0.0551945 
   0.583562500     0.0122431   -0.0839810     0.0000260    0.0001714     0.0000219    0.0001698     0.0016775   -0.0553369 
   0.588550000     0.0111735   -0.0840355     0.0000142    0.0001767     0.0000225    0.0001730     0.0010956   -0.0555675 
   0.593537500     0.0100816   -0.0843167     0.0000156    0.0001769     0.0000222    0.0001794     0.0005382   -0.0557184 
   0.598525000     0.0091969   -0.0844516     0.0000208    0.0001833     0.0000200    0.0001736    -0.0000691   -0.0559018 
   0.603512500     0.0081355   -0.0845893     0.0000247    0.0001788     0.0000166    0.0001817    -0.0006315   -0.0559931 
   0.608500000     0.0070907   -0.0847952     0.0000195    0.0001823     0.0000166    0.0001801    -0.0013413   -0.0561417 
   0.613487500     0.0061152   -0.0850706     0.0000225    0.0001857     0.0000235    0.0001870    -0.0020299   -0.0562546 
   0.618475000     0.0051756   -0.0853003     0.0000211    0.0001798     0.0000255    0.0001836    -0.0027095   -0.0564016 
   0.623462500     0.0043685   -0.0854493     0.0000258    0.0001817     0.0000282    0.0001821    -0.0033993   -0.0566152 
   0.628450000     0.0035339   -0.0853875     0.0000288    0.0001903     0.0000277    0.0001870    -0.0039578   -0.0568016 
   0.633437500     0.0028717   -0.0854782     0.0000269    0.0001959     0.0000298    0.0001855    -0.0045097   -0.0568644 
   0.638425000     0.0020470   -0.0854044     0.0000271    0.0001919     0.0000317    0.0001836    -0.0051654   -0.0569906 
   0.643412500     0.0014407   -0.0852552     0.0000335    0.0001907     0.0000314    0.0001823    -0.0057824   -0.0569005 
   0.648400000     0.0004705   -0.0853071     0.0000384    0.0001916     0.0000383    0.0001871    -0.0064365   -0.0569745 
   0.653387500    -0.0004739   -0.0851416     0.0000355    0.0001967     0.0000371    0.0001888    -0.0073074   -0.0569245 
   0.658375000    -0.0012003   -0.0849953     0.0000389    0.0002028     0.0000383    0.0001976    -0.0079771   -0.0570821 
   0.663362500    -0.0020368   -0.0847277     0.0000416    0.0002015     0.0000451    0.0001991    -0.0087045   -0.0572833 
   0.668350000    -0.0029283   -0.0847870     0.0000442    0.0001985     0.0000535    0.0002012    -0.0093715   -0.0574414 
   0.673337500    -0.0036628   -0.0845007     0.0000465    0.0002064     0.0000565    0.0002012    -0.0099873   -0.0574456 
   0.678325000    -0.0048072   -0.0842486     0.0000544    0.0001995     0.0000529    0.0002025    -0.0107244   -0.0575120 
   0.683312500    -0.0058218   -0.0839127     0.0000478    0.0002082     0.0000532    0.0002059    -0.0113575   -0.0576614 
   0.688300000    -0.0066503   -0.0837633     0.0000506    0.0002054     0.0000520    0.0002055    -0.0120241   -0.0578641 
   0.693287500    -0.0076445   -0.0835836     0.0000511    0.0002065     0.0000512    0.0002065    -0.0127268   -0.0578224 
   0.698275000    -0.0085516   -0.0834458     0.0000504    0.0002065     0.0000509    0.0002093    -0.0133145   -0.0579390 
   0.703262500    -0.0097768   -0.0832900     0.0000528    0.0002101     0.0000559    0.0002051    -0.0139478   -0.0578859 
   0.708250000    -0.0105911   -0.0830885     0.0000544    0.0002069     0.0000573    0.0002093    -0.0145871   -0.0578549 
   0.713237500    -0.0115584   -0.0829583     0.0000659    0.0002118     0.0000650    0.0002068    -0.0151807   -0.0579263 
   0.718225000    -0.0126442   -0.0827352     0.0000645    0.0002141     0.0000682    0.0002134    -0.0159215   -0.0578059 
   0.723212500    -0.0134478   -0.0826023     0.0000705    0.0002117     0.0000622    0.0002088    -0.0166032   -0.0577778 
   0.728200000    -0.0142489   -0.0824603     0.0000675    0.0002146     0.0000682    0.0002091    -0.0171380   -0.0578159 
   0.733187500    -0.0152967   -0.0823417     0.0000780    0.0002149     0.0000707    0.0002094    -0.0179305   -0.0574996 
   0.738175000    -0.0161891   -0.0821623     0.0000734    0.0002264     0.0000806    0.0002182    -0.0187445   -0.0575600 
   0.743162500    -0.0169183   -0.0820337     0.0000756    0.0002144     0.0000766    0.0002144    -0.0193553   -0.0576560 
   0.748150000    -0.0176828   -0.0819780     0.0000776    0.0002145     0.0000773    0.0002269    -0.0199830   -0.0575608 
   0.753137500    -0.0184644   -0.0816984     0.0000743    0.0002217     0.0000789    0.0002180    -0.0207672   -0.0575456 
   0.758125000    -0.0191728   -0.0814142     0.0000797    0.0002279     0.0000837    0.0002292    -0.0214913   -0.0574124 
   0.763112500    -0.0198882   -0.0811086     0.0000780    0.0002255     0.0000788    0.0002203    -0.0221783   -0.0574419 
   0.768100000    -0.0206477   -0.0808498     0.0000815    0.0002288     0.0000802    0.0002304    -0.0228916   -0.0572840 
   0.773087500    -0.0214581   -0.0804433     0.0000872    0.0002309     0.0000837    0.0002277    -0.0235573   -0.0573090 
   0.778075000    -0.0222150   -0.0801265     0.0000815    0.0002322     0.0000820    0.0002267    -0.0242286   -0.0571690 
   0.783062500    -0.0229157   -0.0796935     0.0000926    0.0002329     0.0000845    0.0002361    -0.0248461   -0.0571729 
   0.788050000    -0.0236975   -0.0791754     0.0000863    0.0002320     0.0000889    0.0002424    -0.0254627   -0.0570165 
   0.793037500    -0.0246280   -0.0789061     0.0000914    0.0002434     0.0000837    0.0002315    -0.0260672   -0.0568283 
