! 5/5/2016 4:52:43 PM
! C:\ANRITSUVNA\DATA\PSEMI-SP4T-STATE01-P4-P2.S2P
! CHANNEL.1
! TR.MEASUREMENT
! CORRECTED.DATA
# GHZ S RI R 50.0
! FREQ.GHZ         S11RE         S11IM         S21RE         S21IM         S12RE         S12IM         S22RE         S22IM         
!; PortSelection: Port_12
   0.010000000     0.0362340   -0.0019573    -0.0000219   -0.0000031     0.0000024    0.0000063     0.0663042   -0.0036272 
   0.014987500     0.0358607   -0.0014991     0.0000158    0.0000229     0.0000034    0.0000215     0.0655735   -0.0013575 
   0.019975000     0.0360322   -0.0020374     0.0000003    0.0000230     0.0000064    0.0000186     0.0657859   -0.0019335 
   0.024962500     0.0360421   -0.0025101     0.0000112    0.0000289     0.0000009    0.0000267     0.0659889   -0.0025446 
   0.029950000     0.0360859   -0.0031548     0.0000002    0.0000388    -0.0000001    0.0000397     0.0662639   -0.0031030 
   0.034937500     0.0361829   -0.0037250    -0.0000062    0.0000384    -0.0000029    0.0000426     0.0663366   -0.0037988 
   0.039925000     0.0360829   -0.0042318    -0.0000047    0.0000389     0.0000007    0.0000455     0.0664475   -0.0044560 
   0.044912500     0.0361025   -0.0048544     0.0000101    0.0000453    -0.0000025    0.0000559     0.0665193   -0.0050240 
   0.049900000     0.0361123   -0.0053695     0.0000060    0.0000573     0.0000040    0.0000553     0.0665472   -0.0056922 
   0.054887500     0.0360718   -0.0060070     0.0000029    0.0000640     0.0000030    0.0000661     0.0665784   -0.0063791 
   0.059875000     0.0360027   -0.0067369    -0.0000014    0.0000789     0.0000042    0.0000647     0.0667379   -0.0071255 
   0.064862500     0.0360456   -0.0074159     0.0000080    0.0000754     0.0000018    0.0000694     0.0667600   -0.0078496 
   0.069850000     0.0360546   -0.0079944     0.0000103    0.0000809     0.0000075    0.0000772     0.0668680   -0.0086143 
   0.074837500     0.0361257   -0.0085575     0.0000108    0.0000907     0.0000139    0.0000876     0.0667923   -0.0094155 
   0.079825000     0.0361442   -0.0090445     0.0000015    0.0000937     0.0000122    0.0000894     0.0668672   -0.0101393 
   0.084812500     0.0361563   -0.0095996     0.0000069    0.0000987     0.0000077    0.0000984     0.0668210   -0.0108702 
   0.089800000     0.0360426   -0.0102318     0.0000131    0.0001035     0.0000051    0.0001081     0.0668896   -0.0116439 
   0.094787500     0.0360162   -0.0108248     0.0000063    0.0001099     0.0000143    0.0001143     0.0669706   -0.0124470 
   0.099775000     0.0360744   -0.0112721     0.0000124    0.0001133     0.0000140    0.0001214     0.0669643   -0.0131433 
   0.104762500     0.0358963   -0.0118681     0.0000086    0.0001146     0.0000138    0.0001166     0.0668899   -0.0139468 
   0.109750000     0.0357441   -0.0124087     0.0000074    0.0001146     0.0000093    0.0001178     0.0668868   -0.0148501 
   0.114737500     0.0357992   -0.0129544    -0.0000128    0.0001167    -0.0000144    0.0001271     0.0668758   -0.0156094 
   0.119725000     0.0354572   -0.0134163    -0.0000003    0.0001499     0.0000033    0.0001529     0.0667676   -0.0163788 
   0.124712500     0.0352921   -0.0140855     0.0000018    0.0001533     0.0000104    0.0001503     0.0666139   -0.0173708 
   0.129700000     0.0351781   -0.0147842     0.0000103    0.0001549     0.0000090    0.0001515     0.0666435   -0.0182124 
   0.134687500     0.0349366   -0.0153973     0.0000149    0.0001631     0.0000192    0.0001513     0.0666067   -0.0192181 
   0.139675000     0.0347551   -0.0159278     0.0000206    0.0001628     0.0000195    0.0001607     0.0665804   -0.0199285 
   0.144662500     0.0345988   -0.0165572     0.0000175    0.0001689     0.0000236    0.0001650     0.0666028   -0.0207876 
   0.149650000     0.0344728   -0.0172622     0.0000261    0.0001732     0.0000279    0.0001715     0.0664827   -0.0216499 
   0.154637500     0.0343301   -0.0178462     0.0000280    0.0001840     0.0000294    0.0001760     0.0665241   -0.0225662 
   0.159625000     0.0342511   -0.0184945     0.0000270    0.0001928     0.0000306    0.0001827     0.0665764   -0.0232864 
   0.164612500     0.0341651   -0.0191848     0.0000331    0.0001969     0.0000391    0.0001910     0.0666089   -0.0239554 
   0.169600000     0.0340889   -0.0197359     0.0000371    0.0002051     0.0000437    0.0001931     0.0665259   -0.0247936 
   0.174587500     0.0338868   -0.0203417     0.0000360    0.0002043     0.0000418    0.0002060     0.0665471   -0.0255281 
   0.179575000     0.0337943   -0.0208587     0.0000414    0.0002051     0.0000401    0.0002075     0.0665640   -0.0261918 
   0.184562500     0.0335619   -0.0214043     0.0000430    0.0002212     0.0000457    0.0002142     0.0663574   -0.0269705 
   0.189550000     0.0333391   -0.0218253     0.0000500    0.0002150     0.0000502    0.0002206     0.0661476   -0.0277233 
   0.194537500     0.0331904   -0.0223020     0.0000545    0.0002193     0.0000472    0.0002210     0.0658600   -0.0284482 
   0.199525000     0.0329609   -0.0228342     0.0000530    0.0002218     0.0000498    0.0002159     0.0656114   -0.0291067 
   0.204512500     0.0326107   -0.0233534     0.0000513    0.0002256     0.0000556    0.0002226     0.0653339   -0.0299899 
   0.209500000     0.0323413   -0.0239692     0.0000514    0.0002212     0.0000522    0.0002247     0.0652371   -0.0308491 
   0.214487500     0.0321235   -0.0243717     0.0000528    0.0002327     0.0000545    0.0002267     0.0649440   -0.0315535 
   0.219475000     0.0318247   -0.0249703     0.0000599    0.0002251     0.0000542    0.0002243     0.0646692   -0.0323236 
   0.224462500     0.0315681   -0.0254034     0.0000393    0.0002265     0.0000323    0.0002237     0.0643254   -0.0331452 
   0.229450000     0.0312722   -0.0259971     0.0000224    0.0002596     0.0000190    0.0002552     0.0640518   -0.0339143 
   0.234437500     0.0309212   -0.0265134     0.0000391    0.0002815     0.0000451    0.0002739     0.0637813   -0.0348191 
   0.239425000     0.0306398   -0.0271794     0.0000507    0.0002869     0.0000641    0.0002866     0.0634991   -0.0355660 
   0.244412500     0.0300769   -0.0278526     0.0000573    0.0002867     0.0000692    0.0002879     0.0632105   -0.0366145 
   0.249400000     0.0299253   -0.0284954     0.0000684    0.0002941     0.0000779    0.0002908     0.0629073   -0.0374272 
   0.254387500     0.0295438   -0.0291594     0.0000772    0.0003014     0.0000755    0.0002995     0.0626135   -0.0382947 
   0.259375000     0.0292430   -0.0297495     0.0000760    0.0003040     0.0000828    0.0003073     0.0622747   -0.0391584 
   0.264362500     0.0290075   -0.0302633     0.0000873    0.0003076     0.0000882    0.0003040     0.0618855   -0.0401206 
   0.269350000     0.0287594   -0.0308379     0.0000842    0.0003129     0.0000970    0.0003119     0.0616997   -0.0409417 
   0.274337500     0.0285720   -0.0314781     0.0000957    0.0003100     0.0000925    0.0003110     0.0613871   -0.0417154 
   0.279325000     0.0281474   -0.0320422     0.0000966    0.0003168     0.0000989    0.0003112     0.0611890   -0.0426343 
   0.284312500     0.0278553   -0.0326548     0.0000962    0.0003193     0.0001016    0.0003143     0.0607363   -0.0436208 
   0.289300000     0.0275968   -0.0331617     0.0001023    0.0003220     0.0000981    0.0003165     0.0604562   -0.0445246 
   0.294287500     0.0273791   -0.0337010     0.0001079    0.0003234     0.0001048    0.0003172     0.0602814   -0.0453368 
   0.299275000     0.0270366   -0.0342024     0.0001092    0.0003201     0.0001118    0.0003198     0.0599260   -0.0460827 
   0.304262500     0.0267917   -0.0345745     0.0001184    0.0003276     0.0001131    0.0003170     0.0595546   -0.0468448 
   0.309250000     0.0264127   -0.0350962     0.0001138    0.0003269     0.0001181    0.0003263     0.0593348   -0.0476434 
   0.314237500     0.0261930   -0.0356176     0.0001210    0.0003316     0.0001207    0.0003236     0.0590178   -0.0483799 
   0.319225000     0.0258197   -0.0360822     0.0001272    0.0003389     0.0001232    0.0003334     0.0585698   -0.0490353 
   0.324212500     0.0256183   -0.0365677     0.0001330    0.0003338     0.0001301    0.0003261     0.0583001   -0.0498556 
   0.329200000     0.0252366   -0.0369968     0.0001296    0.0003295     0.0001279    0.0003273     0.0579856   -0.0505167 
   0.334187500     0.0249215   -0.0373088     0.0001372    0.0003300     0.0001296    0.0003224     0.0575961   -0.0510657 
   0.339175000     0.0245094   -0.0377656     0.0001265    0.0003266     0.0001149    0.0003281     0.0570959   -0.0517858 
   0.344162500     0.0241935   -0.0381862     0.0001120    0.0003324     0.0001048    0.0003463     0.0566398   -0.0525595 
   0.349150000     0.0237103   -0.0386165     0.0000969    0.0003578     0.0001160    0.0003724     0.0561170   -0.0531304 
   0.354137500     0.0233717   -0.0390965     0.0001066    0.0003715     0.0001176    0.0003830     0.0554395   -0.0538059 
   0.359125000     0.0229473   -0.0395185     0.0001195    0.0003842     0.0001299    0.0003865     0.0547547   -0.0544811 
   0.364112500     0.0223978   -0.0400089     0.0001339    0.0003888     0.0001394    0.0003889     0.0541527   -0.0552461 
   0.369100000     0.0219708   -0.0404424     0.0001447    0.0003915     0.0001478    0.0003943     0.0535985   -0.0561519 
   0.374087500     0.0216635   -0.0408940     0.0001493    0.0004007     0.0001510    0.0004004     0.0529124   -0.0569565 
   0.379075000     0.0211008   -0.0413397     0.0001642    0.0003951     0.0001613    0.0003915     0.0522070   -0.0576192 
   0.384062500     0.0206442   -0.0417023     0.0001737    0.0003901     0.0001737    0.0003865     0.0515952   -0.0585751 
   0.389050000     0.0202865   -0.0420894     0.0001835    0.0004028     0.0001846    0.0003985     0.0511390   -0.0594574 
   0.394037500     0.0198980   -0.0425098     0.0001919    0.0003992     0.0001891    0.0003937     0.0505615   -0.0602684 
   0.399025000     0.0194798   -0.0430981     0.0002031    0.0004023     0.0001962    0.0003939     0.0499108   -0.0611478 
   0.404012500     0.0191015   -0.0434601     0.0001980    0.0004081     0.0002062    0.0004007     0.0495202   -0.0619726 
   0.409000000     0.0187293   -0.0438003     0.0002133    0.0004127     0.0002131    0.0004085     0.0490589   -0.0628632 
   0.413987500     0.0181419   -0.0442409     0.0002220    0.0004154     0.0002278    0.0004135     0.0487419   -0.0634377 
   0.418975000     0.0177928   -0.0445764     0.0002278    0.0004143     0.0002264    0.0004125     0.0482448   -0.0641655 
   0.423962500     0.0172657   -0.0449514     0.0002376    0.0004168     0.0002313    0.0004133     0.0477039   -0.0648029 
   0.428950000     0.0167548   -0.0452558     0.0002447    0.0004154     0.0002500    0.0004173     0.0472177   -0.0655166 
   0.433937500     0.0162325   -0.0453671     0.0002571    0.0004151     0.0002492    0.0004080     0.0467212   -0.0660025 
   0.438925000     0.0156663   -0.0457578     0.0002644    0.0004218     0.0002532    0.0004155     0.0460747   -0.0664157 
   0.443912500     0.0150080   -0.0461753     0.0002711    0.0004137     0.0002603    0.0004109     0.0453578   -0.0668868 
   0.448900000     0.0143864   -0.0465686     0.0002740    0.0004157     0.0002629    0.0004033     0.0445663   -0.0675813 
   0.453887500     0.0138224   -0.0468139     0.0002808    0.0004087     0.0002741    0.0004027     0.0439877   -0.0680700 
   0.458875000     0.0132508   -0.0472672     0.0002849    0.0004009     0.0002709    0.0003973     0.0431873   -0.0685929 
   0.463862500     0.0126543   -0.0476841     0.0002906    0.0004009     0.0002762    0.0003929     0.0423196   -0.0692742 
   0.468850000     0.0121548   -0.0483077     0.0002938    0.0004037     0.0002750    0.0003911     0.0415270   -0.0697944 
   0.473837500     0.0116189   -0.0487316     0.0002882    0.0004108     0.0002769    0.0004070     0.0408081   -0.0704741 
   0.478825000     0.0111901   -0.0491833     0.0002804    0.0004207     0.0002870    0.0004137     0.0399457   -0.0712090 
   0.483812500     0.0105998   -0.0496963     0.0002929    0.0004337     0.0002852    0.0004224     0.0391326   -0.0721286 
   0.488800000     0.0103592   -0.0502362     0.0003109    0.0004404     0.0003079    0.0004321     0.0383356   -0.0728648 
   0.493787500     0.0099940   -0.0505675     0.0003206    0.0004513     0.0003154    0.0004382     0.0377716   -0.0735407 
   0.498775000     0.0096949   -0.0510603     0.0003246    0.0004510     0.0003269    0.0004465     0.0371439   -0.0742870 
   0.503762500     0.0092876   -0.0513751     0.0003278    0.0004602     0.0003303    0.0004541     0.0365490   -0.0749021 
   0.508750000     0.0089353   -0.0515854     0.0003437    0.0004594     0.0003371    0.0004580     0.0359514   -0.0755692 
   0.513737500     0.0085319   -0.0518336     0.0003424    0.0004714     0.0003464    0.0004698     0.0353569   -0.0760736 
   0.518725000     0.0081755   -0.0519606     0.0003528    0.0004696     0.0003627    0.0004662     0.0346972   -0.0766697 
   0.523712500     0.0079235   -0.0520766     0.0003644    0.0004795     0.0003673    0.0004709     0.0341705   -0.0771527 
   0.528700000     0.0072482   -0.0520905     0.0003735    0.0004794     0.0003734    0.0004726     0.0334582   -0.0774461 
   0.533687500     0.0066217   -0.0522873     0.0003880    0.0004816     0.0003802    0.0004826     0.0326778   -0.0778224 
   0.538675000     0.0061218   -0.0521880     0.0003967    0.0004837     0.0003906    0.0004778     0.0320072   -0.0781090 
   0.543662500     0.0055923   -0.0523142     0.0004064    0.0004930     0.0004051    0.0004870     0.0311705   -0.0785802 
   0.548650000     0.0050272   -0.0523900     0.0004186    0.0004963     0.0004044    0.0004881     0.0304357   -0.0788703 
   0.553637500     0.0043668   -0.0524461     0.0004255    0.0004932     0.0004238    0.0004888     0.0294547   -0.0790459 
   0.558625000     0.0035675   -0.0525751     0.0004402    0.0004997     0.0004330    0.0004832     0.0283693   -0.0794778 
   0.563612500     0.0028616   -0.0526904     0.0004462    0.0005046     0.0004442    0.0004895     0.0273545   -0.0800194 
   0.568600000     0.0021204   -0.0530607     0.0004508    0.0005118     0.0004556    0.0004961     0.0265565   -0.0805024 
   0.573587500     0.0013776   -0.0531681     0.0004595    0.0005227     0.0004670    0.0005031     0.0254410   -0.0808461 
   0.578575000     0.0006666   -0.0534955     0.0004707    0.0005265     0.0004778    0.0005076     0.0244500   -0.0815128 
   0.583562500    -0.0000577   -0.0537728     0.0004829    0.0005291     0.0004862    0.0005082     0.0235258   -0.0821032 
   0.588550000    -0.0008418   -0.0539169     0.0004945    0.0005367     0.0004996    0.0005187     0.0226759   -0.0825442 
   0.593537500    -0.0014201   -0.0541720     0.0005042    0.0005346     0.0005085    0.0005175     0.0217459   -0.0830797 
   0.598525000    -0.0020118   -0.0544811     0.0005039    0.0005346     0.0005184    0.0005195     0.0208603   -0.0836936 
   0.603512500    -0.0026380   -0.0548177     0.0005265    0.0005335     0.0005258    0.0005195     0.0200530   -0.0841445 
   0.608500000    -0.0033669   -0.0550411     0.0005368    0.0005296     0.0005312    0.0005172     0.0192042   -0.0847190 
   0.613487500    -0.0039138   -0.0551820     0.0005382    0.0005368     0.0005329    0.0005160     0.0185764   -0.0852364 
   0.618475000    -0.0046349   -0.0555241     0.0005466    0.0005223     0.0005391    0.0005176     0.0176944   -0.0857688 
   0.623462500    -0.0050052   -0.0557675     0.0005585    0.0005247     0.0005449    0.0005121     0.0170316   -0.0862424 
   0.628450000    -0.0055165   -0.0559635     0.0005556    0.0005282     0.0005456    0.0005149     0.0165275   -0.0864982 
   0.633437500    -0.0059876   -0.0561612     0.0005550    0.0005286     0.0005470    0.0005183     0.0157501   -0.0867328 
   0.638425000    -0.0065412   -0.0562101     0.0005673    0.0005210     0.0005544    0.0005158     0.0151466   -0.0869144 
   0.643412500    -0.0069439   -0.0562914     0.0005718    0.0005351     0.0005584    0.0005190     0.0143657   -0.0870381 
   0.648400000    -0.0076032   -0.0564427     0.0005768    0.0005414     0.0005690    0.0005232     0.0135279   -0.0871319 
   0.653387500    -0.0081741   -0.0565710     0.0005810    0.0005430     0.0005737    0.0005335     0.0126432   -0.0871534 
   0.658375000    -0.0087557   -0.0566635     0.0005848    0.0005335     0.0005864    0.0005226     0.0115309   -0.0872464 
   0.663362500    -0.0092026   -0.0567666     0.0005943    0.0005490     0.0005918    0.0005302     0.0104878   -0.0873964 
   0.668350000    -0.0098112   -0.0570008     0.0005981    0.0005509     0.0005975    0.0005253     0.0094449   -0.0875765 
   0.673337500    -0.0104069   -0.0570016     0.0005978    0.0005507     0.0005999    0.0005434     0.0083733   -0.0876617 
   0.678325000    -0.0110723   -0.0569414     0.0006014    0.0005545     0.0005962    0.0005440     0.0073534   -0.0878351 
   0.683312500    -0.0117895   -0.0571465     0.0006131    0.0005539     0.0006124    0.0005498     0.0061540   -0.0881031 
   0.688300000    -0.0122473   -0.0572275     0.0006201    0.0005591     0.0006147    0.0005527     0.0049608   -0.0884335 
   0.693287500    -0.0129303   -0.0572222     0.0006159    0.0005623     0.0006212    0.0005579     0.0039525   -0.0888285 
   0.698275000    -0.0134688   -0.0573233     0.0006320    0.0005639     0.0006262    0.0005597     0.0029534   -0.0891924 
   0.703262500    -0.0141385   -0.0574249     0.0006378    0.0005675     0.0006355    0.0005647     0.0018593   -0.0894890 
   0.708250000    -0.0145982   -0.0574852     0.0006490    0.0005774     0.0006427    0.0005622     0.0009660   -0.0898520 
   0.713237500    -0.0150917   -0.0575311     0.0006568    0.0005759     0.0006574    0.0005676     0.0001852   -0.0902308 
   0.718225000    -0.0157897   -0.0575118     0.0006583    0.0005802     0.0006605    0.0005618    -0.0007557   -0.0904975 
   0.723212500    -0.0162686   -0.0575019     0.0006759    0.0005837     0.0006848    0.0005643    -0.0017265   -0.0908253 
   0.728200000    -0.0167403   -0.0574403     0.0006889    0.0005762     0.0006968    0.0005718    -0.0023493   -0.0910014 
   0.733187500    -0.0173695   -0.0574321     0.0007026    0.0005836     0.0007108    0.0005612    -0.0031894   -0.0910750 
   0.738175000    -0.0180469   -0.0573376     0.0007119    0.0005761     0.0007183    0.0005535    -0.0041058   -0.0911098 
   0.743162500    -0.0185776   -0.0572846     0.0007280    0.0005679     0.0007350    0.0005499    -0.0049264   -0.0913718 
   0.748150000    -0.0191030   -0.0572768     0.0007390    0.0005599     0.0007447    0.0005431    -0.0056232   -0.0913981 
   0.753137500    -0.0196443   -0.0571258     0.0007396    0.0005588     0.0007439    0.0005332    -0.0064005   -0.0914330 
   0.758125000    -0.0203051   -0.0569758     0.0007459    0.0005517     0.0007411    0.0005349    -0.0072920   -0.0912308 
   0.763112500    -0.0208341   -0.0567190     0.0007505    0.0005438     0.0007418    0.0005279    -0.0083358   -0.0912172 
   0.768100000    -0.0215196   -0.0566442     0.0007479    0.0005440     0.0007467    0.0005376    -0.0092600   -0.0911264 
   0.773087500    -0.0221726   -0.0564829     0.0007548    0.0005463     0.0007502    0.0005358    -0.0102400   -0.0910727 
   0.778075000    -0.0228096   -0.0562741     0.0007598    0.0005477     0.0007582    0.0005290    -0.0112411   -0.0908915 
   0.783062500    -0.0234238   -0.0561509     0.0007700    0.0005367     0.0007623    0.0005354    -0.0123997   -0.0909383 
   0.788050000    -0.0241328   -0.0559206     0.0007776    0.0005377     0.0007668    0.0005315    -0.0134415   -0.0908095 
   0.793037500    -0.0248854   -0.0559184     0.0007847    0.0005345     0.0007811    0.0005317    -0.0144510   -0.0909206 
