! 9/28/2016 1:02:55 PM
! C:\USERS\ANRITSUUSER\DESKTOP\SWITCHES\DESIGN1-RF1-RF2-ON.S2P
! CHANNEL.1
! TR.MEASUREMENT
! CORRECTED.DATA
# GHZ S RI R 50.0
! FREQ.GHZ         S11RE         S11IM         S21RE         S21IM         S12RE         S12IM         S22RE         S22IM         
!; PortSelection: Port_12
   0.010000000     0.9463212   -0.1731254     0.0247553    0.1148758     0.0245415    0.1143312     0.9571116   -0.2459614 
   0.029950000     0.7898450   -0.4258289     0.1802952    0.2755648     0.1791974    0.2754413     0.7113942   -0.5918220 
   0.049900000     0.5768606   -0.5628847     0.3997147    0.2938356     0.3985154    0.2941736     0.3691391   -0.7464468 
   0.069850000     0.3770284   -0.6009083     0.5817285    0.1934977     0.5805008    0.1937760     0.0600524   -0.7304427 
   0.089800000     0.2184842   -0.5797206     0.6923810    0.0331108     0.6909509    0.0335638    -0.1645435   -0.6175200 
   0.109750000     0.1010876   -0.5355150     0.7321419   -0.1489297     0.7308462   -0.1477584    -0.3067223   -0.4705728 
   0.129700000     0.0165730   -0.4842325     0.7119588   -0.3237499     0.7112328   -0.3217740    -0.3799040   -0.3213866 
   0.149650000    -0.0450396   -0.4333479     0.6490918   -0.4764204     0.6482064   -0.4747389    -0.4038302   -0.1853885 
   0.169600000    -0.0909185   -0.3826974     0.5583302   -0.6062230     0.5564407   -0.6031978    -0.3936297   -0.0670936 
   0.189550000    -0.1272608   -0.3350166     0.4411702   -0.7121040     0.4403744   -0.7073750    -0.3653643    0.0301991 
   0.209500000    -0.1552871   -0.2909202     0.3088748   -0.7873104     0.3097887   -0.7822158    -0.3224989    0.1066004 
   0.229450000    -0.1760834   -0.2497858     0.1684667   -0.8340839     0.1705909   -0.8296130    -0.2699791    0.1622645 
   0.249400000    -0.1901196   -0.2086596     0.0261998   -0.8553328     0.0291607   -0.8516137    -0.2122246    0.2026711 
   0.269350000    -0.2009687   -0.1663163    -0.1154863   -0.8505678    -0.1123234   -0.8475145    -0.1540786    0.2292199 
   0.289300000    -0.2079320   -0.1259715    -0.2530914   -0.8247113    -0.2477420   -0.8214268    -0.1003401    0.2429739 
   0.309250000    -0.2093088   -0.0877705    -0.3849833   -0.7736174    -0.3777755   -0.7736735    -0.0505922    0.2453431 
   0.329200000    -0.2035064   -0.0515446    -0.5024397   -0.7013925    -0.4977933   -0.7048274    -0.0046393    0.2391991 
   0.349150000    -0.1908970   -0.0158822    -0.6034398   -0.6152614    -0.6019257   -0.6166055     0.0367282    0.2265269 
   0.369100000    -0.1752091    0.0174665    -0.6943536   -0.5182206    -0.6894037   -0.5176592     0.0707218    0.2099022 
   0.389050000    -0.1551731    0.0457506    -0.7698686   -0.4016680    -0.7632158   -0.4068033     0.0986223    0.1879982 
   0.409000000    -0.1303111    0.0676561    -0.8188890   -0.2748271    -0.8189889   -0.2828603     0.1221367    0.1629950 
   0.428950000    -0.1022267    0.0852760    -0.8458228   -0.1504339    -0.8498784   -0.1519687     0.1416102    0.1379136 
   0.448900000    -0.0724980    0.0968550    -0.8629017   -0.0252372    -0.8607045   -0.0233171     0.1555398    0.1122935 
   0.468850000    -0.0447694    0.1006375    -0.8609136    0.1103958    -0.8562514    0.1057001     0.1628838    0.0842750 
   0.488800000    -0.0182036    0.0963754    -0.8283187    0.2430034    -0.8306038    0.2362193     0.1652135    0.0548587 
   0.508750000     0.0069391    0.0880784    -0.7779931    0.3580745    -0.7822229    0.3583896     0.1659014    0.0270019 
   0.528700000     0.0286747    0.0772324    -0.7201505    0.4658301    -0.7180780    0.4682702     0.1632211    0.0009700 
   0.548650000     0.0435308    0.0645456    -0.6468046    0.5731948    -0.6432798    0.5691350     0.1535236   -0.0258962 
   0.568600000     0.0523352    0.0481234    -0.5472472    0.6658459    -0.5498825    0.6604804     0.1370202   -0.0512630 
   0.588550000     0.0580949    0.0317004    -0.4401058    0.7325277    -0.4436091    0.7329825     0.1183119   -0.0735055 
   0.608500000     0.0612616    0.0178595    -0.3316488    0.7875419    -0.3298081    0.7882270     0.0968125   -0.0902389 
   0.628450000     0.0594947    0.0081259    -0.2131278    0.8329862    -0.2112197    0.8282311     0.0702783   -0.1016601 
   0.648400000     0.0545699    0.0005449    -0.0814597    0.8551932    -0.0851088    0.8503578     0.0389792   -0.1096793 
   0.668350000     0.0501813   -0.0054879     0.0448354    0.8533074     0.0406384    0.8529658     0.0063736   -0.1147335 
   0.688300000     0.0484912   -0.0091797     0.1673635    0.8366029     0.1674965    0.8357958    -0.0242024   -0.1108459 
   0.708250000     0.0488220   -0.0085747     0.2894454    0.8065250     0.2876626    0.8008446    -0.0522547   -0.0993958 
   0.728200000     0.0498709   -0.0052505     0.4100653    0.7519458     0.4026244    0.7481978    -0.0800745   -0.0813249 
   0.748150000     0.0541285   -0.0036256     0.5150086    0.6774657     0.5079634    0.6798857    -0.1058480   -0.0592074 
   0.768100000     0.0628035   -0.0051623     0.6037537    0.5926582     0.6027077    0.5952458    -0.1258017   -0.0342447 
   0.788050000     0.0741737   -0.0087490     0.6836129    0.5005850     0.6811219    0.4975697    -0.1398075   -0.0055994 
   0.808000000     0.0865789   -0.0143683     0.7534349    0.3920210     0.7433383    0.3904647    -0.1491455    0.0270384 
   0.827950000     0.0983997   -0.0250370     0.7999005    0.2704125     0.7896257    0.2775941    -0.1537280    0.0615398 
   0.847900000     0.1098884   -0.0420997     0.8219194    0.1485168     0.8194427    0.1586258    -0.1512774    0.0950516 
   0.867850000     0.1191568   -0.0638670     0.8305075    0.0317973     0.8306627    0.0373063    -0.1412189    0.1284424 
   0.887800000     0.1241995   -0.0878319     0.8276672   -0.0884633     0.8241439   -0.0840016    -0.1257238    0.1612822 
   0.907750000     0.1225842   -0.1150063     0.8030254   -0.2124452     0.7991914   -0.2023020    -0.1054573    0.1916722 
   0.927700000     0.1141693   -0.1455788     0.7542134   -0.3263068     0.7570924   -0.3120354    -0.0801512    0.2167816 
   0.947650000     0.0991871   -0.1759589     0.6935354   -0.4238210     0.7051190   -0.4131240    -0.0488738    0.2358461 
   0.967600000     0.0782195   -0.2017975     0.6279477   -0.5131716     0.6412796   -0.5122192    -0.0148023    0.2504036 
   0.987550000     0.0493889   -0.2230411     0.5493826   -0.6001843     0.5548865   -0.6030462     0.0214608    0.2597607 
   1.007500000     0.0148536   -0.2399465     0.4517439   -0.6740184     0.4559118   -0.6683120     0.0582840    0.2608962 
   1.027450000    -0.0224828   -0.2511751     0.3438534   -0.7224661     0.3617380   -0.7177729     0.0963252    0.2542134 
   1.047400000    -0.0589600   -0.2535463     0.2440405   -0.7529524     0.2637724   -0.7695280     0.1329099    0.2404634 
   1.067350000    -0.0968856   -0.2479779     0.1452643   -0.7828054     0.1404196   -0.8065180     0.1660792    0.2227510 
   1.087300000    -0.1359168   -0.2333044     0.0299087   -0.8069895     0.0159130   -0.8074814     0.1947433    0.1967623 
   1.107250000    -0.1696756   -0.2126454    -0.0967727   -0.7982846    -0.0889076   -0.7932185     0.2183023    0.1639835 
   1.127200000    -0.1965604   -0.1869784    -0.2024496   -0.7647101    -0.1932918   -0.7844912     0.2370183    0.1271961 
   1.147150000    -0.2170915   -0.1561633    -0.2946491   -0.7342416    -0.3166023   -0.7554167     0.2476064    0.0907149 
   1.167100000    -0.2327630   -0.1201492    -0.4030307   -0.7027857    -0.4278333   -0.6908396     0.2481194    0.0519208 
   1.187050000    -0.2388788   -0.0861820    -0.5161331   -0.6336782    -0.5120511   -0.6169909     0.2380322    0.0128320 
   1.207000000    -0.2382110   -0.0561203    -0.5970993   -0.5409566    -0.5917345   -0.5479339     0.2220441   -0.0271985 
   1.226950000    -0.2302812   -0.0285100    -0.6586168   -0.4570330    -0.6760317   -0.4606394     0.1993090   -0.0620119 
   1.246900000    -0.2181980   -0.0022031    -0.7283810   -0.3699301    -0.7394485   -0.3498482     0.1692315   -0.0892875 
   1.266850000    -0.2025735    0.0172117    -0.7890414   -0.2509048    -0.7781907   -0.2345600     0.1315741   -0.1077403 
   1.286800000    -0.1882177    0.0284332    -0.8114711   -0.1224044    -0.8021482   -0.1218661     0.0904718   -0.1202558 
   1.306750000    -0.1735382    0.0349658    -0.8154398   -0.0073887    -0.8132849   -0.0037966     0.0480530   -0.1231066 
   1.326700000    -0.1590173    0.0387014    -0.8141618    0.1113065    -0.8054907    0.1165796     0.0083703   -0.1121086 
   1.346650000    -0.1477600    0.0385198    -0.7894869    0.2382620    -0.7803473    0.2339892    -0.0256655   -0.0937778 
   1.366600000    -0.1445630    0.0330130    -0.7369871    0.3531366    -0.7372451    0.3492780    -0.0601120   -0.0729905 
   1.386550000    -0.1473622    0.0289468    -0.6773182    0.4533548    -0.6745804    0.4570716    -0.0915961   -0.0457622 
   1.406500000    -0.1531457    0.0280877    -0.6044977    0.5521867    -0.5937488    0.5495549    -0.1138638   -0.0084326 
   1.426450000    -0.1628173    0.0319702    -0.5063238    0.6396970    -0.5049081    0.6272145    -0.1253631    0.0330411 
   1.446400000    -0.1746287    0.0417409    -0.3952621    0.6969765    -0.4045004    0.6947320    -0.1293774    0.0763307 
   1.466350000    -0.1859878    0.0574363    -0.2929746    0.7352325    -0.2914534    0.7444146    -0.1251095    0.1180907 
   1.486300000    -0.1920711    0.0791234    -0.1872230    0.7720013    -0.1732544    0.7686564    -0.1104062    0.1560696 
   1.506250000    -0.1930845    0.1057644    -0.0626590    0.7926941    -0.0630577    0.7752030    -0.0880722    0.1890905 
   1.526200000    -0.1902376    0.1367416     0.0600394    0.7738202     0.0478534    0.7716963    -0.0597239    0.2178093 
   1.546150000    -0.1782409    0.1700064     0.1554228    0.7393469     0.1558431    0.7540604    -0.0263879    0.2395843 
   1.566100000    -0.1563503    0.1991126     0.2409115    0.7201441     0.2625365    0.7178214     0.0086119    0.2531176 
   1.586050000    -0.1255325    0.2239983     0.3550544    0.6930023     0.3581948    0.6665669     0.0427796    0.2591084 
   1.606000000    -0.0889975    0.2442560     0.4654523    0.6126112     0.4417826    0.6039595     0.0741657    0.2591467 
   1.625950000    -0.0453601    0.2561418     0.5212114    0.5189613     0.5130543    0.5384335     0.1049725    0.2511175 
   1.645900000    -0.0003766    0.2530842     0.5616666    0.4661328     0.5844710    0.4710834     0.1273623    0.2356103 
   1.665850000     0.0415707    0.2449866     0.6505706    0.4172559     0.6578711    0.3829411     0.1465313    0.2296376 
   1.685800000     0.0880576    0.2301067     0.7441763    0.2870195     0.7020652    0.2711092     0.1708565    0.2175582 
   1.705750000     0.1303169    0.2029786     0.7446794    0.1341510     0.7209791    0.1740763     0.1871054    0.2011518 
   1.725700000     0.1625296    0.1626033     0.7084776    0.0538335     0.7467955    0.0819226     0.1977988    0.1790137 
   1.745650000     0.1843360    0.1222258     0.7322157    0.0061908     0.7655936   -0.0366728     0.2047279    0.1662770 
   1.765600000     0.2054354    0.0728211     0.7921294   -0.1227821     0.7406738   -0.1616295     0.2167701    0.1527716 
   1.785550000     0.2100231    0.0192767     0.7383841   -0.3092974     0.6982363   -0.2547292     0.2193750    0.1459443 
   1.805500000     0.1979901   -0.0350996     0.6068383   -0.3879309     0.6684269   -0.3476477     0.2271838    0.1313902 
   1.825450000     0.1778483   -0.0770681     0.5617070   -0.3853151     0.6117967   -0.4582550     0.2295460    0.1174340 
   1.845400000     0.1514538   -0.1257644     0.6080300   -0.4762095     0.5197001   -0.5442129     0.2507915    0.0995098 
   1.865350000     0.1093943   -0.1551036     0.4955871   -0.6887501     0.4303147   -0.5966913     0.2600100    0.0797936 
   1.885300000     0.0714589   -0.1762541     0.2656720   -0.6947872     0.3489982   -0.6504318     0.2713036    0.0603121 
   1.905250000     0.0326985   -0.1950392     0.2163861   -0.6108155     0.2477385   -0.6994539     0.2699264    0.0398374 
   1.925200000    -0.0210424   -0.2049375     0.2453764   -0.6843004     0.1365063   -0.7220821     0.2692244    0.0087944 
   1.945150000    -0.0639893   -0.1881877     0.0798132   -0.8314146     0.0349613   -0.7273547     0.2589866   -0.0205423 
   1.965100000    -0.0948775   -0.1757318    -0.1378360   -0.7633193    -0.0681527   -0.7274702     0.2561854   -0.0485026 
   1.985050000    -0.1277582   -0.1610996    -0.1849481   -0.6602254    -0.1752661   -0.7084313     0.2465295   -0.0829854 
   2.005000000    -0.1563133   -0.1348296    -0.2123224   -0.6861789    -0.2747906   -0.6752350     0.2174123   -0.1231250 
   2.024950000    -0.1690668   -0.1081629    -0.3794844   -0.7082129    -0.3751176   -0.6308957     0.1709750   -0.1531206 
   2.044900000    -0.1746043   -0.0861410    -0.5283019   -0.5777370    -0.4723417   -0.5620868     0.1181169   -0.1712702 
   2.064850000    -0.1800919   -0.0700093    -0.5585071   -0.4560518    -0.5453246   -0.4744408     0.0629799   -0.1831700 
   2.084800000    -0.1821498   -0.0500583    -0.5997088   -0.4054227    -0.6023296   -0.3918663    -0.0056927   -0.1756063 
   2.104750000    -0.1797930   -0.0403190    -0.6943740   -0.3090152    -0.6628596   -0.2984146    -0.0678270   -0.1449132 
   2.124700000    -0.1812184   -0.0324222    -0.7184725   -0.1486335    -0.7037452   -0.1745089    -0.1244075   -0.0950592 
   2.144650000    -0.1865043   -0.0291127    -0.6774881   -0.0456790    -0.6965986   -0.0483013    -0.1686077   -0.0325044 
   2.164600000    -0.1968457   -0.0180470    -0.6752927    0.0158495    -0.6662742    0.0450702    -0.1953238    0.0502649 
   2.184550000    -0.1979372   -0.0098252    -0.6852407    0.1323042    -0.6479794    0.1251767    -0.1882051    0.1332063 
   2.204500000    -0.2004206   -0.0081697    -0.6118059    0.2477905    -0.6222889    0.2203879    -0.1585151    0.2089615 
   2.224450000    -0.2115248   -0.0105426    -0.5377757    0.2822880    -0.5647421    0.3112135    -0.1149502    0.2674906 
   2.244400000    -0.2338059    0.0007407    -0.5295369    0.3142543    -0.4931362    0.3674059    -0.0644852    0.3193366 
   2.264350000    -0.2467521    0.0170171    -0.5190408    0.4220581    -0.4441986    0.4092338    -0.0063145    0.3498549 
   2.284300000    -0.2646627    0.0296485    -0.4082191    0.5247371    -0.3928818    0.4703519     0.0477219    0.3742144 
   2.304250000    -0.2829867    0.0497264    -0.2949158    0.5271448    -0.3100762    0.5246440     0.1104973    0.3889049 
   2.324200000    -0.2991946    0.0781011    -0.2586715    0.5212907    -0.2215030    0.5407637     0.1744800    0.3928000 
   2.344150000    -0.3075920    0.1117804    -0.2264600    0.5866038    -0.1575583    0.5475027     0.2379959    0.3807204 
   2.364100000    -0.3148032    0.1450591    -0.1056406    0.6532051    -0.0912421    0.5644522     0.2960753    0.3642941 
   2.384050000    -0.3174214    0.1855692     0.0273149    0.6237418    -0.0127225    0.5706461     0.3599719    0.3360813 
   2.404000000    -0.3082133    0.2282245     0.0839919    0.5722131     0.0606322    0.5586778     0.4138458    0.2930704 
   2.423950000    -0.2873494    0.2688411     0.1211856    0.5735053     0.1276074    0.5443410     0.4550031    0.2406549 
   2.443900000    -0.2599832    0.3040662     0.2112983    0.5911143     0.1963983    0.5185111     0.4836222    0.1815287 
   2.463850000    -0.2298523    0.3301931     0.3323790    0.5442649     0.2502108    0.4825722     0.5037338    0.1157929 
   2.483800000    -0.2024782    0.3520696     0.3957975    0.4510932     0.2964872    0.4622726     0.5137278    0.0419392 
   2.503750000    -0.1701633    0.3745719     0.4137974    0.3926294     0.3704132    0.4428473     0.5026927   -0.0323116 
   2.523700000    -0.1312670    0.3947490     0.4577239    0.3752552     0.4493895    0.3812928     0.4760109   -0.0944847 
   2.543650000    -0.0862463    0.4071797     0.5534673    0.3202226     0.4863108    0.3045868     0.4360432   -0.1470862 
   2.563600000    -0.0411867    0.4118676     0.6068478    0.1920117     0.5157269    0.2577786     0.3898548   -0.1899356 
   2.583550000     0.0078346    0.4033470     0.5832731    0.0896282     0.5782688    0.1987309     0.3320153   -0.2249088 
   2.603500000     0.0460119    0.3833458     0.5743845    0.0449669     0.6218177    0.0892087     0.2733798   -0.2365044 
   2.623450000     0.0782417    0.3624330     0.6101336   -0.0226663     0.6112729   -0.0146040     0.2213952   -0.2391024 
   2.643400000     0.1047258    0.3376744     0.6116403   -0.1428066     0.5984759   -0.0863655     0.1727204   -0.2353826 
   2.663350000     0.1233460    0.3078127     0.5529066   -0.2351959     0.5972225   -0.1706373     0.1258937   -0.2281298 
   2.683300000     0.1297575    0.2836897     0.5084409   -0.2820797     0.5694202   -0.2704509     0.0856593   -0.2137307 
   2.703250000     0.1379843    0.2658224     0.4891464   -0.3460479     0.5166684   -0.3512030     0.0469406   -0.1966466 
   2.723200000     0.1444997    0.2459711     0.4382359   -0.4355830     0.4672297   -0.4211817     0.0037689   -0.1712220 
   2.743150000     0.1437182    0.2265157     0.3538116   -0.4920666     0.4044896   -0.4983627    -0.0406937   -0.1352654 
   2.763100000     0.1402357    0.2145322     0.2859336   -0.5273522     0.3131673   -0.5615107    -0.0815393   -0.0910992 
   2.783050000     0.1407163    0.2067190     0.2107590   -0.5727173     0.2175126   -0.5895535    -0.1122817   -0.0299864 
   2.803000000     0.1420575    0.2019444     0.1138570   -0.5955479     0.1371677   -0.6109654    -0.1140486    0.0476957 
   2.822950000     0.1425371    0.2026045     0.0350154   -0.5975558     0.0439575   -0.6373731    -0.0848247    0.1093558 
   2.842900000     0.1524089    0.2086718    -0.0489447   -0.6093797    -0.0739784   -0.6365117    -0.0614453    0.1579668 
   2.862850000     0.1712514    0.2090813    -0.1523147   -0.5945529    -0.1692946   -0.5904176    -0.0312218    0.2079233 
   2.882800000     0.1937244    0.2048494    -0.2368008   -0.5509652    -0.2352311   -0.5576845     0.0095770    0.2524478 
   2.902750000     0.2170494    0.1954078    -0.3059462   -0.5124270    -0.3234967   -0.5290669     0.0582955    0.2899626 
   2.922700000     0.2440408    0.1752193    -0.3914890   -0.4633693    -0.4188447   -0.4503494     0.1180645    0.3170811 
   2.942650000     0.2645108    0.1458453    -0.4516535   -0.3747888    -0.4516037   -0.3501176     0.1816253    0.3273047 
   2.962600000     0.2834944    0.1151618    -0.4712372   -0.3061168    -0.4647323   -0.2945741     0.2482631    0.3250334 
   2.982550000     0.2955241    0.0817002    -0.5129815   -0.2573187    -0.5093517   -0.2409584     0.3146709    0.3107428 
   3.002500000     0.2980831    0.0407237    -0.5618581   -0.1605074    -0.5407795   -0.1436405     0.3783181    0.2760384 
   3.022450000     0.2900323   -0.0005290    -0.5411761   -0.0572387    -0.5201348   -0.0606651     0.4267848    0.2320862 
   3.042400000     0.2816893   -0.0428666    -0.5164949   -0.0178796    -0.5072584   -0.0162464     0.4719484    0.1780636 
   3.062350000     0.2686784   -0.0816272    -0.5480441    0.0299319    -0.5198053    0.0403368     0.5019529    0.1155069 
   3.082300000     0.2451723   -0.1180229    -0.5503894    0.1451207    -0.5075604    0.1219515     0.5111329    0.0482173 
   3.102250000     0.2132234   -0.1478418    -0.4789825    0.2174351    -0.4723510    0.1768695     0.5058094   -0.0103140 
   3.122200000     0.1750623   -0.1771602    -0.4497104    0.2332919    -0.4573864    0.2211660     0.4934660   -0.0707952 
   3.142150000     0.1320956   -0.1986894    -0.4616373    0.2976875    -0.4385958    0.2906954     0.4689501   -0.1231431 
