! 9/28/2016 12:33:40 PM
! C:\USERS\ANRITSUUSER\DESKTOP\SWITCHES\DESIGN3-RF1-RF3.S2P
! CHANNEL.1
! TR.MEASUREMENT
! CORRECTED.DATA
# GHZ S RI R 50.0
! FREQ.GHZ         S11RE         S11IM         S21RE         S21IM         S12RE         S12IM         S22RE         S22IM         
!; PortSelection: Port_12
   0.010000000     0.0912312   -0.0119114     0.0000674    0.0000165     0.0000804    0.0000557     0.9088578   -0.0660468 
   0.029950000     0.0871496   -0.0270952     0.0000981    0.0000237     0.0000959    0.0000261     0.8861387   -0.1250254 
   0.049900000     0.0795774   -0.0449610     0.0001115    0.0000210     0.0001177    0.0000071     0.8600050   -0.1917246 
   0.069850000     0.0686155   -0.0605512     0.0001233   -0.0000022     0.0001269   -0.0000156     0.8336424   -0.2559638 
   0.089800000     0.0535642   -0.0730474     0.0001240   -0.0000219     0.0001280   -0.0000205     0.8053833   -0.3164261 
   0.109750000     0.0350552   -0.0826325     0.0001148   -0.0000262     0.0001151   -0.0000273     0.7726373   -0.3764393 
   0.129700000     0.0146348   -0.0891020     0.0001260   -0.0000251     0.0001259   -0.0000287     0.7370031   -0.4361911 
   0.149650000    -0.0060390   -0.0911951     0.0001442   -0.0000398     0.0001355   -0.0000448     0.6974142   -0.4931043 
   0.169600000    -0.0271111   -0.0873413     0.0001439   -0.0000633     0.0001407   -0.0000542     0.6537836   -0.5435662 
   0.189550000    -0.0491029   -0.0788999     0.0001442   -0.0000738     0.0001449   -0.0000687     0.6043873   -0.5894154 
   0.209500000    -0.0697886   -0.0672671     0.0001348   -0.0001050     0.0001302   -0.0001034     0.5516001   -0.6332569 
   0.229450000    -0.0868880   -0.0520869     0.0001294   -0.0001044     0.0001246   -0.0001106     0.4957777   -0.6732397 
   0.249400000    -0.0994239   -0.0322346     0.0001261   -0.0001143     0.0001220   -0.0001109     0.4375657   -0.7076091 
   0.269350000    -0.1090751   -0.0079161     0.0001205   -0.0001414     0.0001159   -0.0001349     0.3744113   -0.7348025 
   0.289300000    -0.1152458    0.0173925     0.0000908   -0.0001659     0.0000897   -0.0001655     0.3079756   -0.7590557 
   0.309250000    -0.1159152    0.0425730     0.0000899   -0.0001748     0.0000778   -0.0001752     0.2400955   -0.7772279 
   0.329200000    -0.1097602    0.0678990     0.0000730   -0.0002008     0.0000767   -0.0001985     0.1733776   -0.7910971 
   0.349150000    -0.0981754    0.0935495     0.0000407   -0.0002343     0.0000429   -0.0002241     0.1054073   -0.7956933 
   0.369100000    -0.0832393    0.1178054     0.0000105   -0.0002167     0.0000025   -0.0002083     0.0346582   -0.7950813 
   0.389050000    -0.0643323    0.1370137     0.0000003   -0.0002224    -0.0000015   -0.0002245    -0.0365564   -0.7868307 
   0.409000000    -0.0401520    0.1516380    -0.0000319   -0.0002409    -0.0000329   -0.0002406    -0.1049942   -0.7743217 
   0.428950000    -0.0123356    0.1622518    -0.0000823   -0.0002445    -0.0000839   -0.0002304    -0.1704441   -0.7553026 
   0.448900000     0.0163762    0.1689264    -0.0001347   -0.0002145    -0.0001318   -0.0002120    -0.2363908   -0.7299035 
   0.468850000     0.0440674    0.1685833    -0.0001625   -0.0002073    -0.0001708   -0.0002101    -0.2993198   -0.6972064 
   0.488800000     0.0722338    0.1606497    -0.0001931   -0.0002003    -0.0002035   -0.0001974    -0.3586274   -0.6601748 
   0.508750000     0.1003607    0.1466142    -0.0002243   -0.0001913    -0.0002160   -0.0001773    -0.4125786   -0.6185007 
   0.528700000     0.1260072    0.1287021    -0.0002754   -0.0001828    -0.0002617   -0.0001625    -0.4645789   -0.5715783 
   0.548650000     0.1453563    0.1065309    -0.0002824   -0.0001344    -0.0002681   -0.0001401    -0.5116262   -0.5182019 
   0.568600000     0.1592438    0.0784269    -0.0002790   -0.0000964    -0.0002751   -0.0001042    -0.5533724   -0.4620363 
   0.588550000     0.1684593    0.0464432    -0.0002864   -0.0000786    -0.0002867   -0.0000704    -0.5876842   -0.4040423 
   0.608500000     0.1718647    0.0140510    -0.0003216   -0.0000363    -0.0003099   -0.0000209    -0.6168405   -0.3414505 
   0.628450000     0.1667398   -0.0174191    -0.0003393    0.0000370    -0.0003199    0.0000323    -0.6407807   -0.2756399 
   0.648400000     0.1527484   -0.0485358    -0.0003161    0.0000829    -0.0003154    0.0000753    -0.6596000   -0.2092929 
   0.668350000     0.1317823   -0.0790654    -0.0003151    0.0001405    -0.0003035    0.0001372    -0.6704430   -0.1443055 
   0.688300000     0.1059945   -0.1046383    -0.0002853    0.0001663    -0.0002666    0.0001829    -0.6746004   -0.0782539 
   0.708250000     0.0747746   -0.1230730    -0.0002433    0.0002082    -0.0002381    0.0001932    -0.6712543   -0.0107540 
   0.728200000     0.0372107   -0.1335686    -0.0002060    0.0002339    -0.0002035    0.0002217    -0.6640443    0.0558649 
   0.748150000    -0.0038943   -0.1370652    -0.0001712    0.0002531    -0.0001684    0.0002557    -0.6508769    0.1189626 
   0.768100000    -0.0447023   -0.1324692    -0.0001223    0.0002915    -0.0001280    0.0002915    -0.6307440    0.1783322 
   0.788050000    -0.0839557   -0.1178868    -0.0000820    0.0002998    -0.0000752    0.0002940    -0.6042950    0.2367686 
   0.808000000    -0.1210526   -0.0933052    -0.0000233    0.0002988    -0.0000246    0.0002863    -0.5736853    0.2935540 
   0.827950000    -0.1542216   -0.0614644     0.0000330    0.0002853     0.0000183    0.0002744    -0.5397521    0.3468972 
   0.847900000    -0.1797205   -0.0238982     0.0000681    0.0002596     0.0000724    0.0002586    -0.5014325    0.3937031 
   0.867850000    -0.1954293    0.0194625     0.0001060    0.0002418     0.0001024    0.0002443    -0.4578130    0.4361381 
   0.887800000    -0.2022140    0.0679360     0.0001545    0.0002355     0.0001470    0.0002315    -0.4117565    0.4753627 
   0.907750000    -0.2003305    0.1176700     0.0001779    0.0002053     0.0001715    0.0001966    -0.3636999    0.5110026 
   0.927700000    -0.1890652    0.1652509     0.0001597    0.0001969     0.0001611    0.0001933    -0.3138159    0.5405324 
   0.947650000    -0.1665837    0.2092013     0.0001401    0.0002200     0.0001455    0.0002237    -0.2610921    0.5638596 
   0.967600000    -0.1346428    0.2499013     0.0002146    0.0002518     0.0002176    0.0002443    -0.2076033    0.5830787 
   0.987550000    -0.0960149    0.2844537     0.0002394    0.0001693     0.0002446    0.0001661    -0.1531684    0.5986872 
   1.007500000    -0.0522770    0.3102875     0.0002520    0.0001291     0.0002574    0.0001253    -0.0993027    0.6085133 
   1.027450000    -0.0033810    0.3254540     0.0002551    0.0000759     0.0002532    0.0000750    -0.0437490    0.6120054 
   1.047400000     0.0493900    0.3319524     0.0002719    0.0000001     0.0002738   -0.0000071     0.0113284    0.6123567 
   1.067350000     0.1025508    0.3290805     0.0002374   -0.0000191     0.0002469   -0.0000387     0.0647201    0.6081731 
   1.087300000     0.1530872    0.3168096     0.0003341   -0.0000720     0.0003223   -0.0000683     0.1155836    0.5998900 
   1.107250000     0.2003535    0.2930263     0.0002666   -0.0001927     0.0002656   -0.0001806     0.1658727    0.5846529 
   1.127200000     0.2446804    0.2603840     0.0001848   -0.0002153     0.0001813   -0.0002137     0.2160835    0.5675765 
   1.147150000     0.2823161    0.2206202     0.0001579   -0.0002038     0.0001497   -0.0002104     0.2635127    0.5475011 
   1.167100000     0.3106284    0.1745576     0.0001599   -0.0002175     0.0001632   -0.0002269     0.3067620    0.5240511 
   1.187050000     0.3281060    0.1223191     0.0000837   -0.0002910     0.0000807   -0.0002828     0.3453190    0.4968579 
   1.207000000     0.3362897    0.0649669    -0.0000018   -0.0002472     0.0000075   -0.0002488     0.3840060    0.4659238 
   1.226950000     0.3342194    0.0065194    -0.0000273   -0.0001878    -0.0000207   -0.0001871     0.4217540    0.4316266 
   1.246900000     0.3201852   -0.0494580    -0.0000020   -0.0001053    -0.0000125   -0.0001143     0.4550071    0.3969478 
   1.266850000     0.2928655   -0.1023163     0.0000838   -0.0000488     0.0000798   -0.0000472     0.4826597    0.3589453 
   1.286800000     0.2537986   -0.1510757     0.0001666   -0.0003042     0.0001585   -0.0003046     0.5078522    0.3183834 
   1.306750000     0.2050473   -0.1918394    -0.0001443   -0.0003334    -0.0001400   -0.0003393     0.5316974    0.2757386 
   1.326700000     0.1483401   -0.2199454    -0.0002457   -0.0002316    -0.0002557   -0.0002288     0.5523393    0.2333964 
   1.346650000     0.0847551   -0.2348716    -0.0002942   -0.0001638    -0.0003060   -0.0001383     0.5663257    0.1919981 
   1.366600000     0.0152310   -0.2356060    -0.0003324   -0.0000825    -0.0003252   -0.0000676     0.5763382    0.1481225 
   1.386550000    -0.0528600   -0.2225603    -0.0003273    0.0000155    -0.0003187    0.0000135     0.5833831    0.1010953 
   1.406500000    -0.1160378   -0.1941593    -0.0002582    0.0001034    -0.0002513    0.0000995     0.5897080    0.0537440 
   1.426450000    -0.1719518   -0.1504420    -0.0002045    0.0001649    -0.0001916    0.0001848     0.5914521    0.0092067 
   1.446400000    -0.2180520   -0.0943981    -0.0001551    0.0002509    -0.0001301    0.0002552     0.5882674   -0.0340519 
   1.466350000    -0.2514949   -0.0293524    -0.0000620    0.0003270    -0.0000474    0.0003130     0.5809928   -0.0782439 
   1.486300000    -0.2690814    0.0410175     0.0000279    0.0003736     0.0000462    0.0003443     0.5706442   -0.1231969 
   1.506250000    -0.2707736    0.1143723     0.0001052    0.0003591     0.0001215    0.0003506     0.5572630   -0.1664178 
   1.526200000    -0.2577285    0.1865152     0.0001680    0.0003396     0.0001827    0.0003308     0.5413067   -0.2063989 
   1.546150000    -0.2304817    0.2533575     0.0002626    0.0002980     0.0002567    0.0002745     0.5213667   -0.2469838 
   1.566100000    -0.1903941    0.3114866     0.0003503    0.0002351     0.0003233    0.0002021     0.4979460   -0.2854002 
   1.586050000    -0.1384623    0.3611167     0.0003679    0.0001539     0.0003466    0.0001563     0.4714799   -0.3215209 
   1.606000000    -0.0788100    0.3998294     0.0003993    0.0001218     0.0003940    0.0001133     0.4416487   -0.3557441 
   1.625950000    -0.0150257    0.4260154     0.0004743    0.0000959     0.0004505    0.0000595     0.4097103   -0.3881878 
   1.645900000     0.0514192    0.4387563     0.0006091   -0.0000225     0.0005294   -0.0000312     0.3765794   -0.4176902 
   1.665850000     0.1202245    0.4392797     0.0006276   -0.0002235     0.0005772   -0.0001460     0.3407346   -0.4429227 
   1.685800000     0.1873417    0.4283615     0.0005305   -0.0003042     0.0005689   -0.0002430     0.3020950   -0.4646590 
   1.705750000     0.2499669    0.4063746     0.0005150   -0.0003187     0.0005250   -0.0003287     0.2591612   -0.4846754 
   1.725700000     0.3066034    0.3744069     0.0006046   -0.0004025     0.0005343   -0.0004081     0.2163522   -0.5030441 
   1.745650000     0.3574318    0.3313357     0.0005472   -0.0006308     0.0005177   -0.0005108     0.1751249   -0.5170412 
   1.765600000     0.4000498    0.2809193     0.0003345   -0.0006897     0.0004239   -0.0005704     0.1338168   -0.5248713 
   1.785550000     0.4328326    0.2243927     0.0002192   -0.0005877     0.0003011   -0.0006047     0.0870827   -0.5272174 
   1.805500000     0.4546676    0.1630462     0.0002287   -0.0005819     0.0001728   -0.0006350     0.0373949   -0.5270563 
   1.825450000     0.4653599    0.0962268     0.0000732   -0.0007802     0.0000500   -0.0006667    -0.0109842   -0.5279301 
   1.845400000     0.4647903    0.0275895    -0.0002849   -0.0006803    -0.0001076   -0.0006602    -0.0555736   -0.5271515 
   1.865350000     0.4515656   -0.0401461    -0.0003253   -0.0005053    -0.0002363   -0.0006401    -0.0980477   -0.5157417 
   1.885300000     0.4253742   -0.1041815    -0.0002383   -0.0005440    -0.0003435   -0.0006673    -0.1399240   -0.4955038 
   1.905250000     0.3862309   -0.1639216    -0.0003859   -0.0008417    -0.0004864   -0.0006728    -0.1822598   -0.4748893 
   1.925200000     0.3347970   -0.2160199    -0.0008377   -0.0006524    -0.0006299   -0.0006346    -0.2261343   -0.4551231 
   1.945150000     0.2729226   -0.2574265    -0.0008067   -0.0003317    -0.0007544   -0.0005502    -0.2638562   -0.4306507 
   1.965100000     0.2021334   -0.2855818    -0.0006880   -0.0003208    -0.0008563   -0.0004312    -0.2980384   -0.4019905 
   1.985050000     0.1254881   -0.2981455    -0.0008433   -0.0004622    -0.0009438   -0.0003070    -0.3308206   -0.3699496 
   2.005000000     0.0461066   -0.2943998    -0.0011771   -0.0002274    -0.0009972   -0.0001608    -0.3636830   -0.3333219 
   2.024950000    -0.0305369   -0.2725699    -0.0010700    0.0001388    -0.0010318   -0.0000362    -0.3930569   -0.2970092 
   2.044900000    -0.1016449   -0.2329337    -0.0009065    0.0001816    -0.0010663    0.0001275    -0.4171363   -0.2572943 
   2.064850000    -0.1624849   -0.1774381    -0.0009441    0.0001764    -0.0010157    0.0002953    -0.4362357   -0.2154592 
   2.084800000    -0.2099472   -0.1094439    -0.0011116    0.0003803    -0.0009744    0.0004440    -0.4519830   -0.1695893 
   2.104750000    -0.2400154   -0.0331991    -0.0009990    0.0007567    -0.0009402    0.0006213    -0.4653791   -0.1230166 
   2.124700000    -0.2516236    0.0479425    -0.0007263    0.0008898    -0.0008489    0.0008132    -0.4749067   -0.0755783 
   2.144650000    -0.2448651    0.1293227    -0.0006105    0.0008879    -0.0007164    0.0009348    -0.4785371   -0.0288543 
   2.164600000    -0.2219113    0.2061860    -0.0006294    0.0009668    -0.0006182    0.0010237    -0.4773239    0.0179060 
   2.184550000    -0.1841882    0.2741701    -0.0005494    0.0012188    -0.0005039    0.0011593    -0.4712359    0.0649262 
   2.204500000    -0.1331312    0.3311075    -0.0002073    0.0013004    -0.0002945    0.0012551    -0.4614757    0.1130116 
   2.224450000    -0.0723506    0.3763869     0.0000128    0.0011467    -0.0001318    0.0011808    -0.4470399    0.1606006 
   2.244400000    -0.0063164    0.4084955     0.0000611    0.0010712    -0.0000215    0.0011835    -0.4284024    0.2057922 
   2.264350000     0.0626497    0.4278805     0.0001216    0.0011769     0.0001707    0.0012623    -0.4057773    0.2480223 
   2.284300000     0.1311132    0.4330590     0.0004051    0.0012644     0.0004468    0.0012473    -0.3783992    0.2883902 
   2.304250000     0.1983064    0.4264763     0.0006862    0.0010917     0.0006049    0.0011355    -0.3472650    0.3268995 
   2.324200000     0.2607415    0.4083571     0.0007492    0.0009466     0.0007189    0.0011095    -0.3133514    0.3623757 
   2.344150000     0.3187853    0.3803210     0.0007754    0.0009904     0.0009062    0.0011063    -0.2769242    0.3926896 
   2.364100000     0.3705360    0.3439221     0.0009407    0.0010346     0.0010771    0.0010181    -0.2362120    0.4194139 
   2.384050000     0.4157527    0.2991994     0.0012147    0.0009231     0.0012104    0.0009116    -0.1916527    0.4424173 
   2.404000000     0.4528968    0.2492731     0.0013569    0.0006988     0.0013698    0.0007733    -0.1451831    0.4632590 
   2.423950000     0.4810951    0.1959180     0.0013868    0.0005753     0.0015523    0.0006036    -0.0984679    0.4796743 
   2.443900000     0.4995578    0.1395231     0.0014813    0.0005007     0.0016509    0.0004132    -0.0508498    0.4903197 
   2.463850000     0.5079313    0.0799076     0.0017149    0.0003115     0.0017811    0.0001833    -0.0018016    0.4951152 
   2.483800000     0.5066398    0.0186985     0.0018833   -0.0000720     0.0018964   -0.0001702     0.0494631    0.4950841 
   2.503750000     0.4963509   -0.0415299     0.0018603   -0.0004183     0.0018683   -0.0005525     0.1013757    0.4910025 
   2.523700000     0.4770071   -0.0986264     0.0017602   -0.0006329     0.0017624   -0.0008077     0.1522237    0.4827396 
   2.543650000     0.4473609   -0.1510384     0.0017661   -0.0008687     0.0016749   -0.0010824     0.2000771    0.4691538 
   2.563600000     0.4074997   -0.1979201     0.0017365   -0.0012836     0.0014833   -0.0014333     0.2478364    0.4484065 
   2.583550000     0.3591965   -0.2384339     0.0013953   -0.0016108     0.0011667   -0.0015937     0.2951517    0.4231449 
   2.603500000     0.3041393   -0.2695488     0.0010498   -0.0016218     0.0009629   -0.0015977     0.3411103    0.3952715 
   2.623450000     0.2438172   -0.2890130     0.0010215   -0.0016260     0.0008843   -0.0016976     0.3820808    0.3640052 
   2.643400000     0.1793831   -0.2964337     0.0010404   -0.0019672     0.0006670   -0.0019580     0.4183785    0.3271899 
   2.663350000     0.1141296   -0.2911066     0.0006043   -0.0024008     0.0003574   -0.0021182     0.4505864    0.2845767 
   2.683300000     0.0501135   -0.2726384    -0.0000414   -0.0024084     0.0000442   -0.0021790     0.4820159    0.2373498 
   2.703250000    -0.0085458   -0.2400496    -0.0003660   -0.0022716    -0.0003262   -0.0022304     0.5090649    0.1886674 
   2.723200000    -0.0595919   -0.1949109    -0.0006203   -0.0023560    -0.0007605   -0.0021567     0.5310028    0.1381056 
   2.743150000    -0.0994240   -0.1399209    -0.0012167   -0.0023575    -0.0010833   -0.0019941     0.5451667    0.0861737 
   2.763100000    -0.1269379   -0.0777554    -0.0017561   -0.0018979    -0.0013649   -0.0018435     0.5543296    0.0301006 
   2.783050000    -0.1394058   -0.0115102    -0.0018780   -0.0015174    -0.0016739   -0.0016174     0.5579243   -0.0275580 
   2.803000000    -0.1375596    0.0557840    -0.0020347   -0.0013893    -0.0018982   -0.0013546     0.5572027   -0.0855462 
   2.822950000    -0.1216121    0.1192944    -0.0023882   -0.0010673    -0.0020953   -0.0011265     0.5492809   -0.1429532 
   2.842900000    -0.0922211    0.1768439    -0.0025394   -0.0005337    -0.0023200   -0.0008400     0.5357751   -0.2001419 
   2.862850000    -0.0511229    0.2267509    -0.0024454   -0.0001838    -0.0023961   -0.0004355     0.5157972   -0.2559877 
   2.882800000    -0.0018602    0.2677476    -0.0024416    0.0000658    -0.0023502   -0.0001281     0.4912697   -0.3101944 
   2.902750000     0.0509846    0.2982084    -0.0023986    0.0005275    -0.0023995    0.0001486     0.4601805   -0.3609542 
   2.922700000     0.1069922    0.3159980    -0.0021514    0.0009182    -0.0024238    0.0006434     0.4221968   -0.4085102 
   2.942650000     0.1646805    0.3215736    -0.0019706    0.0010791    -0.0021971    0.0010823     0.3793899   -0.4530653 
   2.962600000     0.2225962    0.3178069    -0.0019309    0.0013396    -0.0019802    0.0012309     0.3317416   -0.4936820 
   2.982550000     0.2760228    0.3068582    -0.0016382    0.0017145    -0.0019185    0.0014721     0.2801312   -0.5301681 
   3.002500000     0.3239987    0.2867817    -0.0012456    0.0018028    -0.0017202    0.0019292     0.2249204   -0.5601104 
   3.022450000     0.3666914    0.2570307    -0.0011216    0.0018067    -0.0012805    0.0021281     0.1677334   -0.5850058 
   3.042400000     0.4068683    0.2204582    -0.0010333    0.0020352    -0.0010381    0.0021265     0.1089423   -0.6025614 
   3.062350000     0.4413649    0.1812037    -0.0006106    0.0022597    -0.0008778    0.0023103     0.0464665   -0.6131118 
   3.082300000     0.4678950    0.1403721    -0.0002023    0.0021490    -0.0004426    0.0025891    -0.0187886   -0.6170382 
   3.102250000     0.4845290    0.0954686    -0.0001241    0.0021091     0.0000425    0.0025634    -0.0837560   -0.6166927 
   3.122200000     0.4951599    0.0475868     0.0000643    0.0023312     0.0002795    0.0024461    -0.1465879   -0.6105741 
   3.142150000     0.5007293   -0.0013033     0.0006317    0.0023387     0.0005794    0.0025036    -0.2074461   -0.5949975 
