! 9/28/2016 12:19:03 PM
! C:\USERS\ANRITSUUSER\DESKTOP\SWITCHES\DESIGN3-RF1-RF1.S2P
! CHANNEL.1
! TR.MEASUREMENT
! CORRECTED.DATA
# GHZ S RI R 50.0
! FREQ.GHZ         S11RE         S11IM         S21RE         S21IM         S12RE         S12IM         S22RE         S22IM         
!; PortSelection: Port_12
   0.010000000     0.1663983   -0.0239491     0.8113948   -0.0690357     0.8109300   -0.0747514     0.1691461   -0.0125140 
   0.029950000     0.1574411   -0.0535191     0.7889517   -0.1770132     0.7877061   -0.1751273     0.1661895   -0.0133730 
   0.049900000     0.1420970   -0.0862738     0.7548857   -0.2844830     0.7537881   -0.2824208     0.1653556   -0.0229252 
   0.069850000     0.1200380   -0.1146039     0.7060444   -0.3861586     0.7053699   -0.3837048     0.1640770   -0.0327928 
   0.089800000     0.0920581   -0.1373223     0.6441781   -0.4788190     0.6439089   -0.4764827     0.1611491   -0.0420471 
   0.109750000     0.0587296   -0.1544999     0.5705488   -0.5620340     0.5707876   -0.5603600     0.1557287   -0.0514031 
   0.129700000     0.0213974   -0.1656668     0.4867034   -0.6349912     0.4869927   -0.6324466     0.1488388   -0.0614366 
   0.149650000    -0.0179130   -0.1682637     0.3922214   -0.6951152     0.3932288   -0.6922098     0.1416283   -0.0705549 
   0.169600000    -0.0569286   -0.1596907     0.2917044   -0.7405723     0.2937625   -0.7378334     0.1334150   -0.0768759 
   0.189550000    -0.0945935   -0.1424460     0.1858263   -0.7712954     0.1880995   -0.7693309     0.1227488   -0.0809765 
   0.209500000    -0.1283327   -0.1195752     0.0779299   -0.7877866     0.0802414   -0.7861174     0.1106225   -0.0844747 
   0.229450000    -0.1566305   -0.0907938    -0.0322158   -0.7888131    -0.0295923   -0.7875056     0.0991752   -0.0865588 
   0.249400000    -0.1773650   -0.0540892    -0.1402127   -0.7748150    -0.1369858   -0.7737153     0.0891814   -0.0855449 
   0.269350000    -0.1914704   -0.0106098    -0.2449731   -0.7445328    -0.2415165   -0.7447302     0.0794483   -0.0816297 
   0.289300000    -0.1970553    0.0350405    -0.3430298   -0.7015436    -0.3395815   -0.7031558     0.0693365   -0.0771762 
   0.309250000    -0.1923288    0.0792838    -0.4341754   -0.6454487    -0.4326906   -0.6477852     0.0614857   -0.0715234 
   0.329200000    -0.1765067    0.1217539    -0.5161789   -0.5783965    -0.5158033   -0.5791242     0.0570065   -0.0649169 
   0.349150000    -0.1511766    0.1622632    -0.5882507   -0.5004712    -0.5858073   -0.5001796     0.0548833   -0.0565904 
   0.369100000    -0.1185990    0.1981546    -0.6482589   -0.4145574    -0.6454101   -0.4173291     0.0534288   -0.0481945 
   0.389050000    -0.0793511    0.2249653    -0.6954291   -0.3212141    -0.6967466   -0.3250155     0.0529916   -0.0416740 
   0.409000000    -0.0341608    0.2418517    -0.7292765   -0.2242832    -0.7321418   -0.2233353     0.0558862   -0.0371774 
   0.428950000     0.0148846    0.2502261    -0.7504261   -0.1248847    -0.7481848   -0.1217662     0.0613451   -0.0329289 
   0.448900000     0.0645780    0.2488008    -0.7601774   -0.0233039    -0.7553214   -0.0252507     0.0666997   -0.0295314 
   0.468850000     0.1113911    0.2356125    -0.7549301    0.0805623    -0.7556714    0.0764310     0.0706031   -0.0291230 
   0.488800000     0.1549812    0.2095496    -0.7334647    0.1811300    -0.7356492    0.1827489     0.0738381   -0.0321198 
   0.508750000     0.1940644    0.1751639    -0.7014214    0.2739822    -0.6973487    0.2772371     0.0781403   -0.0365431 
   0.528700000     0.2260022    0.1337617    -0.6612849    0.3648035    -0.6554221    0.3612764     0.0813972   -0.0412357 
   0.548650000     0.2454471    0.0873878    -0.6075953    0.4534169    -0.6082602    0.4478393     0.0812580   -0.0460737 
   0.568600000     0.2531222    0.0343223    -0.5374677    0.5326650    -0.5390706    0.5325066     0.0776508   -0.0528343 
   0.588550000     0.2498584   -0.0197855    -0.4600947    0.5973665    -0.4563553    0.5968949     0.0738792   -0.0589891 
   0.608500000     0.2352120   -0.0723308    -0.3774529    0.6539435    -0.3748059    0.6474500     0.0690184   -0.0632792 
   0.628450000     0.2066450   -0.1182669    -0.2869093    0.7034141    -0.2904186    0.6968970     0.0609986   -0.0643261 
   0.648400000     0.1663630   -0.1582939    -0.1843648    0.7383325    -0.1882457    0.7369172     0.0504221   -0.0648861 
   0.668350000     0.1171945   -0.1907434    -0.0801856    0.7555398    -0.0814798    0.7530698     0.0407647   -0.0642499 
   0.688300000     0.0633583   -0.2110644     0.0240987    0.7578662     0.0201685    0.7540073     0.0339574   -0.0608044 
   0.708250000     0.0052667   -0.2158013     0.1280993    0.7482966     0.1214193    0.7487519     0.0288947   -0.0532496 
   0.728200000    -0.0547859   -0.2056318     0.2324156    0.7221578     0.2298104    0.7259778     0.0236610   -0.0429803 
   0.748150000    -0.1121721   -0.1835018     0.3307237    0.6810252     0.3302268    0.6813560     0.0205622   -0.0329773 
   0.768100000    -0.1618872   -0.1498451     0.4211957    0.6247606     0.4178250    0.6245885     0.0223090   -0.0240397 
   0.788050000    -0.2026196   -0.1049130     0.5016179    0.5574141     0.4980270    0.5615793     0.0285724   -0.0150499 
   0.808000000    -0.2326987   -0.0498190     0.5706544    0.4791750     0.5724629    0.4839703     0.0368928   -0.0063686 
   0.827950000    -0.2511474    0.0098954     0.6268389    0.3941860     0.6308955    0.3950302     0.0464463   -0.0006161 
   0.847900000    -0.2549678    0.0707503     0.6708571    0.3035085     0.6731033    0.3008662     0.0577495    0.0001742 
   0.867850000    -0.2440371    0.1297859     0.7024913    0.2076482     0.7017974    0.2051460     0.0706733   -0.0026679 
   0.887800000    -0.2216113    0.1863412     0.7181827    0.1084417     0.7170209    0.1073321     0.0836688   -0.0082710 
   0.907750000    -0.1895682    0.2370509     0.7192986    0.0115534     0.7206234    0.0111940     0.0937693   -0.0173099 
   0.927700000    -0.1485653    0.2779727     0.7096066   -0.0814715     0.7117362   -0.0866137     0.1010803   -0.0304795 
   0.947650000    -0.0988875    0.3076123     0.6907747   -0.1724491     0.6849695   -0.1822479     0.1058309   -0.0464662 
   0.967600000    -0.0456328    0.3276858     0.6597936   -0.2624094     0.6450052   -0.2635307     0.1068222   -0.0632014 
   0.987550000     0.0085509    0.3382359     0.6148023   -0.3457190     0.6071581   -0.3356755     0.1028323   -0.0800770 
   1.007500000     0.0620678    0.3369403     0.5614786   -0.4184216     0.5649680   -0.4153431     0.0938107   -0.0977525 
   1.027450000     0.1142252    0.3236539     0.5045279   -0.4842836     0.4976273   -0.4921207     0.0815565   -0.1140941 
   1.047400000     0.1635551    0.3012668     0.4405322   -0.5489904     0.4203452   -0.5424784     0.0663635   -0.1269436 
   1.067350000     0.2054387    0.2728585     0.3615934   -0.6053829     0.3554936   -0.5811711     0.0475302   -0.1356279 
   1.087300000     0.2405204    0.2372068     0.2754306   -0.6447806     0.2898176   -0.6318631     0.0246816   -0.1409106 
   1.107250000     0.2663541    0.1938253     0.1922736   -0.6715908     0.1959893   -0.6759571     0.0023291   -0.1420792 
   1.127200000     0.2847696    0.1470975     0.1079545   -0.6980196     0.0979198   -0.6882226    -0.0186910   -0.1383876 
   1.147150000     0.2928387    0.1008455     0.0088028   -0.7135636     0.0161834   -0.6891016    -0.0383531   -0.1281658 
   1.167100000     0.2922765    0.0548133    -0.0933298   -0.7056124    -0.0670469   -0.6987537    -0.0589701   -0.1136615 
   1.187050000     0.2795156    0.0092772    -0.1818784   -0.6832529    -0.1695053   -0.6948814    -0.0764626   -0.0959606 
   1.207000000     0.2608312   -0.0334073    -0.2683702   -0.6614435    -0.2693021   -0.6616046    -0.0881773   -0.0789024 
   1.226950000     0.2353822   -0.0706008    -0.3641083   -0.6247697    -0.3525336   -0.6167173    -0.0934721   -0.0589349 
   1.246900000     0.2043052   -0.1002491    -0.4517725   -0.5644577    -0.4317921   -0.5713404    -0.0950598   -0.0373020 
   1.266850000     0.1657443   -0.1220322    -0.5210901   -0.4939982    -0.5151441   -0.5112019    -0.0930246   -0.0159988 
   1.286800000     0.1243041   -0.1370045    -0.5833298   -0.4238437    -0.5870722   -0.4325861    -0.0868585   -0.0000558 
   1.306750000     0.0827600   -0.1447522    -0.6428357   -0.3405730    -0.6419454   -0.3432107    -0.0766129    0.0121972 
   1.326700000     0.0418783   -0.1421885    -0.6861598   -0.2426753    -0.6833067   -0.2503401    -0.0642668    0.0224045 
   1.346650000     0.0021004   -0.1310865    -0.7089123   -0.1432966    -0.7125015   -0.1519292    -0.0526761    0.0299556 
   1.366600000    -0.0364145   -0.1132740    -0.7215377   -0.0461952    -0.7285396   -0.0486992    -0.0436291    0.0317211 
   1.386550000    -0.0706013   -0.0909710    -0.7235054    0.0553224    -0.7266291    0.0581938    -0.0365114    0.0274443 
   1.406500000    -0.0989005   -0.0621028    -0.7074223    0.1586227    -0.7052905    0.1610579    -0.0316676    0.0214799 
   1.426450000    -0.1203523   -0.0281093    -0.6746375    0.2573509    -0.6713272    0.2552779    -0.0299521    0.0167086 
   1.446400000    -0.1364835    0.0088340    -0.6276761    0.3484196    -0.6276093    0.3456566    -0.0339837    0.0131194 
   1.466350000    -0.1467071    0.0473191    -0.5692893    0.4303038    -0.5682539    0.4309761    -0.0433613    0.0098524 
   1.486300000    -0.1493852    0.0875472    -0.5017583    0.5021122    -0.4937353    0.5005458    -0.0557754    0.0095256 
   1.506250000    -0.1445623    0.1282694    -0.4259980    0.5668468    -0.4179807    0.5549247    -0.0684308    0.0137376 
   1.526200000    -0.1356187    0.1672270    -0.3373968    0.6177997    -0.3383008    0.6024848    -0.0816285    0.0234476 
   1.546150000    -0.1204613    0.2051463    -0.2395774    0.6487646    -0.2502719    0.6409211    -0.0940009    0.0401683 
   1.566100000    -0.0976802    0.2390181    -0.1522723    0.6619503    -0.1561688    0.6630856    -0.1040477    0.0615713 
   1.586050000    -0.0677298    0.2696117    -0.0689751    0.6771477    -0.0641536    0.6690335    -0.1095817    0.0862173 
   1.606000000    -0.0343657    0.2955953     0.0320490    0.6839598     0.0233520    0.6618717    -0.1112004    0.1130918 
   1.625950000     0.0023175    0.3176161     0.1357886    0.6549501     0.1031648    0.6474773    -0.1057258    0.1428354 
   1.645900000     0.0443640    0.3313651     0.2034935    0.6074677     0.1833674    0.6316332    -0.0899486    0.1719001 
   1.665850000     0.0868346    0.3378842     0.2561107    0.5880291     0.2725947    0.6019557    -0.0698824    0.1982639 
   1.685800000     0.1323673    0.3402460     0.3472854    0.5739578     0.3504044    0.5441503    -0.0456473    0.2238611 
   1.705750000     0.1762562    0.3361131     0.4493181    0.4949421     0.3987411    0.4864751    -0.0182326    0.2439045 
   1.725700000     0.2240212    0.3228991     0.4758091    0.3935940     0.4466007    0.4485664     0.0190287    0.2558144 
   1.745650000     0.2615556    0.2972454     0.4752314    0.3588321     0.5198173    0.3985891     0.0570073    0.2558681 
   1.765600000     0.3015375    0.2748199     0.5458685    0.3538817     0.5758195    0.3070505     0.0958210    0.2610958 
   1.785550000     0.3359929    0.2397312     0.6557101    0.2394453     0.5884461    0.2232326     0.1329143    0.2575660 
   1.805500000     0.3679617    0.2001236     0.6269222    0.0858245     0.6056294    0.1707945     0.1671123    0.2464718 
   1.825450000     0.3815110    0.1487665     0.5638447    0.0614217     0.6516893    0.0991631     0.1918722    0.2161115 
   1.845400000     0.3998128    0.1075485     0.6296542    0.0771069     0.6687515   -0.0129350     0.2172953    0.1961455 
   1.865350000     0.4071510    0.0451490     0.7424874   -0.0957966     0.6408390   -0.1070871     0.2475776    0.1644900 
   1.885300000     0.4024755   -0.0076460     0.6136408   -0.2750241     0.6210370   -0.1719287     0.2651914    0.1353606 
   1.905250000     0.3833404   -0.0631686     0.5108468   -0.2528735     0.6141262   -0.2536351     0.2666925    0.1020023 
   1.925200000     0.3628069   -0.1120472     0.5701022   -0.2514491     0.5790377   -0.3515906     0.2678268    0.0793024 
   1.945150000     0.3246567   -0.1685562     0.6034325   -0.4347060     0.5187988   -0.4312564     0.2705182    0.0454686 
   1.965100000     0.2717181   -0.2087976     0.4383400   -0.5619570     0.4583625   -0.4983037     0.2618897    0.0174731 
   1.985050000     0.2154100   -0.2380502     0.3264184   -0.5404919     0.3840818   -0.5642123     0.2484520    0.0019130 
   2.005000000     0.1523986   -0.2623629     0.3124945   -0.5491652     0.2960476   -0.6131120     0.2383958   -0.0108601 
   2.024950000     0.0794396   -0.2698655     0.2734351   -0.6469433     0.2100170   -0.6490127     0.2258209   -0.0238201 
   2.044900000     0.0039470   -0.2572705     0.1289483   -0.7235412     0.1085622   -0.6811510     0.2126444   -0.0335647 
   2.064850000    -0.0623511   -0.2275286    -0.0147414   -0.6999137    -0.0021888   -0.6780848     0.2038416   -0.0321513 
   2.084800000    -0.1296494   -0.1870915    -0.0954599   -0.6533827    -0.0883716   -0.6555932     0.2047954   -0.0302289 
   2.104750000    -0.1842540   -0.1261358    -0.1501865   -0.6431199    -0.1702307   -0.6458323     0.2046621   -0.0301389 
   2.124700000    -0.2240208   -0.0555099    -0.2462509   -0.6537953    -0.2781510   -0.6140246     0.2099600   -0.0305677 
   2.144650000    -0.2420938    0.0231391    -0.3810664   -0.6115309    -0.3565539   -0.5395446     0.2160828   -0.0334656 
   2.164600000    -0.2510466    0.1032043    -0.4763612   -0.5026494    -0.3996221   -0.4838990     0.2326829   -0.0403575 
   2.184550000    -0.2353381    0.1893902    -0.5006838   -0.4047586    -0.4660398   -0.4438149     0.2461820   -0.0592637 
   2.204500000    -0.2017779    0.2629939    -0.5236441   -0.3589787    -0.5380344   -0.3544573     0.2574611   -0.0776662 
   2.224450000    -0.1520277    0.3279306    -0.5963073   -0.3064381    -0.5486410   -0.2579498     0.2650981   -0.1020856 
   2.244400000    -0.0987601    0.3829444    -0.6580734   -0.1797526    -0.5544754   -0.2098718     0.2723102   -0.1285622 
   2.264350000    -0.0248986    0.4301615    -0.6316368   -0.0482898    -0.6023280   -0.1515318     0.2699184   -0.1681521 
   2.284300000     0.0492425    0.4501389    -0.5844423    0.0113543    -0.6241782   -0.0391257     0.2578773   -0.2002044 
   2.304250000     0.1247985    0.4610022    -0.5872372    0.0501225    -0.5892270    0.0477296     0.2436499   -0.2327715 
   2.324200000     0.1977827    0.4586874    -0.6030649    0.1422343    -0.5712661    0.0944580     0.2225868   -0.2628796 
   2.344150000     0.2745284    0.4436724    -0.5526590    0.2512927    -0.5767241    0.1642136     0.1928897   -0.2939947 
   2.364100000     0.3405662    0.4104995    -0.4745138    0.3003628    -0.5477695    0.2559102     0.1566761   -0.3153141 
   2.384050000     0.3988079    0.3705673    -0.4344262    0.3207261    -0.4946556    0.3210810     0.1221186   -0.3312520 
   2.404000000     0.4516174    0.3229001    -0.4156972    0.3673691    -0.4501252    0.3729112     0.0845728   -0.3412648 
   2.423950000     0.4965759    0.2668159    -0.3664360    0.4367675    -0.4004831    0.4276417     0.0429208   -0.3455884 
   2.443900000     0.5298462    0.2040896    -0.2851256    0.4773629    -0.3460293    0.4694293    -0.0008323   -0.3429059 
   2.463850000     0.5506198    0.1360335    -0.2174588    0.4837178    -0.2972746    0.5167103    -0.0412057   -0.3334076 
   2.483800000     0.5599459    0.0678034    -0.1776572    0.4919493    -0.2196428    0.5739540    -0.0740961   -0.3188988 
   2.503750000     0.5624465   -0.0035926    -0.1350913    0.5251337    -0.1140703    0.5888318    -0.1052470   -0.3007655 
   2.523700000     0.5501599   -0.0761820    -0.0595775    0.5581666    -0.0470099    0.5693086    -0.1340782   -0.2744054 
   2.543650000     0.5249422   -0.1463580     0.0282540    0.5518432    -0.0030817    0.5838379    -0.1588173   -0.2448397 
   2.563600000     0.4849249   -0.2091789     0.0828245    0.5283278     0.0880652    0.6136856    -0.1742586   -0.2145088 
   2.583550000     0.4400965   -0.2686140     0.1256337    0.5303854     0.2003379    0.5806801    -0.1835730   -0.1873954 
   2.603500000     0.3759037   -0.3225784     0.2006889    0.5449587     0.2577717    0.5248168    -0.1880529   -0.1549824 
   2.623450000     0.3024293   -0.3572756     0.3004237    0.5156102     0.3065565    0.5059752    -0.1854523   -0.1242942 
   2.643400000     0.2219403   -0.3781353     0.3658842    0.4559931     0.3921456    0.4775231    -0.1799144   -0.0980951 
   2.663350000     0.1376659   -0.3876106     0.4123789    0.4137678     0.4637183    0.4025831    -0.1709022   -0.0803916 
   2.683300000     0.0425406   -0.3756439     0.4792017    0.3774362     0.4991786    0.3358550    -0.1580783   -0.0674430 
   2.703250000    -0.0428699   -0.3381129     0.5555704    0.3040387     0.5461510    0.2778571    -0.1417654   -0.0609869 
   2.723200000    -0.1187856   -0.2830211     0.5996350    0.2040479     0.5877485    0.1935836    -0.1291663   -0.0586136 
   2.743150000    -0.1827438   -0.2106193     0.6143089    0.1116935     0.6010609    0.1102288    -0.1217964   -0.0601098 
   2.763100000    -0.2260994   -0.1200647     0.6255815    0.0281132     0.6189312    0.0356438    -0.1193752   -0.0655905 
   2.783050000    -0.2455780   -0.0253090     0.6327462   -0.0672668     0.6265493   -0.0628826    -0.1224523   -0.0743815 
   2.803000000    -0.2441837    0.0715429     0.6130646   -0.1743647     0.5985265   -0.1515478    -0.1326255   -0.0801081 
   2.822950000    -0.2183993    0.1649706     0.5616027   -0.2623555     0.5800728   -0.2183582    -0.1471972   -0.0795978 
   2.842900000    -0.1704193    0.2428627     0.5102085   -0.3274175     0.5624123   -0.3174631    -0.1631782   -0.0761216 
   2.862850000    -0.1085376    0.3095065     0.4580692   -0.3928931     0.4845640   -0.4099284    -0.1822562   -0.0693971 
   2.882800000    -0.0334901    0.3604031     0.3856938   -0.4537281     0.4102234   -0.4443369    -0.2002906   -0.0523113 
   2.902750000     0.0450422    0.3918905     0.3089502   -0.4845314     0.3757106   -0.4940491    -0.2121634   -0.0285056 
   2.922700000     0.1205686    0.4076420     0.2484375   -0.5101635     0.2909452   -0.5823040    -0.2205786   -0.0039850 
   2.942650000     0.2017113    0.4065693     0.1777809   -0.5401555     0.1575742   -0.5938220    -0.2268693    0.0254767 
   2.962600000     0.2773764    0.3881536     0.0941231   -0.5473869     0.0947860   -0.5629546    -0.2244231    0.0558440 
   2.982550000     0.3423462    0.3594913     0.0316453   -0.5347698     0.0551619   -0.5897760    -0.2134800    0.0839383 
   3.002500000     0.3994505    0.3261607    -0.0226421   -0.5395419    -0.0598171   -0.6224108    -0.1995320    0.1086966 
   3.022450000     0.4515694    0.2738473    -0.1007798   -0.5401150    -0.1702240   -0.5597328    -0.1772689    0.1341565 
   3.042400000     0.4904621    0.2177717    -0.1753068   -0.5072218    -0.2009534   -0.5067070    -0.1497348    0.1525317 
   3.062350000     0.5214803    0.1617135    -0.2188909   -0.4747215    -0.2484449   -0.5098725    -0.1214627    0.1665817 
   3.082300000     0.5453267    0.1052464    -0.2706452   -0.4619022    -0.3506432   -0.4757564    -0.0939952    0.1751640 
   3.102250000     0.5502419    0.0390056    -0.3441825   -0.4280740    -0.4004261   -0.3839581    -0.0623884    0.1747440 
   3.122200000     0.5457420   -0.0189018    -0.3950512   -0.3659324    -0.4079160   -0.3386419    -0.0324164    0.1648582 
   3.142150000     0.5380231   -0.0776313    -0.4252236   -0.3194349    -0.4609814   -0.3145965    -0.0040421    0.1518230 
