! 9/28/2016 12:32:43 PM
! C:\USERS\ANRITSUUSER\DESKTOP\SWITCHES\DESIGN3-RF1-RF2_UNTERMINATED.S2P
! CHANNEL.1
! TR.MEASUREMENT
! CORRECTED.DATA
# GHZ S RI R 50.0
! FREQ.GHZ         S11RE         S11IM         S21RE         S21IM         S12RE         S12IM         S22RE         S22IM         
!; PortSelection: Port_12
   0.010000000    -0.0138022    0.0038875    -0.0000009    0.0000045     0.0000107    0.0000049     0.9089785   -0.0659654 
   0.029950000    -0.0116899    0.0052315     0.0000011   -0.0000089    -0.0000095    0.0000004     0.8861440   -0.1250438 
   0.049900000    -0.0106916    0.0058768    -0.0000009    0.0000028    -0.0000055    0.0000030     0.8600136   -0.1917549 
   0.069850000    -0.0099544    0.0070014     0.0000038    0.0000008     0.0000078   -0.0000028     0.8335560   -0.2559102 
   0.089800000    -0.0103614    0.0083914    -0.0000050    0.0000063     0.0000020    0.0000085     0.8053590   -0.3163758 
   0.109750000    -0.0117572    0.0101228    -0.0000143    0.0000047    -0.0000102    0.0000079     0.7725120   -0.3763726 
   0.129700000    -0.0131279    0.0112710     0.0000009    0.0000148    -0.0000084    0.0000141     0.7369639   -0.4361472 
   0.149650000    -0.0134736    0.0130646     0.0000067    0.0000096     0.0000101    0.0000088     0.6973373   -0.4930022 
   0.169600000    -0.0138382    0.0167812     0.0000106    0.0000112     0.0000086    0.0000115     0.6537094   -0.5433383 
   0.189550000    -0.0153768    0.0212124     0.0000111    0.0000124     0.0000086    0.0000114     0.6042682   -0.5891346 
   0.209500000    -0.0167208    0.0247018     0.0000025   -0.0000035     0.0000025   -0.0000088     0.5514141   -0.6329772 
   0.229450000    -0.0160912    0.0278732     0.0000034    0.0000065     0.0000011    0.0000062     0.4955745   -0.6730096 
   0.249400000    -0.0135479    0.0325452     0.0000009    0.0000115     0.0000111    0.0000087     0.4373699   -0.7072773 
   0.269350000    -0.0113516    0.0387008     0.0000023    0.0000182     0.0000114    0.0000241     0.3742425   -0.7344505 
   0.289300000    -0.0093715    0.0438261     0.0000053    0.0000073    -0.0000014    0.0000143     0.3077921   -0.7584962 
   0.309250000    -0.0061030    0.0472706     0.0000019    0.0000174     0.0000058    0.0000154     0.2399849   -0.7766083 
   0.329200000    -0.0003845    0.0502254     0.0000180    0.0000192     0.0000197    0.0000140     0.1732981   -0.7903401 
   0.349150000     0.0063804    0.0541442     0.0000077    0.0000033     0.0000079    0.0000020     0.1053844   -0.7949572 
   0.369100000     0.0119611    0.0574898     0.0000100    0.0000236     0.0000068    0.0000248     0.0346608   -0.7941655 
   0.389050000     0.0173724    0.0582838     0.0000322    0.0000194     0.0000324    0.0000172    -0.0364664   -0.7858525 
   0.409000000     0.0245502    0.0570549     0.0000389    0.0000092     0.0000309    0.0000044    -0.1048453   -0.7733365 
   0.428950000     0.0323823    0.0556351     0.0000254    0.0000164     0.0000218    0.0000169    -0.1701237   -0.7542248 
   0.448900000     0.0388637    0.0543470     0.0000217    0.0000184     0.0000123    0.0000211    -0.2360143   -0.7289280 
   0.468850000     0.0429975    0.0506441     0.0000180    0.0000131     0.0000141    0.0000111    -0.2987983   -0.6961147 
   0.488800000     0.0468539    0.0440040     0.0000269    0.0000146     0.0000322    0.0000102    -0.3580517   -0.6590260 
   0.508750000     0.0511613    0.0363991     0.0000213   -0.0000063     0.0000198   -0.0000024    -0.4119481   -0.6173422 
   0.528700000     0.0544524    0.0298362     0.0000307   -0.0000323     0.0000273   -0.0000243    -0.4638258   -0.5703735 
   0.548650000     0.0541140    0.0233456     0.0000251   -0.0000442     0.0000245   -0.0000421    -0.5108060   -0.5171304 
   0.568600000     0.0515605    0.0149811     0.0000396   -0.0000535     0.0000330   -0.0000572    -0.5524470   -0.4609637 
   0.588550000     0.0485198    0.0061429     0.0000196   -0.0000544     0.0000116   -0.0000583    -0.5865756   -0.4030489 
   0.608500000     0.0443656   -0.0006216     0.0000131   -0.0000588     0.0000110   -0.0000494    -0.6155413   -0.3404682 
   0.628450000     0.0373432   -0.0050683    -0.0000122   -0.0000442    -0.0000070   -0.0000382    -0.6395714   -0.2747924 
   0.648400000     0.0271551   -0.0088166     0.0000119   -0.0000416     0.0000129   -0.0000453    -0.6582149   -0.2085432 
   0.668350000     0.0159465   -0.0129165     0.0000075   -0.0000558     0.0000039   -0.0000423    -0.6690407   -0.1435033 
   0.688300000     0.0055363   -0.0146269    -0.0000024   -0.0000495     0.0000048   -0.0000477    -0.6732023   -0.0777206 
   0.708250000    -0.0053039   -0.0122984     0.0000030   -0.0000762     0.0000029   -0.0000604    -0.6697820   -0.0101972 
   0.728200000    -0.0178911   -0.0069008    -0.0000104   -0.0000846    -0.0000089   -0.0000903    -0.6626540    0.0562275 
   0.748150000    -0.0308465   -0.0001213    -0.0000250   -0.0000841    -0.0000164   -0.0000835    -0.6494538    0.1193165 
   0.768100000    -0.0416075    0.0083300    -0.0000429   -0.0000812    -0.0000314   -0.0000725    -0.6292691    0.1786167 
   0.788050000    -0.0504147    0.0202087    -0.0000456   -0.0000752    -0.0000495   -0.0000666    -0.6027930    0.2369305 
   0.808000000    -0.0579587    0.0351692    -0.0000611   -0.0000675    -0.0000603   -0.0000696    -0.5723055    0.2935706 
   0.827950000    -0.0643619    0.0512147    -0.0000636   -0.0000582    -0.0000602   -0.0000623    -0.5383394    0.3467883 
   0.847900000    -0.0671208    0.0671343    -0.0000603   -0.0000592    -0.0000701   -0.0000604    -0.5001033    0.3935467 
   0.867850000    -0.0655919    0.0844562    -0.0000837   -0.0000599    -0.0000848   -0.0000588    -0.4564696    0.4359345 
   0.887800000    -0.0608886    0.1035092    -0.0001288   -0.0000163    -0.0001288   -0.0000219    -0.4104644    0.4751403 
   0.907750000    -0.0544019    0.1222679    -0.0000506    0.0001120    -0.0000481    0.0001098    -0.3623394    0.5105231 
   0.927700000    -0.0451315    0.1386906     0.0000056    0.0000413    -0.0000028    0.0000337    -0.3127689    0.5401195 
   0.947650000    -0.0314265    0.1528087    -0.0000586    0.0000429    -0.0000661    0.0000447    -0.2601631    0.5634552 
   0.967600000    -0.0143704    0.1659039    -0.0000937    0.0000766    -0.0000833    0.0000630    -0.2066497    0.5827655 
   0.987550000     0.0040552    0.1768687    -0.0001040    0.0001171    -0.0001005    0.0001097    -0.1521233    0.5983006 
   1.007500000     0.0232604    0.1839557    -0.0000917    0.0001476    -0.0000900    0.0001492    -0.0983437    0.6079904 
   1.027450000     0.0442492    0.1862932    -0.0000193    0.0001712    -0.0000213    0.0001756    -0.0428232    0.6115335 
   1.047400000     0.0672334    0.1854841     0.0000588    0.0001281     0.0000540    0.0001298     0.0122291    0.6117350 
   1.067350000     0.0897643    0.1816664     0.0001391    0.0000869     0.0001369    0.0000813     0.0654411    0.6076193 
   1.087300000     0.1098307    0.1744131     0.0001266   -0.0000655     0.0001264   -0.0000621     0.1161337    0.5994082 
   1.107250000     0.1284763    0.1619323     0.0000257   -0.0000835     0.0000344   -0.0000779     0.1664599    0.5842206 
   1.127200000     0.1464084    0.1458917    -0.0000173   -0.0000551    -0.0000203   -0.0000574     0.2166428    0.5672557 
   1.147150000     0.1614414    0.1282909    -0.0000486   -0.0000205    -0.0000416   -0.0000320     0.2640106    0.5472059 
   1.167100000     0.1718114    0.1088231    -0.0000513    0.0000141    -0.0000463    0.0000140     0.3073108    0.5240796 
   1.187050000     0.1769540    0.0861746    -0.0000343    0.0000595    -0.0000232    0.0000620     0.3462567    0.4966449 
   1.207000000     0.1788268    0.0612695     0.0000170    0.0000911     0.0000091    0.0000886     0.3848428    0.4655288 
   1.226950000     0.1776606    0.0363969     0.0000626    0.0001036     0.0000568    0.0001122     0.4224061    0.4310919 
   1.246900000     0.1715851    0.0136642     0.0001075    0.0001436     0.0001189    0.0001258     0.4556375    0.3965617 
   1.266850000     0.1591695   -0.0072109     0.0002135    0.0001427     0.0002128    0.0001228     0.4831127    0.3584367 
   1.286800000     0.1421124   -0.0273479     0.0002587   -0.0000341     0.0002451   -0.0000293     0.5082246    0.3179111 
   1.306750000     0.1220606   -0.0445562     0.0001112   -0.0001049     0.0001140   -0.0001002     0.5321612    0.2753164 
   1.326700000     0.0994491   -0.0561272     0.0000495   -0.0000780     0.0000612   -0.0000820     0.5527092    0.2330027 
   1.346650000     0.0731165   -0.0617190     0.0000413   -0.0000988     0.0000352   -0.0000933     0.5665087    0.1915612 
   1.366600000     0.0436497   -0.0625733    -0.0000018   -0.0001166    -0.0000077   -0.0001048     0.5766386    0.1477141 
   1.386550000     0.0144744   -0.0590413    -0.0000158   -0.0000963    -0.0000122   -0.0000994     0.5836468    0.1007660 
   1.406500000    -0.0129377   -0.0495258    -0.0000025   -0.0000541    -0.0000077   -0.0000553     0.5900049    0.0535071 
   1.426450000    -0.0381022   -0.0328285     0.0000342   -0.0000230     0.0000405   -0.0000265     0.5915742    0.0089403 
   1.446400000    -0.0608259   -0.0102685     0.0000625   -0.0000209     0.0000519   -0.0000192     0.5883402   -0.0343550 
   1.466350000    -0.0794896    0.0165002     0.0000579    0.0000035     0.0000561    0.0000020     0.5810972   -0.0785631 
   1.486300000    -0.0923835    0.0466510     0.0000789    0.0000201     0.0000803    0.0000118     0.5706590   -0.1235693 
   1.506250000    -0.0985488    0.0804557     0.0000885    0.0000007     0.0000952   -0.0000017     0.5572544   -0.1666552 
   1.526200000    -0.0989957    0.1159675     0.0000823   -0.0000315     0.0000754   -0.0000398     0.5408059   -0.2077856 
   1.546150000    -0.0934127    0.1504209     0.0000630   -0.0000760     0.0000426   -0.0000690     0.5211686   -0.2472394 
   1.566100000    -0.0802868    0.1828346     0.0000442   -0.0000970     0.0000372   -0.0000984     0.4976474   -0.2855212 
   1.586050000    -0.0598148    0.2136187     0.0000196   -0.0001086     0.0000207   -0.0000985     0.4711696   -0.3216646 
   1.606000000    -0.0342262    0.2414797    -0.0000041   -0.0001040    -0.0000106   -0.0001048     0.4412850   -0.3557515 
   1.625950000    -0.0050476    0.2644145    -0.0000016   -0.0000950    -0.0000121   -0.0000881     0.4092869   -0.3881251 
   1.645900000     0.0282493    0.2805590     0.0000226   -0.0001003     0.0000211   -0.0000874     0.3761097   -0.4175437 
   1.665850000     0.0655519    0.2905889     0.0000177   -0.0001260     0.0000225   -0.0001153     0.3402101   -0.4426276 
   1.685800000     0.1045645    0.2956063    -0.0000048   -0.0000981     0.0000061   -0.0000959     0.3015556   -0.4643415 
   1.705750000     0.1432540    0.2940705    -0.0000113   -0.0000688    -0.0000149   -0.0000706     0.2586520   -0.4842280 
   1.725700000     0.1801852    0.2858385     0.0000047   -0.0000710     0.0000173   -0.0000572     0.2158341   -0.5023645 
   1.745650000     0.2160384    0.2696561     0.0000444   -0.0000314     0.0000397   -0.0000334     0.1745135   -0.5162835 
   1.765600000     0.2496406    0.2485579     0.0000343   -0.0000019     0.0000374   -0.0000007     0.1331962   -0.5240799 
   1.785550000     0.2784737    0.2222355     0.0000103    0.0000328     0.0000025    0.0000488     0.0865663   -0.5261583 
   1.805500000     0.3020191    0.1915651    -0.0000265    0.0000866    -0.0000298    0.0000940     0.0369415   -0.5261772 
   1.825450000     0.3199943    0.1551200    -0.0000430    0.0001857    -0.0000342    0.0001517    -0.0115233   -0.5266868 
   1.845400000     0.3327251    0.1158889     0.0000635    0.0002271     0.0000134    0.0002084    -0.0558841   -0.5255093 
   1.865350000     0.3384856    0.0747323     0.0000681    0.0001435     0.0000378    0.0001815    -0.0980247   -0.5139878 
   1.885300000     0.3369700    0.0335069     0.0000403    0.0000952     0.0000514    0.0001357    -0.1403162   -0.4937845 
   1.905250000     0.3271804   -0.0076138     0.0000767    0.0001078     0.0000841    0.0000962    -0.1822407   -0.4733183 
   1.925200000     0.3099467   -0.0476040     0.0001295    0.0000239     0.0001038    0.0000412    -0.2258424   -0.4535703 
   1.945150000     0.2852558   -0.0841267     0.0000821   -0.0000181     0.0000937   -0.0000038    -0.2637228   -0.4287806 
   1.965100000     0.2532451   -0.1157364     0.0000512   -0.0000123     0.0000707   -0.0000057    -0.2977186   -0.4002699 
   1.985050000     0.2148841   -0.1413425     0.0000787   -0.0000187     0.0000895   -0.0000241    -0.3304324   -0.3680982 
   2.005000000     0.1709320   -0.1594838     0.0001139   -0.0000848     0.0000931   -0.0000699    -0.3631259   -0.3314896 
   2.024950000     0.1243641   -0.1684464     0.0000748   -0.0001414     0.0000856   -0.0001082    -0.3923295   -0.2951675 
   2.044900000     0.0753248   -0.1669322     0.0000462   -0.0001350     0.0000693   -0.0001538    -0.4162472   -0.2553680 
   2.064850000     0.0264604   -0.1550519     0.0000394   -0.0001302     0.0000306   -0.0001613    -0.4351460   -0.2136629 
   2.084800000    -0.0206497   -0.1323720     0.0000166   -0.0001524     0.0000073   -0.0001461    -0.4508568   -0.1677490 
   2.104750000    -0.0617730   -0.1004251    -0.0000134   -0.0001389    -0.0000161   -0.0001179    -0.4641623   -0.1212076 
   2.124700000    -0.0955130   -0.0591931    -0.0000417   -0.0000800    -0.0000463   -0.0000952    -0.4734929   -0.0737804 
   2.144650000    -0.1201318   -0.0100096    -0.0000490   -0.0000605    -0.0000618   -0.0000649    -0.4771259   -0.0272199 
   2.164600000    -0.1346453    0.0441534    -0.0000670   -0.0000494    -0.0000785   -0.0000507    -0.4757473    0.0194499 
   2.184550000    -0.1375453    0.0995060    -0.0000937   -0.0000526    -0.0000830   -0.0000538    -0.4695436    0.0664375 
   2.204500000    -0.1275664    0.1542933    -0.0001186   -0.0000536    -0.0001167   -0.0000383    -0.4595746    0.1144343 
   2.224450000    -0.1058482    0.2067960    -0.0001158   -0.0000513    -0.0001372   -0.0000539    -0.4452421    0.1618668 
   2.244400000    -0.0744429    0.2549091    -0.0001055   -0.0000604    -0.0001438   -0.0000763    -0.4264977    0.2066662 
   2.264350000    -0.0347380    0.2958710    -0.0001184   -0.0000571    -0.0001380   -0.0000647    -0.4038710    0.2490403 
   2.284300000     0.0110614    0.3275069    -0.0001314   -0.0000550    -0.0001190   -0.0000335    -0.3764899    0.2891494 
   2.304250000     0.0624815    0.3500576    -0.0001044   -0.0000219    -0.0001174   -0.0000109    -0.3452710    0.3274328 
   2.324200000     0.1160413    0.3622727    -0.0000686    0.0000337    -0.0001113    0.0000149    -0.3114014    0.3628869 
   2.344150000     0.1712792    0.3647558    -0.0000805    0.0000744    -0.0000936    0.0000721    -0.2749295    0.3931239 
   2.364100000     0.2251770    0.3575011    -0.0000906    0.0001113    -0.0000900    0.0001280    -0.2342005    0.4197440 
   2.384050000     0.2779741    0.3403076    -0.0000523    0.0001366    -0.0000678    0.0001392    -0.1897905    0.4426675 
   2.404000000     0.3271496    0.3154622    -0.0000035    0.0001407    -0.0000425    0.0001464    -0.1433752    0.4633062 
   2.423950000     0.3713366    0.2838681     0.0000097    0.0001576    -0.0000006    0.0001595    -0.0967285    0.4796987 
   2.443900000     0.4090308    0.2460304     0.0000059    0.0001563    -0.0000002    0.0001786    -0.0492305    0.4903492 
   2.463850000     0.4395629    0.2014905     0.0000228    0.0001361     0.0000202    0.0001480    -0.0001983    0.4950235 
   2.483800000     0.4629046    0.1518591     0.0000890    0.0001129     0.0000582    0.0001070     0.0510417    0.4948525 
   2.503750000     0.4787303    0.0986115     0.0001318    0.0000799     0.0001015    0.0000742     0.1028658    0.4908351 
   2.523700000     0.4871061    0.0437651     0.0001256    0.0000553     0.0001206    0.0000430     0.1536566    0.4823735 
   2.543650000     0.4853875   -0.0112890     0.0001057    0.0000151     0.0000961    0.0000055     0.2014716    0.4687160 
   2.563600000     0.4738712   -0.0662986     0.0000879    0.0000061     0.0000643   -0.0000100     0.2490144    0.4479288 
   2.583550000     0.4528398   -0.1209134     0.0000792    0.0000304     0.0000637    0.0000101     0.2962647    0.4227460 
   2.603500000     0.4227256   -0.1716846     0.0000637    0.0000646     0.0000583    0.0000517     0.3421068    0.3948330 
   2.623450000     0.3833105   -0.2167898     0.0000629    0.0000962     0.0000578    0.0001028     0.3830544    0.3634979 
   2.643400000     0.3350749   -0.2547580     0.0001126    0.0001103     0.0000850    0.0000912     0.4192557    0.3267125 
   2.663350000     0.2789783   -0.2843412     0.0001548    0.0001208     0.0001237    0.0000719     0.4513050    0.2840258 
   2.683300000     0.2157777   -0.3036686     0.0001425    0.0000847     0.0001304    0.0000461     0.4825771    0.2367143 
   2.703250000     0.1488087   -0.3099674     0.0001105    0.0000473     0.0001050    0.0000473     0.5095216    0.1879808 
   2.723200000     0.0791672   -0.3015944     0.0001058    0.0000505     0.0000887    0.0000457     0.5313619    0.1372361 
   2.743150000     0.0117740   -0.2783315     0.0001042    0.0000697     0.0000787    0.0000343     0.5454107    0.0854278 
   2.763100000    -0.0513872   -0.2402687     0.0000942    0.0000645     0.0000813    0.0000284     0.5542830    0.0293771 
   2.783050000    -0.1053945   -0.1880019     0.0000772    0.0000399     0.0000786    0.0000305     0.5577962   -0.0282451 
   2.803000000    -0.1478488   -0.1232232     0.0000763    0.0000166     0.0000695    0.0000229     0.5569580   -0.0861982 
   2.822950000    -0.1746379   -0.0504459     0.0000659    0.0000006     0.0000587   -0.0000024     0.5488577   -0.1431056 
   2.842900000    -0.1834998    0.0269278     0.0000545   -0.0000172     0.0000630   -0.0000227     0.5350460   -0.2004033 
   2.862850000    -0.1732860    0.1056158     0.0000560   -0.0000462     0.0000809   -0.0000501     0.5148475   -0.2562208 
   2.882800000    -0.1457317    0.1810969     0.0000977   -0.0000788     0.0001030   -0.0000755     0.4900723   -0.3104166 
   2.902750000    -0.1045739    0.2488054     0.0000966   -0.0000878     0.0001210   -0.0000825     0.4587337   -0.3608088 
   2.922700000    -0.0508207    0.3038780     0.0000798   -0.0000849     0.0001168   -0.0000673     0.4207661   -0.4080837 
   2.942650000     0.0134704    0.3442149     0.0000514   -0.0000571     0.0000622   -0.0000469     0.3776577   -0.4524057 
   2.962600000     0.0850171    0.3711179     0.0000308   -0.0000481     0.0000415   -0.0000460     0.3297645   -0.4928115 
   2.982550000     0.1571282    0.3850990     0.0000408   -0.0000497     0.0000552   -0.0000382     0.2781549   -0.5289205 
   3.002500000     0.2272596    0.3847204     0.0000518   -0.0000156     0.0000796   -0.0000151     0.2228786   -0.5586798 
   3.022450000     0.2944287    0.3687692     0.0000572   -0.0000070     0.0000708   -0.0000113     0.1656831   -0.5829880 
   3.042400000     0.3599687    0.3410805     0.0000598   -0.0000407     0.0000731   -0.0000407     0.1068019   -0.6001479 
   3.062350000     0.4196319    0.3051620     0.0000791   -0.0000867     0.0000921   -0.0000770     0.0444560   -0.6104267 
   3.082300000     0.4703421    0.2634920     0.0000736   -0.0000922     0.0001221   -0.0001066    -0.0207290   -0.6135706 
   3.102250000     0.5095101    0.2130295     0.0000608   -0.0000962     0.0000786   -0.0001025    -0.0856776   -0.6128339 
   3.122200000     0.5406150    0.1566951     0.0000550   -0.0001089     0.0000578   -0.0001150    -0.1482490   -0.6064178 
   3.142150000     0.5650195    0.0961718     0.0000101   -0.0001552     0.0000385   -0.0001516    -0.2086656   -0.5906411 
