! 9/28/2016 12:54:57 PM
! C:\USERS\ANRITSUUSER\DESKTOP\SWITCHES\DESIGN1-RF1-RF2.S2P
! CHANNEL.1
! TR.MEASUREMENT
! CORRECTED.DATA
# GHZ S RI R 50.0
! FREQ.GHZ         S11RE         S11IM         S21RE         S21IM         S12RE         S12IM         S22RE         S22IM         
!; PortSelection: Port_12
   0.010000000     0.9461003   -0.1742861     0.0030358    0.0001671     0.0030341    0.0001662     0.9838268   -0.1382829 
   0.029950000     0.7881328   -0.4283791     0.0026696    0.0008775     0.0026678    0.0008634     0.9150594   -0.3642654 
   0.049900000     0.5725611   -0.5652695     0.0033188    0.0023627     0.0032958    0.0023342     0.7961141   -0.5718049 
   0.069850000     0.3701993   -0.6013843     0.0042810    0.0026521     0.0042558    0.0026399     0.6317260   -0.7443726 
   0.089800000     0.2106549   -0.5776770     0.0054207    0.0032784     0.0054044    0.0032611     0.4311617   -0.8702007 
   0.109750000     0.0937644   -0.5297093     0.0071360    0.0032798     0.0070722    0.0033531     0.2026404   -0.9460151 
   0.129700000     0.0108030   -0.4750441     0.0092028    0.0028253     0.0091150    0.0028872    -0.0363262   -0.9632490 
   0.149650000    -0.0479165   -0.4213725     0.0107208    0.0019062     0.0106854    0.0020191    -0.2695140   -0.9207870 
   0.169600000    -0.0895375   -0.3702265     0.0120614   -0.0000161     0.0120991   -0.0000544    -0.4829211   -0.8235566 
   0.189550000    -0.1230205   -0.3223396     0.0133607   -0.0012687     0.0133227   -0.0012799    -0.6664099   -0.6734895 
   0.209500000    -0.1470259   -0.2796669     0.0143162   -0.0047880     0.0142797   -0.0047537    -0.8074129   -0.4870924 
   0.229450000    -0.1665708   -0.2402395     0.0141940   -0.0067598     0.0141354   -0.0067044    -0.8951936   -0.2765623 
   0.249400000    -0.1790739   -0.2009686     0.0139327   -0.0092430     0.0139377   -0.0091481    -0.9285450   -0.0550238 
   0.269350000    -0.1882355   -0.1608227     0.0132638   -0.0118904     0.0132376   -0.0118434    -0.9088959    0.1663002 
   0.289300000    -0.1937231   -0.1226757     0.0121084   -0.0144419     0.0119438   -0.0143134    -0.8409675    0.3728381 
   0.309250000    -0.1938069   -0.0866696     0.0103351   -0.0169814     0.0102415   -0.0167400    -0.7296322    0.5532342 
   0.329200000    -0.1872961   -0.0523478     0.0078105   -0.0190405     0.0080467   -0.0188532    -0.5808051    0.7014151 
   0.349150000    -0.1751350   -0.0187182     0.0051205   -0.0205407     0.0052310   -0.0205588    -0.4060067    0.8106754 
   0.369100000    -0.1598140    0.0122102     0.0026876   -0.0218624     0.0025258   -0.0216392    -0.2169551    0.8797628 
   0.389050000    -0.1407001    0.0377893    -0.0005663   -0.0229928    -0.0003457   -0.0226252    -0.0216639    0.9033222 
   0.409000000    -0.1163277    0.0573102    -0.0041911   -0.0231145    -0.0035211   -0.0232209     0.1757689    0.8837622 
   0.428950000    -0.0883692    0.0721220    -0.0069367   -0.0225136    -0.0067440   -0.0230879     0.3623592    0.8216224 
   0.448900000    -0.0606907    0.0820341    -0.0095042   -0.0228051    -0.0099181   -0.0228539     0.5306041    0.7261368 
   0.468850000    -0.0349087    0.0843554    -0.0135576   -0.0227712    -0.0132203   -0.0223323     0.6727045    0.5951511 
   0.488800000    -0.0104310    0.0793942    -0.0174827   -0.0208437    -0.0167460   -0.0211958     0.7850084    0.4323037 
   0.508750000     0.0128165    0.0693494    -0.0198955   -0.0187017    -0.0201497   -0.0196089     0.8602087    0.2482413 
   0.528700000     0.0320343    0.0571690    -0.0226091   -0.0177929    -0.0235588   -0.0175226     0.8947256    0.0521147 
   0.548650000     0.0444331    0.0430471    -0.0272849   -0.0157217    -0.0269219   -0.0149411     0.8821439   -0.1498052 
   0.568600000     0.0513119    0.0258560    -0.0307825   -0.0109283    -0.0301566   -0.0115163     0.8208597   -0.3489957 
   0.588550000     0.0547754    0.0088242    -0.0321612   -0.0066564    -0.0330672   -0.0073652     0.7145246   -0.5317345 
   0.608500000     0.0551501   -0.0052553    -0.0342783   -0.0035272    -0.0354005   -0.0025749     0.5661452   -0.6853159 
   0.628450000     0.0511860   -0.0153937    -0.0381632    0.0020287    -0.0372804    0.0030907     0.3805853   -0.8001464 
   0.648400000     0.0429899   -0.0229764    -0.0385772    0.0099830    -0.0377828    0.0093042     0.1661326   -0.8662467 
   0.668350000     0.0348875   -0.0284426    -0.0365575    0.0164610    -0.0371714    0.0159712    -0.0577117   -0.8791078 
   0.688300000     0.0293335   -0.0303958    -0.0349110    0.0216554    -0.0350622    0.0226319    -0.2772154   -0.8330876 
   0.708250000     0.0264402   -0.0277577    -0.0335895    0.0288550    -0.0319724    0.0288960    -0.4770819   -0.7319158 
   0.728200000     0.0238081   -0.0231471    -0.0271939    0.0365910    -0.0266230    0.0349139    -0.6459147   -0.5823495 
   0.748150000     0.0241131   -0.0188618    -0.0192882    0.0401826    -0.0204670    0.0393278    -0.7707896   -0.4012398 
   0.768100000     0.0287202   -0.0158157    -0.0133401    0.0416008    -0.0136062    0.0422376    -0.8429406   -0.2006820 
   0.788050000     0.0377834   -0.0136944    -0.0077510    0.0443544    -0.0065745    0.0439430    -0.8630229    0.0064898 
   0.808000000     0.0482151   -0.0141235     0.0007910    0.0461236     0.0006733    0.0443999    -0.8356190    0.2085928 
   0.827950000     0.0593255   -0.0191253     0.0093312    0.0439542     0.0075610    0.0434458    -0.7658305    0.3937804 
   0.847900000     0.0710088   -0.0304454     0.0149484    0.0401820     0.0139197    0.0413433    -0.6595446    0.5509945 
   0.867850000     0.0823285   -0.0459994     0.0192022    0.0377033     0.0194341    0.0384171    -0.5247585    0.6778048 
   0.887800000     0.0901830   -0.0642583     0.0246327    0.0351744     0.0243904    0.0348767    -0.3721571    0.7728369 
   0.907750000     0.0920582   -0.0863792     0.0295925    0.0303883     0.0284648    0.0308554    -0.2080810    0.8329279 
   0.927700000     0.0880173   -0.1119231     0.0321535    0.0250666     0.0316240    0.0266527    -0.0409526    0.8559062 
   0.947650000     0.0789746   -0.1384109     0.0335631    0.0212161     0.0342800    0.0226445     0.1250650    0.8458283 
   0.967600000     0.0640807   -0.1623275     0.0358652    0.0181033     0.0367032    0.0184867     0.2841981    0.8070886 
   0.987550000     0.0415925   -0.1823407     0.0386099    0.0139458     0.0388450    0.0140358     0.4325973    0.7385022 
   1.007500000     0.0128633   -0.1991473     0.0398238    0.0085948     0.0400765    0.0095905     0.5619936    0.6412985 
   1.027450000    -0.0191628   -0.2108182     0.0396258    0.0044814     0.0412580    0.0056269     0.6724478    0.5195513 
   1.047400000    -0.0519279   -0.2154300     0.0404834    0.0020212     0.0429303    0.0014267     0.7591671    0.3785333 
   1.067350000    -0.0856050   -0.2106360     0.0437830   -0.0016915     0.0442929   -0.0039667     0.8163728    0.2210699 
   1.087300000    -0.1195534   -0.1988976     0.0456692   -0.0090109     0.0446030   -0.0094921     0.8387355    0.0514350 
   1.107250000    -0.1502073   -0.1808555     0.0440251   -0.0153989     0.0447250   -0.0146944     0.8254362   -0.1254119 
   1.127200000    -0.1745116   -0.1582033     0.0435733   -0.0190386     0.0453871   -0.0208891     0.7746146   -0.3001773 
   1.147150000    -0.1921790   -0.1293297     0.0466173   -0.0255748     0.0446321   -0.0288655     0.6823505   -0.4620564 
   1.167100000    -0.2040768   -0.0976136     0.0451575   -0.0381675     0.0416486   -0.0370586     0.5483984   -0.6025541 
   1.187050000    -0.2100965   -0.0665537     0.0368612   -0.0467014     0.0373265   -0.0445029     0.3772368   -0.7123016 
   1.207000000    -0.2078148   -0.0386472     0.0313197   -0.0507336     0.0319659   -0.0522929     0.1783843   -0.7790796 
   1.226950000    -0.1986417   -0.0133873     0.0278262   -0.0599720     0.0237801   -0.0601423    -0.0336195   -0.7890064 
   1.246900000    -0.1850521    0.0114494     0.0139318   -0.0708078     0.0127170   -0.0656825    -0.2444634   -0.7424589 
   1.266850000    -0.1661088    0.0281395    -0.0026387   -0.0704118     0.0011255   -0.0685478    -0.4385794   -0.6387504 
   1.286800000    -0.1487592    0.0354003    -0.0122318   -0.0680618    -0.0113026   -0.0697891    -0.5976865   -0.4884390 
   1.306750000    -0.1314454    0.0379112    -0.0236790   -0.0695964    -0.0243720   -0.0676312    -0.7048209   -0.3036189 
   1.326700000    -0.1148008    0.0357734    -0.0414854   -0.0640199    -0.0371378   -0.0623466    -0.7587947   -0.0989179 
   1.346650000    -0.1047209    0.0298861    -0.0507499   -0.0495317    -0.0477282   -0.0539766    -0.7581319    0.1081377 
   1.366600000    -0.1020010    0.0215414    -0.0530229   -0.0402438    -0.0558357   -0.0440936    -0.7087750    0.2984965 
   1.386550000    -0.1039928    0.0123180    -0.0587763   -0.0346521    -0.0612431   -0.0333453    -0.6196491    0.4608520 
   1.406500000    -0.1092589    0.0032137    -0.0660974   -0.0222482    -0.0643495   -0.0222992    -0.4992145    0.5928716 
   1.426450000    -0.1211556    0.0001147    -0.0644947   -0.0080585    -0.0651536   -0.0117107    -0.3580689    0.6924828 
   1.446400000    -0.1361376    0.0032637    -0.0598790   -0.0008250    -0.0642201   -0.0018625    -0.2059912    0.7550545 
   1.466350000    -0.1516736    0.0122726    -0.0593664    0.0037602    -0.0621112    0.0071720    -0.0526910    0.7835659 
   1.486300000    -0.1647647    0.0271591    -0.0600338    0.0129004    -0.0586216    0.0151093     0.1002647    0.7800232 
   1.506250000    -0.1739177    0.0490584    -0.0545559    0.0226040    -0.0545040    0.0214047     0.2465527    0.7487605 
   1.526200000    -0.1789065    0.0757558    -0.0475483    0.0258141    -0.0506120    0.0268980     0.3796354    0.6907043 
   1.546150000    -0.1772463    0.1046265    -0.0462075    0.0263373    -0.0468734    0.0316898     0.4973590    0.6101478 
   1.566100000    -0.1669091    0.1329250    -0.0484536    0.0327823    -0.0430195    0.0362430     0.5968730    0.5092303 
   1.586050000    -0.1469407    0.1608556    -0.0430764    0.0434117    -0.0391557    0.0404934     0.6757449    0.3902752 
   1.606000000    -0.1192658    0.1855501    -0.0339295    0.0454986    -0.0354481    0.0444438     0.7293428    0.2558543 
   1.625950000    -0.0866036    0.2032055    -0.0330479    0.0441926    -0.0319849    0.0485864     0.7561606    0.1100634 
   1.645900000    -0.0493250    0.2114908    -0.0379865    0.0532883    -0.0284594    0.0536572     0.7525371   -0.0433875 
   1.665850000    -0.0086801    0.2102352    -0.0269088    0.0711709    -0.0233678    0.0601308     0.7145391   -0.1961652 
   1.685800000     0.0319369    0.2008324    -0.0086344    0.0705647    -0.0160269    0.0662175     0.6384443   -0.3407556 
   1.705750000     0.0700544    0.1818967    -0.0063736    0.0655664    -0.0077610    0.0711982     0.5235094   -0.4695773 
   1.725700000     0.1011010    0.1532309    -0.0089223    0.0807832     0.0018331    0.0770520     0.3747113   -0.5713413 
   1.745650000     0.1254782    0.1180239     0.0249100    0.0998019     0.0163204    0.0824218     0.1969362   -0.6308709 
   1.765600000     0.1428005    0.0783142     0.0512363    0.0752059     0.0339585    0.0819653     0.0023835   -0.6343386 
   1.785550000     0.1504956    0.0349510     0.0458500    0.0622417     0.0500470    0.0767363    -0.1952901   -0.5781261 
   1.805500000     0.1459210   -0.0105940     0.0561264    0.0813043     0.0657747    0.0693054    -0.3706982   -0.4683429 
   1.825450000     0.1284994   -0.0537557     0.1054116    0.0541307     0.0817067    0.0570006    -0.5020673   -0.3152022 
   1.845400000     0.1036432   -0.0917405     0.0876778    0.0132075     0.0930088    0.0391404    -0.5713920   -0.1311996 
   1.865350000     0.0712953   -0.1188629     0.0705902    0.0224374     0.0989180    0.0188758    -0.5791917    0.0684411 
   1.885300000     0.0380897   -0.1377459     0.1148955    0.0269334     0.0995629   -0.0010324    -0.5361423    0.2600916 
   1.905250000    -0.0008222   -0.1525743     0.1023521   -0.0458137     0.0956993   -0.0201954    -0.4494897    0.4245329 
   1.925200000    -0.0432285   -0.1549613     0.0610993   -0.0389351     0.0869656   -0.0370548    -0.3295254    0.5434544 
   1.945150000    -0.0798922   -0.1459050     0.0693166   -0.0193615     0.0757632   -0.0496413    -0.1897592    0.6207865 
   1.965100000    -0.1121690   -0.1339329     0.0964630   -0.0563706     0.0641579   -0.0589094    -0.0381676    0.6607270 
   1.985050000    -0.1423506   -0.1140382     0.0467979   -0.0844724     0.0519909   -0.0653610     0.1099105    0.6675714 
   2.005000000    -0.1638812   -0.0878422     0.0272158   -0.0615786     0.0405683   -0.0698765     0.2481158    0.6420243 
   2.024950000    -0.1747759   -0.0603097     0.0393354   -0.0545203     0.0291629   -0.0731622     0.3710189    0.5904796 
   2.044900000    -0.1777369   -0.0339164     0.0420122   -0.0834531     0.0173232   -0.0745743     0.4787821    0.5121233 
   2.064850000    -0.1746034   -0.0121224     0.0019198   -0.0925367     0.0067838   -0.0732480     0.5681962    0.4157952 
   2.084800000    -0.1685666    0.0041602    -0.0122324   -0.0699638    -0.0017668   -0.0720775     0.6360160    0.3039671 
   2.104750000    -0.1607136    0.0138923    -0.0053652   -0.0631063    -0.0111319   -0.0709308     0.6783114    0.1823077 
   2.124700000    -0.1542020    0.0187301    -0.0073179   -0.0769927    -0.0211507   -0.0676224     0.6938027    0.0522895 
   2.144650000    -0.1508142    0.0208941    -0.0353051   -0.0807128    -0.0290319   -0.0622958     0.6808181   -0.0818052 
   2.164600000    -0.1519077    0.0225149    -0.0490772   -0.0585198    -0.0352138   -0.0575854     0.6368319   -0.2159740 
   2.184550000    -0.1552578    0.0239502    -0.0440266   -0.0480461    -0.0418726   -0.0539489     0.5606011   -0.3401329 
   2.204500000    -0.1585495    0.0260175    -0.0460685   -0.0528109    -0.0498552   -0.0486429     0.4538587   -0.4454845 
   2.224450000    -0.1609764    0.0291066    -0.0657614   -0.0494870    -0.0560691   -0.0409972     0.3145947   -0.5239435 
   2.244400000    -0.1647002    0.0294865    -0.0732357   -0.0269974    -0.0608342   -0.0337996     0.1492648   -0.5629405 
   2.264350000    -0.1745858    0.0279045    -0.0658626   -0.0167224    -0.0662699   -0.0269925    -0.0305579   -0.5546868 
   2.284300000    -0.1908403    0.0284710    -0.0687963   -0.0168467    -0.0728979   -0.0174745    -0.2050449   -0.4906084 
   2.304250000    -0.2106393    0.0344904    -0.0810175   -0.0041196    -0.0769402   -0.0040400    -0.3568183   -0.3724915 
   2.324200000    -0.2328961    0.0492335    -0.0760195    0.0172582    -0.0759669    0.0097563    -0.4639654   -0.2088104 
   2.344150000    -0.2538910    0.0743610    -0.0663146    0.0234444    -0.0733698    0.0217456    -0.5145159   -0.0215647 
   2.364100000    -0.2683287    0.1067136    -0.0676126    0.0290693    -0.0692533    0.0347837    -0.5032658    0.1679077 
   2.384050000    -0.2744803    0.1404868    -0.0650272    0.0461783    -0.0599731    0.0465859    -0.4382839    0.3403163 
   2.404000000    -0.2741433    0.1746921    -0.0486690    0.0569610    -0.0492408    0.0534781    -0.3308336    0.4815245 
   2.423950000    -0.2668106    0.2123214    -0.0372810    0.0562982    -0.0395246    0.0588128    -0.1985957    0.5821400 
   2.443900000    -0.2513024    0.2512877    -0.0341763    0.0586665    -0.0288255    0.0624766    -0.0545971    0.6406721 
   2.463850000    -0.2282121    0.2874113    -0.0268528    0.0692265    -0.0184976    0.0637530     0.0909862    0.6613978 
   2.483800000    -0.1975005    0.3170650    -0.0081624    0.0745723    -0.0099648    0.0642483     0.2315545    0.6488544 
   2.503750000    -0.1602072    0.3378057     0.0068287    0.0668166     0.0002689    0.0653474     0.3605905    0.6100519 
   2.523700000    -0.1186216    0.3481986     0.0106805    0.0602783     0.0120902    0.0621606     0.4727569    0.5504796 
   2.543650000    -0.0801050    0.3482613     0.0158188    0.0621893     0.0201579    0.0549687     0.5652822    0.4752194 
   2.563600000    -0.0498412    0.3443692     0.0311406    0.0606272     0.0240725    0.0494285     0.6406481    0.3857895 
   2.583550000    -0.0225187    0.3418820     0.0411582    0.0450351     0.0291251    0.0462300     0.6989762    0.2848543 
   2.603500000     0.0071397    0.3360491     0.0376000    0.0344468     0.0350636    0.0407435     0.7394348    0.1776026 
   2.623450000     0.0342784    0.3244900     0.0366360    0.0349313     0.0380787    0.0337115     0.7592629    0.0654107 
   2.643400000     0.0574514    0.3088878     0.0467323    0.0335837     0.0395139    0.0288190     0.7600381   -0.0512837 
   2.663350000     0.0762533    0.2893772     0.0524593    0.0186750     0.0421024    0.0245746     0.7394006   -0.1700628 
   2.683300000     0.0905354    0.2691996     0.0454573    0.0099444     0.0446134    0.0189103     0.6987629   -0.2857867 
   2.703250000     0.0988681    0.2497866     0.0432316    0.0106909     0.0455499    0.0133852     0.6362534   -0.3928089 
   2.723200000     0.1019127    0.2330891     0.0497412    0.0075276     0.0463863    0.0089765     0.5492213   -0.4899613 
   2.743150000     0.0998449    0.2198784     0.0502747   -0.0048719     0.0479825    0.0036971     0.4353269   -0.5738010 
   2.763100000     0.0967331    0.2111893     0.0433713   -0.0099767     0.0484259   -0.0027988     0.2962896   -0.6370184 
   2.783050000     0.0943096    0.2082053     0.0425952   -0.0101248     0.0475943   -0.0084551     0.1419446   -0.6705902 
   2.803000000     0.0955787    0.2103536     0.0452653   -0.0165147     0.0473172   -0.0138831    -0.0241280   -0.6634715 
   2.822950000     0.1002988    0.2155748     0.0404944   -0.0247811     0.0469211   -0.0210203    -0.1926737   -0.6099455 
   2.842900000     0.1113649    0.2202625     0.0357696   -0.0270252     0.0435392   -0.0295600    -0.3505493   -0.5056331 
   2.862850000     0.1276097    0.2241263     0.0350179   -0.0312205     0.0378185   -0.0356661    -0.4787087   -0.3576314 
   2.882800000     0.1497770    0.2259972     0.0300185   -0.0384008     0.0329973   -0.0404177    -0.5597992   -0.1715181 
   2.902750000     0.1745711    0.2223445     0.0234501   -0.0408877     0.0273155   -0.0470276    -0.5823042    0.0315092 
   2.922700000     0.2009473    0.2094943     0.0198890   -0.0446242     0.0166029   -0.0521765    -0.5452321    0.2299575 
   2.942650000     0.2266702    0.1878859     0.0111937   -0.0498987     0.0057070   -0.0508244    -0.4557995    0.4031743 
   2.962600000     0.2504908    0.1612433     0.0014435   -0.0479167    -0.0006814   -0.0483456    -0.3272711    0.5382856 
   2.982550000     0.2680269    0.1314776    -0.0025604   -0.0464012    -0.0071122   -0.0478731    -0.1762875    0.6295828 
   3.002500000     0.2784933    0.0962135    -0.0104042   -0.0485987    -0.0161408   -0.0448039    -0.0181811    0.6779701 
   3.022450000     0.2812468    0.0549531    -0.0218015   -0.0425162    -0.0215308   -0.0376033     0.1367097    0.6877624 
   3.042400000     0.2785805    0.0115948    -0.0234494   -0.0339534    -0.0234079   -0.0326212     0.2822379    0.6643989 
   3.062350000     0.2688483   -0.0275619    -0.0241589   -0.0330819    -0.0262193   -0.0293199     0.4092678    0.6188138 
   3.082300000     0.2509699   -0.0616783    -0.0322061   -0.0306181    -0.0291577   -0.0242273     0.5193784    0.5534132 
   3.102250000     0.2245500   -0.0938794    -0.0356019   -0.0195065    -0.0294377   -0.0189459     0.6108645    0.4719963 
   3.122200000     0.1923416   -0.1230341    -0.0309210   -0.0141784    -0.0293427   -0.0156982     0.6848150    0.3790428 
   3.142150000     0.1569103   -0.1453888    -0.0312004   -0.0146892    -0.0301102   -0.0124213     0.7416140    0.2837476 
