! 9/28/2016 12:57:31 PM
! C:\USERS\ANRITSUUSER\DESKTOP\SWITCHES\DESIGN1-RF1-RF1.S2P
! CHANNEL.1
! TR.MEASUREMENT
! CORRECTED.DATA
# GHZ S RI R 50.0
! FREQ.GHZ         S11RE         S11IM         S21RE         S21IM         S12RE         S12IM         S22RE         S22IM         
!; PortSelection: Port_12
   0.010000000     0.9462690   -0.1740463     0.0250051    0.1159034     0.0248598    0.1153903     0.9574924   -0.2451353 
   0.029950000     0.7879608   -0.4276077     0.1819119    0.2777770     0.1807438    0.2776160     0.7120103   -0.5895413 
   0.049900000     0.5732262   -0.5638049     0.4026479    0.2958590     0.4014285    0.2961331     0.3719136   -0.7427945 
   0.069850000     0.3723616   -0.6001772     0.5848951    0.1952282     0.5836901    0.1956376     0.0661666   -0.7268656 
   0.089800000     0.2137746   -0.5778697     0.6956808    0.0346517     0.6942602    0.0350406    -0.1558422   -0.6164219 
   0.109750000     0.0969129   -0.5314586     0.7363008   -0.1465077     0.7351028   -0.1453475    -0.2959684   -0.4719556 
   0.129700000     0.0131135   -0.4787296     0.7171725   -0.3210315     0.7164796   -0.3191579    -0.3685645   -0.3262054 
   0.149650000    -0.0476694   -0.4266025     0.6554610   -0.4738708     0.6545924   -0.4722991    -0.3930962   -0.1938770 
   0.169600000    -0.0924415   -0.3750902     0.5655329   -0.6046556     0.5638108   -0.6017417    -0.3856055   -0.0791039 
   0.189550000    -0.1275486   -0.3251253     0.4503713   -0.7096699     0.4494779   -0.7050518    -0.3569890    0.0170644 
   0.209500000    -0.1516995   -0.2802913     0.3210323   -0.7880392     0.3217114   -0.7832400    -0.3160800    0.0883046 
   0.229450000    -0.1708379   -0.2392254     0.1802316   -0.8366638     0.1822342   -0.8323278    -0.2672669    0.1432808 
   0.249400000    -0.1824303   -0.1982507     0.0382244   -0.8598900     0.0409838   -0.8562005    -0.2125355    0.1825151 
   0.269350000    -0.1905877   -0.1566828    -0.1035393   -0.8573226    -0.1004972   -0.8543454    -0.1575639    0.2081120 
   0.289300000    -0.1947101   -0.1179211    -0.2412783   -0.8337753    -0.2363830   -0.8305800    -0.1069822    0.2214270 
   0.309250000    -0.1936214   -0.0820823    -0.3741597   -0.7852649    -0.3674629   -0.7850348    -0.0604120    0.2238857 
   0.329200000    -0.1859181   -0.0486471    -0.4933873   -0.7150939    -0.4885011   -0.7182136    -0.0176881    0.2184290 
   0.349150000    -0.1723751   -0.0160476    -0.5965071   -0.6304616    -0.5946410   -0.6318700     0.0199828    0.2073325 
   0.369100000    -0.1558252    0.0137453    -0.6888098   -0.5350639    -0.6840318   -0.5343891     0.0509080    0.1922992 
   0.389050000    -0.1358620    0.0381264    -0.7665619   -0.4204807    -0.7601373   -0.4246989     0.0757580    0.1726615 
   0.409000000    -0.1120504    0.0560113    -0.8189035   -0.2947690    -0.8180376   -0.3020202     0.0965858    0.1504677 
   0.428950000    -0.0857874    0.0703830    -0.8490030   -0.1698001    -0.8520855   -0.1719622     0.1141359    0.1289778 
   0.448900000    -0.0585123    0.0793602    -0.8678685   -0.0444909    -0.8661351   -0.0433096     0.1266023    0.1076376 
   0.468850000    -0.0335123    0.0809826    -0.8685255    0.0902175    -0.8641163    0.0862095     0.1332186    0.0845115 
   0.488800000    -0.0099109    0.0750916    -0.8400321    0.2232084    -0.8410220    0.2168626     0.1357165    0.0597482 
   0.508750000     0.0120025    0.0654745    -0.7927047    0.3405367    -0.7963013    0.3395194     0.1372911    0.0365749 
   0.528700000     0.0307236    0.0542426    -0.7369649    0.4503739    -0.7356741    0.4517170     0.1362498    0.0147584 
   0.548650000     0.0423920    0.0413160    -0.6653554    0.5581174    -0.6625345    0.5548430     0.1295112   -0.0059484 
   0.568600000     0.0481202    0.0249187    -0.5698386    0.6522773    -0.5716106    0.6473008     0.1179119   -0.0280516 
   0.588550000     0.0511374    0.0093529    -0.4654976    0.7237888    -0.4684835    0.7226945     0.1036961   -0.0460904 
   0.608500000     0.0518326   -0.0035211    -0.3572781    0.7812862    -0.3571231    0.7811869     0.0883056   -0.0612671 
   0.628450000     0.0482281   -0.0124215    -0.2411968    0.8290361    -0.2405803    0.8255124     0.0676496   -0.0724683 
   0.648400000     0.0408719   -0.0193890    -0.1124339    0.8555940    -0.1153349    0.8516281     0.0415913   -0.0805424 
   0.668350000     0.0338594   -0.0245154     0.0140263    0.8596255     0.0103655    0.8582995     0.0163725   -0.0844748 
   0.688300000     0.0299024   -0.0267073     0.1372735    0.8464969     0.1360995    0.8457959    -0.0065680   -0.0838756 
   0.708250000     0.0283779   -0.0250928     0.2584524    0.8207597     0.2563080    0.8168745    -0.0277825   -0.0778309 
   0.728200000     0.0264612   -0.0204892     0.3796741    0.7718782     0.3739724    0.7694048    -0.0509445   -0.0646149 
   0.748150000     0.0275731   -0.0169200     0.4875011    0.7045076     0.4814289    0.7059532    -0.0720303   -0.0494009 
   0.768100000     0.0334948   -0.0154338     0.5813295    0.6240114     0.5794036    0.6262062    -0.0894189   -0.0316265 
   0.788050000     0.0422421   -0.0153788     0.6652492    0.5349899     0.6627524    0.5332700    -0.1020216   -0.0106291 
   0.808000000     0.0521653   -0.0168542     0.7389491    0.4309350     0.7311113    0.4298676    -0.1111208    0.0134079 
   0.827950000     0.0624469   -0.0226128     0.7925412    0.3132831     0.7839650    0.3189927    -0.1176486    0.0393935 
   0.847900000     0.0727460   -0.0344550     0.8229241    0.1929023     0.8200071    0.2010848    -0.1185405    0.0653030 
   0.867850000     0.0821504   -0.0501470     0.8385902    0.0748632     0.8381773    0.0800556    -0.1131456    0.0917824 
   0.887800000     0.0884050   -0.0679228     0.8416519   -0.0463085     0.8384982   -0.0424484    -0.1034125    0.1186151 
   0.907750000     0.0893822   -0.0890873     0.8245021   -0.1711853     0.8206300   -0.1627742    -0.0904380    0.1442508 
   0.927700000     0.0849478   -0.1138893     0.7838743   -0.2889066     0.7847664   -0.2765077    -0.0731342    0.1659964 
   0.947650000     0.0750820   -0.1394400     0.7287883   -0.3927296     0.7377458   -0.3826923    -0.0501833    0.1835109 
   0.967600000     0.0597909   -0.1616400     0.6666276   -0.4880191     0.6776442   -0.4860718    -0.0244839    0.1977165 
   0.987550000     0.0371497   -0.1802647     0.5912072   -0.5801914     0.5960590   -0.5816837     0.0031785    0.2086119 
   1.007500000     0.0090435   -0.1959183     0.4974850   -0.6603906     0.5005732   -0.6547204     0.0316006    0.2126125 
   1.027450000    -0.0217775   -0.2066140     0.3912466   -0.7179834     0.4065513   -0.7119145     0.0619639    0.2103658 
   1.047400000    -0.0517658   -0.2098721     0.2893520   -0.7563710     0.3075878   -0.7686241     0.0922566    0.2022161 
   1.067350000    -0.0832603   -0.2062657     0.1877336   -0.7906761     0.1858505   -0.8110924     0.1198591    0.1907848 
   1.087300000    -0.1165216   -0.1946623     0.0726833   -0.8188760     0.0612008   -0.8199604     0.1444763    0.1727264 
   1.107250000    -0.1455081   -0.1779425    -0.0544737   -0.8179615    -0.0477637   -0.8125296     0.1651253    0.1484058 
   1.127200000    -0.1687643   -0.1564458    -0.1658399   -0.7914976    -0.1554700   -0.8074185     0.1827361    0.1207696 
   1.147150000    -0.1865434   -0.1301397    -0.2640022   -0.7622227    -0.2803636   -0.7824658     0.1936646    0.0931403 
   1.167100000    -0.2001735   -0.0987168    -0.3729903   -0.7315918    -0.3950347   -0.7238694     0.1965557    0.0632229 
   1.187050000    -0.2051572   -0.0689320    -0.4869666   -0.6691018    -0.4846358   -0.6540735     0.1899818    0.0325257 
   1.207000000    -0.2039591   -0.0432392    -0.5756235   -0.5813513    -0.5694261   -0.5867018     0.1791427    0.0011066 
   1.226950000    -0.1975781   -0.0190624    -0.6416894   -0.4957422    -0.6548656   -0.5013836     0.1624656   -0.0240950 
   1.246900000    -0.1846335    0.0066198    -0.7115627   -0.4133006    -0.7234670   -0.3982581     0.1479671   -0.0458120 
   1.266850000    -0.1673206    0.0230800    -0.7767662   -0.3012171    -0.7694283   -0.2862954     0.1182524   -0.0655118 
   1.286800000    -0.1526809    0.0308076    -0.8105864   -0.1767524    -0.8019094   -0.1753048     0.0861756   -0.0760539 
   1.306750000    -0.1370795    0.0351375    -0.8226031   -0.0594861    -0.8204232   -0.0577742     0.0538689   -0.0799281 
   1.326700000    -0.1209037    0.0352109    -0.8271925    0.0586330    -0.8214309    0.0625977     0.0240455   -0.0725434 
   1.346650000    -0.1102627    0.0306688    -0.8115693    0.1856217    -0.8046185    0.1833139    -0.0036109   -0.0597042 
   1.366600000    -0.1069354    0.0233820    -0.7685028    0.3047102    -0.7677568    0.3020768    -0.0317383   -0.0427391 
   1.386550000    -0.1082496    0.0163606    -0.7133525    0.4092082    -0.7110623    0.4112851    -0.0551519   -0.0200143 
   1.406500000    -0.1113359    0.0093956    -0.6477508    0.5101356    -0.6407300    0.5080665    -0.0679865    0.0078988 
   1.426450000    -0.1213576    0.0064928    -0.5593324    0.6024240    -0.5585214    0.5939074    -0.0758080    0.0383788 
   1.446400000    -0.1344292    0.0091394    -0.4572349    0.6697506    -0.4641937    0.6690527    -0.0777762    0.0710435 
   1.466350000    -0.1482514    0.0171869    -0.3583022    0.7208359    -0.3569251    0.7286329    -0.0732465    0.1017288 
   1.486300000    -0.1586407    0.0309877    -0.2529603    0.7665358    -0.2415253    0.7651734    -0.0605650    0.1287835 
   1.506250000    -0.1659500    0.0499695    -0.1315129    0.7957808    -0.1300596    0.7834845    -0.0416379    0.1517494 
   1.526200000    -0.1718880    0.0743067    -0.0095510    0.7912430    -0.0158191    0.7901053    -0.0186009    0.1716935 
   1.546150000    -0.1712568    0.1024876     0.0914601    0.7714885     0.0941197    0.7823190     0.0069400    0.1861538 
   1.566100000    -0.1612412    0.1295973     0.1869383    0.7594615     0.2059617    0.7561506     0.0336325    0.1936611 
   1.586050000    -0.1428767    0.1549423     0.3053938    0.7362252     0.3094519    0.7136530     0.0586241    0.1948824 
   1.606000000    -0.1185796    0.1781614     0.4198307    0.6665169     0.4032097    0.6569575     0.0808817    0.1912455 
   1.625950000    -0.0871976    0.1966305     0.4897984    0.5827091     0.4837854    0.5932093     0.1028600    0.1822047 
   1.645900000    -0.0506489    0.2030255     0.5456911    0.5271118     0.5606062    0.5258078     0.1190076    0.1665241 
   1.665850000    -0.0141631    0.2031508     0.6363286    0.4699335     0.6369803    0.4427792     0.1294052    0.1553087 
   1.685800000     0.0248426    0.1964012     0.7267984    0.3506026     0.6943141    0.3375723     0.1384878    0.1464073 
   1.705750000     0.0618393    0.1811468     0.7446770    0.2093094     0.7235560    0.2358621     0.1480126    0.1335288 
   1.725700000     0.0935862    0.1528500     0.7315989    0.1217444     0.7526758    0.1425648     0.1480146    0.1152753 
   1.745650000     0.1153781    0.1220318     0.7577155    0.0532085     0.7789714    0.0283119     0.1454867    0.1094688 
   1.765600000     0.1376452    0.0847605     0.8023588   -0.0712187     0.7692378   -0.0984799     0.1493715    0.1059108 
   1.785550000     0.1471941    0.0426857     0.7662861   -0.2384021     0.7332547   -0.2038175     0.1443293    0.1036808 
   1.805500000     0.1455453   -0.0034928     0.6650343   -0.3346726     0.7001863   -0.2969694     0.1372273    0.1027037 
   1.825450000     0.1311828   -0.0441444     0.6073401   -0.3593121     0.6563105   -0.3983400     0.1393392    0.1101867 
   1.845400000     0.1083626   -0.0857494     0.6351472   -0.4260950     0.5870523   -0.4945829     0.1680061    0.1121866 
   1.865350000     0.0756479   -0.1110124     0.5768505   -0.6285552     0.5059656   -0.5710630     0.1920425    0.0941826 
   1.885300000     0.0462790   -0.1325741     0.3642628   -0.6904320     0.4155939   -0.6387336     0.1887221    0.0801379 
   1.905250000     0.0118705   -0.1515698     0.2679714   -0.6346816     0.3133927   -0.6905896     0.1869499    0.0896042 
   1.925200000    -0.0342471   -0.1610830     0.2785527   -0.6627955     0.2049715   -0.7229613     0.2099446    0.0762284 
   1.945150000    -0.0719538   -0.1491096     0.1674386   -0.8077177     0.0986394   -0.7370491     0.2121698    0.0431287 
   1.965100000    -0.1034823   -0.1406099    -0.0477660   -0.7973867    -0.0047930   -0.7389363     0.2168034    0.0288363 
   1.985050000    -0.1371500   -0.1250083    -0.1386143   -0.6968040    -0.1082274   -0.7269629     0.2298146    0.0075507 
   2.005000000    -0.1645331   -0.0973235    -0.1575684   -0.6891984    -0.2069890   -0.7041690     0.2283303   -0.0297432 
   2.024950000    -0.1763387   -0.0683371    -0.2787529   -0.7385629    -0.3087207   -0.6705960     0.2068235   -0.0665525 
   2.044900000    -0.1797601   -0.0434086    -0.4564598   -0.6632766    -0.4086390   -0.6139026     0.1740985   -0.0970753 
   2.064850000    -0.1820522   -0.0235330    -0.5270106   -0.5314891    -0.4876190   -0.5400703     0.1398811   -0.1221875 
   2.084800000    -0.1790946   -0.0001177    -0.5587551   -0.4640385    -0.5561462   -0.4703759     0.0904045   -0.1391366 
   2.104750000    -0.1706644    0.0123604    -0.6425269   -0.4018883    -0.6309268   -0.3855372     0.0371660   -0.1345073 
   2.124700000    -0.1636889    0.0221346    -0.7134249   -0.2681020    -0.6858124   -0.2690614    -0.0166458   -0.1138453 
   2.144650000    -0.1596536    0.0247566    -0.7087929   -0.1381663    -0.6981381   -0.1496183    -0.0646349   -0.0788908 
   2.164600000    -0.1609961    0.0312738    -0.7002419   -0.0548273    -0.6924564   -0.0526810    -0.1058194   -0.0274348 
   2.184550000    -0.1573806    0.0344055    -0.7118614    0.0479027    -0.6908031    0.0408707    -0.1225852    0.0364443 
   2.204500000    -0.1569550    0.0360738    -0.6695982    0.1692501    -0.6708149    0.1478186    -0.1189575    0.1013480 
   2.224450000    -0.1561463    0.0367638    -0.6019362    0.2307134    -0.6204022    0.2402026    -0.0970072    0.1595990 
   2.244400000    -0.1605738    0.0379992    -0.5825309    0.2714608    -0.5664101    0.3047986    -0.0650169    0.2100265 
   2.264350000    -0.1652075    0.0369748    -0.5751373    0.3666345    -0.5261606    0.3646322    -0.0254838    0.2421441 
   2.284300000    -0.1799694    0.0315892    -0.4954426    0.4758770    -0.4776693    0.4388730     0.0077998    0.2710166 
   2.304250000    -0.2008675    0.0338521    -0.3887627    0.5118446    -0.4011334    0.5062894     0.0558287    0.2985364 
   2.324200000    -0.2246625    0.0474674    -0.3383645    0.5215841    -0.3135666    0.5433014     0.1095202    0.3146816 
   2.344150000    -0.2421830    0.0721792    -0.3029586    0.5855690    -0.2409818    0.5650046     0.1667274    0.3157899 
   2.364100000    -0.2555012    0.0974529    -0.1951495    0.6624616    -0.1688774    0.5909831     0.2208876    0.3085790 
   2.384050000    -0.2677856    0.1273545    -0.0595497    0.6602994    -0.0852587    0.6080142     0.2781256    0.2901717 
   2.404000000    -0.2725907    0.1629047     0.0156473    0.6220554    -0.0029945    0.6058798     0.3285057    0.2590317 
   2.423950000    -0.2674896    0.2017173     0.0639326    0.6242184     0.0732463    0.5986421     0.3684117    0.2179268 
   2.443900000    -0.2550033    0.2398571     0.1561473    0.6472897     0.1520495    0.5794187     0.3970485    0.1691767 
   2.463850000    -0.2362710    0.2755325     0.2866269    0.6164004     0.2195911    0.5478581     0.4166396    0.1137737 
   2.483800000    -0.2090991    0.3098920     0.3739512    0.5284719     0.2780624    0.5258394     0.4290066    0.0533326 
   2.503750000    -0.1702069    0.3350369     0.4084391    0.4597179     0.3610396    0.5029153     0.4243437   -0.0093223 
   2.523700000    -0.1289617    0.3479801     0.4545066    0.4297992     0.4461390    0.4358706     0.4052638   -0.0630318 
   2.543650000    -0.0908213    0.3510871     0.5439886    0.3744260     0.4860158    0.3540522     0.3737122   -0.1095037 
   2.563600000    -0.0625840    0.3526480     0.6012350    0.2566440     0.5134801    0.3039947     0.3339929   -0.1482309 
   2.583550000    -0.0283669    0.3544242     0.5922278    0.1552425     0.5725555    0.2510073     0.2824759   -0.1786896 
   2.603500000     0.0043501    0.3463668     0.5898478    0.1038719     0.6247014    0.1510783     0.2295125   -0.1852509 
   2.623450000     0.0351547    0.3362400     0.6254997    0.0366278     0.6265680    0.0464583     0.1846982   -0.1809898 
   2.643400000     0.0631962    0.3215701     0.6371198   -0.0756992     0.6199259   -0.0286292     0.1463223   -0.1700513 
   2.663350000     0.0883363    0.3002032     0.5969952   -0.1739364     0.6254472   -0.1123816     0.1136690   -0.1583645 
   2.683300000     0.1029716    0.2751940     0.5576211   -0.2351422     0.6078863   -0.2144068     0.0885567   -0.1435393 
   2.703250000     0.1121076    0.2538651     0.5361985   -0.3022656     0.5623370   -0.3006726     0.0661180   -0.1280667 
   2.723200000     0.1166042    0.2325305     0.4962564   -0.3889254     0.5188437   -0.3741704     0.0402108   -0.1083671 
   2.743150000     0.1142184    0.2123062     0.4267244   -0.4587148     0.4651276   -0.4544730     0.0128757   -0.0836853 
   2.763100000     0.1070521    0.1994651     0.3585655   -0.5094327     0.3860241   -0.5256640    -0.0112789   -0.0564138 
   2.783050000     0.1026148    0.1939227     0.2850497   -0.5599653     0.2984416   -0.5682278    -0.0294278   -0.0233054 
   2.803000000     0.1004187    0.1940022     0.1948867   -0.5985569     0.2199069   -0.6049650    -0.0387961    0.0182358 
   2.822950000     0.0994602    0.1979633     0.1057789   -0.6134264     0.1252516   -0.6418620    -0.0373302    0.0662264 
   2.842900000     0.1041571    0.2063620     0.0192144   -0.6265312     0.0090318   -0.6527226    -0.0263138    0.1189775 
   2.862850000     0.1172611    0.2129554    -0.0799557   -0.6198038    -0.0895972   -0.6200023     0.0036248    0.1665770 
   2.882800000     0.1360985    0.2181712    -0.1658626   -0.5914673    -0.1578573   -0.5954269     0.0412399    0.1991768 
   2.902750000     0.1588303    0.2198674    -0.2431470   -0.5643919    -0.2436378   -0.5831626     0.0782543    0.2248873 
   2.922700000     0.1885734    0.2127760    -0.3344229   -0.5251386    -0.3529887   -0.5304698     0.1215514    0.2476194 
   2.942650000     0.2159619    0.1929168    -0.4061252   -0.4485414    -0.4123652   -0.4350436     0.1712944    0.2599775 
   2.962600000     0.2416663    0.1704369    -0.4410461   -0.3839365    -0.4356634   -0.3752545     0.2270858    0.2617364 
   2.982550000     0.2627671    0.1445560    -0.4928208   -0.3370246    -0.4872108   -0.3309573     0.2829207    0.2510306 
   3.002500000     0.2783842    0.1085914    -0.5552886   -0.2457621    -0.5446491   -0.2407114     0.3370531    0.2237519 
   3.022450000     0.2814485    0.0674079    -0.5533744   -0.1389798    -0.5437120   -0.1418715     0.3789818    0.1878848 
   3.042400000     0.2832015    0.0244047    -0.5385882   -0.0889090    -0.5338171   -0.0860825     0.4200423    0.1436250 
   3.062350000     0.2781815   -0.0164434    -0.5730957   -0.0362942    -0.5515099   -0.0279561     0.4493395    0.0900044 
   3.082300000     0.2630787   -0.0547917    -0.5843362    0.0793539    -0.5518005    0.0602991     0.4604346    0.0285300 
   3.102250000     0.2385957   -0.0877205    -0.5223989    0.1613314    -0.5194887    0.1286587     0.4564290   -0.0257243 
   3.122200000     0.2090307   -0.1212806    -0.4930416    0.1854852    -0.5010790    0.1772855     0.4472551   -0.0831776 
   3.142150000     0.1728636   -0.1485497    -0.5057373    0.2505067    -0.4876674    0.2464048     0.4243284   -0.1365168 
