! 9/28/2016 3:23:57 PM
! C:\USERS\ANRITSUUSER\DESKTOP\SWITCHES\EM-SWITCH-OFF.S2P
! CHANNEL.1
! TR.MEASUREMENT
! CORRECTED.DATA
# GHZ S RI R 50.0
! FREQ.GHZ         S11RE         S11IM         S21RE         S21IM         S12RE         S12IM         S22RE         S22IM         
!; PortSelection: Port_12
   0.010000000     0.0512775   -0.0055650    -0.0000010    0.0000019    -0.0000190   -0.0000022    -0.0364894    0.0022022 
   0.029950000     0.0470471   -0.0058179     0.0000019    0.0000169    -0.0000028    0.0000353    -0.0371308    0.0016651 
   0.049900000     0.0459375   -0.0073902     0.0000324    0.0000231     0.0000333    0.0000234    -0.0376380    0.0028936 
   0.069850000     0.0459992   -0.0090543     0.0000671   -0.0000033     0.0000659    0.0000029    -0.0372971    0.0052634 
   0.089800000     0.0454749   -0.0104350     0.0000724   -0.0000270     0.0000723   -0.0000214    -0.0373856    0.0078745 
   0.109750000     0.0447223   -0.0124829     0.0000717   -0.0000615     0.0000680   -0.0000471    -0.0379186    0.0099862 
   0.129700000     0.0440630   -0.0151366     0.0000651   -0.0000843     0.0000614   -0.0000804    -0.0376564    0.0108383 
   0.149650000     0.0444939   -0.0175574     0.0000705   -0.0001289     0.0000630   -0.0001171    -0.0356798    0.0123431 
   0.169600000     0.0442889   -0.0185725     0.0000391   -0.0001404     0.0000421   -0.0001396    -0.0340081    0.0156978 
   0.189550000     0.0423056   -0.0202277     0.0000317   -0.0001488     0.0000313   -0.0001439    -0.0345514    0.0194100 
   0.209500000     0.0403835   -0.0238101     0.0000233   -0.0001892     0.0000146   -0.0001832    -0.0362630    0.0207143 
   0.229450000     0.0404307   -0.0280295    -0.0000085   -0.0002264    -0.0000046   -0.0002195    -0.0359747    0.0198791 
   0.249400000     0.0422297   -0.0304190    -0.0000441   -0.0002309    -0.0000345   -0.0002248    -0.0335872    0.0200559 
   0.269350000     0.0417877   -0.0304460    -0.0000541   -0.0002301    -0.0000517   -0.0002155    -0.0313973    0.0220142 
   0.289300000     0.0390966   -0.0314095    -0.0000763   -0.0002732    -0.0000759   -0.0002634    -0.0305445    0.0241973 
   0.309250000     0.0362920   -0.0348652    -0.0001166   -0.0002881    -0.0001208   -0.0002768    -0.0300872    0.0251137 
   0.329200000     0.0354720   -0.0388234    -0.0001466   -0.0002889    -0.0001360   -0.0002822    -0.0282531    0.0258504 
   0.349150000     0.0356437   -0.0407514    -0.0001855   -0.0003052    -0.0001806   -0.0002833    -0.0261718    0.0277039 
   0.369100000     0.0340445   -0.0415044    -0.0001927   -0.0002744    -0.0002037   -0.0002640    -0.0254421    0.0299899 
   0.389050000     0.0310127   -0.0432158    -0.0002126   -0.0003034    -0.0002177   -0.0002984    -0.0254401    0.0306684 
   0.409000000     0.0285492   -0.0463557    -0.0002531   -0.0003165    -0.0002505   -0.0002973    -0.0237024    0.0308313 
   0.428950000     0.0271355   -0.0485829    -0.0002821   -0.0003201    -0.0002818   -0.0003018    -0.0210699    0.0320568 
   0.448900000     0.0250738   -0.0494205    -0.0003133   -0.0003168    -0.0003150   -0.0003038    -0.0196899    0.0344406 
   0.468850000     0.0218418   -0.0509195    -0.0003494   -0.0003446    -0.0003469   -0.0003266    -0.0200647    0.0357102 
   0.488800000     0.0190467   -0.0532379    -0.0003987   -0.0003439    -0.0003936   -0.0003345    -0.0194477    0.0351621 
   0.508750000     0.0173556   -0.0551258    -0.0004610   -0.0003315    -0.0004510   -0.0003180    -0.0172248    0.0350636 
   0.528700000     0.0151778   -0.0554236    -0.0004994   -0.0002859    -0.0004896   -0.0002667    -0.0145989    0.0365705 
   0.548650000     0.0111376   -0.0557610    -0.0005143   -0.0002775    -0.0005073   -0.0002628    -0.0143301    0.0386323 
   0.568600000     0.0069263   -0.0580868    -0.0005389   -0.0002783    -0.0005320   -0.0002630    -0.0144569    0.0382820 
   0.588550000     0.0047701   -0.0605807    -0.0005809   -0.0002661    -0.0005578   -0.0002472    -0.0126789    0.0367680 
   0.608500000     0.0034479   -0.0606904    -0.0006313   -0.0002600    -0.0006166   -0.0002422    -0.0092480    0.0371108 
   0.628450000     0.0002960   -0.0591588    -0.0006879   -0.0002403    -0.0006716   -0.0002213    -0.0074329    0.0394622 
   0.648400000    -0.0048839   -0.0587312    -0.0007344   -0.0002012    -0.0007121   -0.0001813    -0.0076884    0.0405179 
   0.668350000    -0.0092414   -0.0610985    -0.0007659   -0.0001627    -0.0007394   -0.0001407    -0.0072960    0.0394990 
   0.688300000    -0.0111270   -0.0626456    -0.0007992   -0.0001066    -0.0007723   -0.0000788    -0.0048402    0.0381493 
   0.708250000    -0.0125162   -0.0614536    -0.0008018   -0.0001152    -0.0007777   -0.0000948    -0.0015837    0.0389887 
   0.728200000    -0.0164826   -0.0591372    -0.0008515   -0.0001105    -0.0008320   -0.0000875    -0.0004534    0.0410736 
   0.748150000    -0.0217153   -0.0583972    -0.0009105   -0.0000697    -0.0008829   -0.0000500    -0.0008781    0.0414205 
   0.768100000    -0.0254888   -0.0592479    -0.0009509    0.0000047    -0.0009203    0.0000265    -0.0003856    0.0401747 
   0.788050000    -0.0278753   -0.0592621    -0.0009368    0.0000563    -0.0009174    0.0000759     0.0015053    0.0390818 
   0.808000000    -0.0305210   -0.0575542    -0.0009537    0.0000636    -0.0009234    0.0000719     0.0033341    0.0388377 
   0.827950000    -0.0341749   -0.0557796    -0.0010024    0.0000992    -0.0009677    0.0001043     0.0042729    0.0385724 
   0.847900000    -0.0377844   -0.0548989    -0.0010510    0.0001467    -0.0010220    0.0001699     0.0057056    0.0376068 
   0.867850000    -0.0406611   -0.0539412    -0.0010963    0.0002038    -0.0010645    0.0002232     0.0080005    0.0372167 
   0.887800000    -0.0433857   -0.0517155    -0.0011344    0.0002805    -0.0011025    0.0003039     0.0095455    0.0378399 
   0.907750000    -0.0470395   -0.0500263    -0.0011293    0.0003812    -0.0010896    0.0004022     0.0096123    0.0380153 
   0.927700000    -0.0504456   -0.0493127    -0.0010669    0.0003979    -0.0010298    0.0004164     0.0098061    0.0362456 
   0.947650000    -0.0522028   -0.0483835    -0.0011306    0.0003811    -0.0010928    0.0004026     0.0113967    0.0343029 
   0.967600000    -0.0530509   -0.0454311    -0.0011873    0.0004294    -0.0011568    0.0004432     0.0137015    0.0339405 
   0.987550000    -0.0559324   -0.0415786    -0.0012230    0.0004954    -0.0011842    0.0005093     0.0147256    0.0345916 
   1.007500000    -0.0599390   -0.0391750    -0.0012517    0.0005777    -0.0012101    0.0005703     0.0144925    0.0337664 
   1.027450000    -0.0629666   -0.0383033    -0.0012798    0.0006504    -0.0012541    0.0006638     0.0152889    0.0319714 
   1.047400000    -0.0638432   -0.0368337    -0.0012957    0.0007448    -0.0012702    0.0007481     0.0172608    0.0307667 
   1.067350000    -0.0651128   -0.0337875    -0.0012828    0.0008453    -0.0012310    0.0008515     0.0183574    0.0308401 
   1.087300000    -0.0674803   -0.0305315    -0.0012191    0.0008971    -0.0011644    0.0009067     0.0177242    0.0299147 
   1.107250000    -0.0696043   -0.0285256    -0.0012411    0.0008891    -0.0011839    0.0008910     0.0177715    0.0269242 
   1.127200000    -0.0703675   -0.0264040    -0.0012787    0.0009506    -0.0012492    0.0009495     0.0201817    0.0246515 
   1.147150000    -0.0708500   -0.0226003    -0.0013016    0.0010266    -0.0012582    0.0010364     0.0228274    0.0247207 
   1.167100000    -0.0728746   -0.0184183    -0.0013171    0.0011055    -0.0012551    0.0011282     0.0229565    0.0255849 
   1.187050000    -0.0759983   -0.0159586    -0.0013231    0.0012152    -0.0012672    0.0012069     0.0214101    0.0248529 
   1.207000000    -0.0773047   -0.0153162    -0.0013190    0.0013044    -0.0012701    0.0013030     0.0211091    0.0217357 
   1.226950000    -0.0766461   -0.0136425    -0.0012986    0.0013948    -0.0012450    0.0013891     0.0231248    0.0194354 
   1.246900000    -0.0759534   -0.0097871    -0.0012400    0.0014654    -0.0011783    0.0014740     0.0249179    0.0194135 
   1.266850000    -0.0769903   -0.0055228    -0.0012164    0.0014892    -0.0011389    0.0015020     0.0243089    0.0193850 
   1.286800000    -0.0784801   -0.0029756    -0.0012299    0.0015397    -0.0011679    0.0015348     0.0229427    0.0176229 
   1.306750000    -0.0789184   -0.0012905    -0.0012288    0.0016315    -0.0011629    0.0016148     0.0232824    0.0148168 
   1.326700000    -0.0780701    0.0013720    -0.0012025    0.0017158    -0.0011360    0.0017163     0.0246950    0.0133804 
   1.346650000    -0.0778007    0.0049938    -0.0011874    0.0017954    -0.0011156    0.0017963     0.0249755    0.0134717 
   1.366600000    -0.0787168    0.0082805    -0.0011665    0.0018827    -0.0010978    0.0018728     0.0235630    0.0124675 
   1.386550000    -0.0788887    0.0101841    -0.0011397    0.0019749    -0.0010734    0.0019490     0.0225589    0.0099538 
   1.406500000    -0.0785917    0.0123486    -0.0010997    0.0020671    -0.0010167    0.0020380     0.0231380    0.0073590 
   1.426450000    -0.0783443    0.0153091    -0.0010308    0.0021531    -0.0009644    0.0021375     0.0241873    0.0061592 
   1.446400000    -0.0784834    0.0175847    -0.0009691    0.0022157    -0.0009086    0.0022016     0.0244940    0.0053453 
   1.466350000    -0.0783110    0.0190793    -0.0009456    0.0022643    -0.0008589    0.0022262     0.0235983    0.0045577 
   1.486300000    -0.0771502    0.0205257    -0.0009223    0.0023222    -0.0008273    0.0022808     0.0229258    0.0035206 
   1.506250000    -0.0755492    0.0236889    -0.0008950    0.0024037    -0.0008150    0.0023669     0.0221263    0.0026227 
   1.526200000    -0.0757471    0.0264475    -0.0008836    0.0024830    -0.0007953    0.0024518     0.0207521    0.0013991 
   1.546150000    -0.0763247    0.0285681    -0.0008374    0.0025946    -0.0007592    0.0025467     0.0199665   -0.0004320 
   1.566100000    -0.0758843    0.0289444    -0.0007649    0.0027020    -0.0006898    0.0026569     0.0195352   -0.0019843 
   1.586050000    -0.0740011    0.0299992    -0.0006775    0.0028197    -0.0005943    0.0027690     0.0191723   -0.0023992 
   1.606000000    -0.0723632    0.0325075    -0.0005863    0.0029093    -0.0005073    0.0028611     0.0168919   -0.0029086 
   1.625950000    -0.0722415    0.0351372    -0.0004517    0.0029614    -0.0003858    0.0029048     0.0142805   -0.0052463 
   1.645900000    -0.0726406    0.0359784    -0.0003504    0.0029538    -0.0002863    0.0028721     0.0134055   -0.0086645 
   1.665850000    -0.0716156    0.0363130    -0.0003500    0.0029437    -0.0002688    0.0028745     0.0138793   -0.0101799 
   1.685800000    -0.0696953    0.0376356    -0.0003548    0.0030592    -0.0002765    0.0030027     0.0133349   -0.0096191 
   1.705750000    -0.0683430    0.0400730    -0.0002988    0.0031910    -0.0002256    0.0031336     0.0099787   -0.0094998 
   1.725700000    -0.0678478    0.0423518    -0.0002282    0.0033119    -0.0001389    0.0032157     0.0067243   -0.0130099 
   1.745650000    -0.0679177    0.0440370    -0.0000952    0.0034264    -0.0000339    0.0033128     0.0070496   -0.0173351 
   1.765600000    -0.0678738    0.0452905     0.0000412    0.0035062     0.0000887    0.0034254     0.0098433   -0.0181927 
   1.785550000    -0.0679066    0.0464396     0.0001976    0.0035498     0.0002556    0.0034998     0.0102712   -0.0147248 
   1.805500000    -0.0679662    0.0466909     0.0003241    0.0035681     0.0003856    0.0034598     0.0049689   -0.0118193 
   1.825450000    -0.0673269    0.0470424     0.0004235    0.0035543     0.0004681    0.0034233    -0.0028675   -0.0130250 
   1.845400000    -0.0665992    0.0481719     0.0004587    0.0036079     0.0004696    0.0034929    -0.0083495   -0.0184811 
   1.865350000    -0.0662936    0.0499039     0.0005167    0.0036839     0.0005506    0.0036248    -0.0092858   -0.0241744 
   1.885300000    -0.0665967    0.0511306     0.0005913    0.0037926     0.0006971    0.0037075    -0.0073424   -0.0278052 
   1.905250000    -0.0667883    0.0511041     0.0007253    0.0039038     0.0008225    0.0037353    -0.0047585   -0.0280751 
   1.925200000    -0.0654408    0.0515686     0.0009240    0.0039711     0.0009305    0.0037910    -0.0032294   -0.0264423 
   1.945150000    -0.0643253    0.0537036     0.0010804    0.0039613     0.0010613    0.0038574    -0.0040687   -0.0234621 
   1.965100000    -0.0646217    0.0561739     0.0011592    0.0039783     0.0012168    0.0038604    -0.0072402   -0.0208342 
   1.985050000    -0.0659957    0.0576161     0.0012599    0.0039837     0.0013078    0.0038370    -0.0127738   -0.0201826 
   2.005000000    -0.0667491    0.0575159     0.0013723    0.0040426     0.0013633    0.0038784    -0.0180548   -0.0220704 
   2.024950000    -0.0657789    0.0573258     0.0015126    0.0040998     0.0014588    0.0039643    -0.0204152   -0.0251089 
   2.044900000    -0.0636754    0.0591571     0.0016203    0.0041395     0.0015920    0.0040213    -0.0214668   -0.0270567 
   2.064850000    -0.0630205    0.0623669     0.0016842    0.0042146     0.0016941    0.0040679    -0.0218851   -0.0271241 
   2.084800000    -0.0642319    0.0654504     0.0018403    0.0043366     0.0018262    0.0041856    -0.0234999   -0.0266279 
   2.104750000    -0.0655029    0.0668715     0.0020707    0.0044116     0.0020416    0.0042757    -0.0251295   -0.0261916 
   2.124700000    -0.0657702    0.0670158     0.0023166    0.0043879     0.0022728    0.0042557    -0.0274085   -0.0257462 
   2.144650000    -0.0643333    0.0681164     0.0024874    0.0043358     0.0024353    0.0041937    -0.0305850   -0.0252371 
   2.164600000    -0.0633193    0.0706083     0.0026376    0.0042810     0.0025855    0.0041684    -0.0334320   -0.0254604 
   2.184550000    -0.0633177    0.0733846     0.0027612    0.0042581     0.0027268    0.0041445    -0.0358100   -0.0260056 
   2.204500000    -0.0634693    0.0755364     0.0028629    0.0042132     0.0028189    0.0040921    -0.0370041   -0.0258179 
   2.224450000    -0.0629376    0.0776476     0.0029261    0.0042416     0.0028254    0.0041039    -0.0386270   -0.0242207 
   2.244400000    -0.0619795    0.0799503     0.0030689    0.0043322     0.0029473    0.0042271    -0.0416583   -0.0218838 
   2.264350000    -0.0606723    0.0828878     0.0032492    0.0044346     0.0032003    0.0043686    -0.0454929   -0.0211280 
   2.284300000    -0.0606516    0.0858234     0.0035399    0.0044774     0.0035213    0.0043773    -0.0487958   -0.0219948 
   2.304250000    -0.0605220    0.0882145     0.0038558    0.0044226     0.0037754    0.0042687    -0.0507407   -0.0226889 
   2.324200000    -0.0594529    0.0898534     0.0040799    0.0042564     0.0039460    0.0041404    -0.0519416   -0.0218673 
   2.344150000    -0.0576594    0.0918970     0.0041600    0.0041351     0.0040572    0.0040758    -0.0546224   -0.0204322 
   2.364100000    -0.0557081    0.0954484     0.0041648    0.0040697     0.0041374    0.0040144    -0.0574154   -0.0191624 
   2.384050000    -0.0544840    0.0992807     0.0042292    0.0041363     0.0041963    0.0040059    -0.0596464   -0.0188435 
   2.404000000    -0.0539415    0.1021173     0.0044653    0.0042362     0.0043451    0.0041173    -0.0610119   -0.0179880 
   2.423950000    -0.0525343    0.1036987     0.0047639    0.0042772     0.0046346    0.0042016    -0.0623901   -0.0159637 
   2.443900000    -0.0497773    0.1054227     0.0049933    0.0042039     0.0049443    0.0041532    -0.0649693   -0.0136241 
   2.463850000    -0.0460727    0.1080034     0.0052383    0.0041060     0.0051754    0.0040406    -0.0688213   -0.0117902 
   2.483800000    -0.0430227    0.1121933     0.0055099    0.0039903     0.0053905    0.0039107    -0.0720061   -0.0114874 
   2.503750000    -0.0418361    0.1162449     0.0057670    0.0038131     0.0056503    0.0037613    -0.0737073   -0.0114748 
   2.523700000    -0.0410671    0.1185447     0.0058323    0.0035832     0.0057647    0.0035523    -0.0745321   -0.0093811 
   2.543650000    -0.0390522    0.1188549     0.0057585    0.0034909     0.0057030    0.0034662    -0.0762474   -0.0060339 
   2.563600000    -0.0338365    0.1190282     0.0058107    0.0036955     0.0057288    0.0036494    -0.0790567   -0.0031860 
   2.583550000    -0.0270506    0.1214051     0.0062329    0.0038894     0.0061783    0.0038286    -0.0818224   -0.0019987 
   2.603500000    -0.0216075    0.1263589     0.0067263    0.0037556     0.0066885    0.0036952    -0.0837240   -0.0010042 
   2.623450000    -0.0200922    0.1312459     0.0070450    0.0033710     0.0069604    0.0033652    -0.0855712    0.0009334 
   2.643400000    -0.0200069    0.1322115     0.0071016    0.0031042     0.0070444    0.0031300    -0.0877588    0.0033372 
   2.663350000    -0.0167193    0.1298169     0.0071820    0.0030249     0.0071932    0.0030010    -0.0901149    0.0055150 
   2.683300000    -0.0088369    0.1287066     0.0073765    0.0030520     0.0073653    0.0029273    -0.0916100    0.0072251 
   2.703250000     0.0001778    0.1320077     0.0077338    0.0028959     0.0076199    0.0028524    -0.0924829    0.0098894 
   2.723200000     0.0048752    0.1375294     0.0079940    0.0026140     0.0078990    0.0027128    -0.0942209    0.0133380 
   2.743150000     0.0051970    0.1401011     0.0081080    0.0024056     0.0081777    0.0024688    -0.0972603    0.0164158 
   2.763100000     0.0066951    0.1371198     0.0082817    0.0023334     0.0083672    0.0021970    -0.1004487    0.0185231 
   2.783050000     0.0131053    0.1326334     0.0085167    0.0021522     0.0084193    0.0020205    -0.1023294    0.0202650 
   2.803000000     0.0234321    0.1312731     0.0087575    0.0019755     0.0086245    0.0020618    -0.1034713    0.0222016 
   2.822950000     0.0313332    0.1340528     0.0090053    0.0018050     0.0091096    0.0019262    -0.1041054    0.0245808 
   2.842900000     0.0351323    0.1366864     0.0093190    0.0015963     0.0095023    0.0014495    -0.1055739    0.0276514 
   2.862850000     0.0367627    0.1357633     0.0095801    0.0012017     0.0095352    0.0009685    -0.1069842    0.0308168 
   2.882800000     0.0406522    0.1316837     0.0096955    0.0008061     0.0095251    0.0007885    -0.1091491    0.0344027 
   2.902750000     0.0473572    0.1274196     0.0096420    0.0005982     0.0097474    0.0006692    -0.1118807    0.0372232 
   2.922700000     0.0560984    0.1251858     0.0097488    0.0006100     0.0099537    0.0004087    -0.1135057    0.0381570 
   2.942650000     0.0635311    0.1246107     0.0100352    0.0006263     0.0100091    0.0002656    -0.1129571    0.0389016 
   2.962600000     0.0684669    0.1239885     0.0106060    0.0004225     0.0104228    0.0002540    -0.1110784    0.0416879 
   2.982550000     0.0700275    0.1212987     0.0110535   -0.0000915     0.0110931   -0.0001488    -0.1116746    0.0469279 
   3.002500000     0.0720884    0.1153221     0.0113568   -0.0006254     0.0115006   -0.0009387    -0.1143697    0.0513559 
   3.022450000     0.0774398    0.1076792     0.0115213   -0.0012277     0.0113682   -0.0016748    -0.1171232    0.0534855 
   3.042400000     0.0862187    0.1026629     0.0114351   -0.0016631     0.0110774   -0.0019952    -0.1163623    0.0549883 
   3.062350000     0.0928949    0.1008999     0.0112009   -0.0018007     0.0111402   -0.0020340    -0.1147544    0.0590772 
   3.082300000     0.0953607    0.0987537     0.0113665   -0.0016663     0.0114238   -0.0022039    -0.1148572    0.0651284 
   3.102250000     0.0955982    0.0908453     0.0120725   -0.0017465     0.0117648   -0.0023909    -0.1174593    0.0691194 
   3.122200000     0.0987837    0.0794626     0.0128462   -0.0025117     0.0123461   -0.0028382    -0.1193923    0.0701602 
   3.142150000     0.1057348    0.0712871     0.0129403   -0.0034893     0.0127632   -0.0037221    -0.1186704    0.0719208 
