! 9/28/2016 3:24:29 PM
! C:\USERS\ANRITSUUSER\DESKTOP\SWITCHES\EM-SWITCH-ON.S2P
! CHANNEL.1
! TR.MEASUREMENT
! CORRECTED.DATA
# GHZ S RI R 50.0
! FREQ.GHZ         S11RE         S11IM         S21RE         S21IM         S12RE         S12IM         S22RE         S22IM         
!; PortSelection: Port_12
   0.010000000     0.0495485   -0.0051922     0.9458025   -0.0215795     0.9426736   -0.0327332     0.0502427   -0.0069345 
   0.029950000     0.0456008   -0.0055362     0.9403142   -0.0517474     0.9381674   -0.0495709     0.0459670   -0.0048772 
   0.049900000     0.0446111   -0.0070347     0.9371181   -0.0798407     0.9349132   -0.0775990     0.0454963   -0.0057291 
   0.069850000     0.0442257   -0.0086107     0.9334887   -0.1081422     0.9313900   -0.1056686     0.0462359   -0.0071027 
   0.089800000     0.0437052   -0.0091855     0.9288071   -0.1360141     0.9269487   -0.1334547     0.0464943   -0.0077798 
   0.109750000     0.0430070   -0.0106248     0.9235166   -0.1635700     0.9219154   -0.1610631     0.0454851   -0.0085911 
   0.129700000     0.0428743   -0.0129387     0.9178661   -0.1911899     0.9160820   -0.1883349     0.0445840   -0.0102028 
   0.149650000     0.0436923   -0.0153160     0.9111896   -0.2187227     0.9090066   -0.2159132     0.0449060   -0.0116815 
   0.169600000     0.0435746   -0.0166123     0.9034499   -0.2456923     0.9016037   -0.2427785     0.0454039   -0.0124536 
   0.189550000     0.0417977   -0.0180317     0.8949060   -0.2721146     0.8932274   -0.2693737     0.0439581   -0.0135426 
   0.209500000     0.0401560   -0.0214893     0.8859833   -0.2986316     0.8847191   -0.2959437     0.0415899   -0.0166490 
   0.229450000     0.0401605   -0.0255970     0.8762305   -0.3247069     0.8747306   -0.3221399     0.0404143   -0.0205180 
   0.249400000     0.0411838   -0.0281360     0.8657959   -0.3510636     0.8645263   -0.3481350     0.0406441   -0.0223206 
   0.269350000     0.0403688   -0.0281976     0.8536873   -0.3761975     0.8524843   -0.3731686     0.0410169   -0.0220601 
   0.289300000     0.0378575   -0.0287146     0.8417190   -0.4015612     0.8406802   -0.3980132     0.0403974   -0.0224833 
   0.309250000     0.0360463   -0.0312532     0.8287822   -0.4255181     0.8279564   -0.4221454     0.0394260   -0.0253950 
   0.329200000     0.0360420   -0.0345808     0.8159383   -0.4501671     0.8151835   -0.4467563     0.0388575   -0.0282145 
   0.349150000     0.0362724   -0.0361419     0.8017246   -0.4739088     0.8008543   -0.4705150     0.0381939   -0.0287611 
   0.369100000     0.0344431   -0.0372158     0.7863870   -0.4980310     0.7857648   -0.4943515     0.0364822   -0.0282271 
   0.389050000     0.0317393   -0.0390373     0.7703255   -0.5197973     0.7697154   -0.5163476     0.0345344   -0.0300265 
   0.409000000     0.0302668   -0.0416154     0.7547338   -0.5417509     0.7544882   -0.5385847     0.0337211   -0.0329992 
   0.428950000     0.0301121   -0.0434360     0.7389859   -0.5635687     0.7384626   -0.5601526     0.0337598   -0.0345514 
   0.448900000     0.0286812   -0.0448710     0.7212709   -0.5868696     0.7210358   -0.5831261     0.0323223   -0.0340794 
   0.468850000     0.0251680   -0.0469848     0.7021634   -0.6074148     0.7023792   -0.6033033     0.0287856   -0.0342037 
   0.488800000     0.0220848   -0.0497401     0.6822442   -0.6268982     0.6829833   -0.6230611     0.0265380   -0.0358574 
   0.508750000     0.0208784   -0.0518767     0.6649187   -0.6450869     0.6653306   -0.6415672     0.0260647   -0.0380493 
   0.528700000     0.0197822   -0.0522470     0.6461331   -0.6659548     0.6460194   -0.6623281     0.0257820   -0.0388689 
   0.548650000     0.0163525   -0.0528879     0.6253431   -0.6855206     0.6257644   -0.6815910     0.0226107   -0.0391299 
   0.568600000     0.0115247   -0.0554206     0.6023245   -0.7033005     0.6029680   -0.6993784     0.0182571   -0.0404082 
   0.588550000     0.0090148   -0.0575767     0.5816554   -0.7183764     0.5825547   -0.7143851     0.0165662   -0.0417320 
   0.608500000     0.0075505   -0.0574984     0.5608416   -0.7349223     0.5619019   -0.7309171     0.0165073   -0.0419469 
   0.628450000     0.0044517   -0.0560518     0.5398601   -0.7526037     0.5409971   -0.7488149     0.0145242   -0.0408627 
   0.648400000    -0.0001778   -0.0569113     0.5146956   -0.7691532     0.5161119   -0.7653924     0.0101534   -0.0415853 
   0.668350000    -0.0042206   -0.0597581     0.4908792   -0.7826805     0.4925373   -0.7784449     0.0068089   -0.0432414 
   0.688300000    -0.0055607   -0.0609645     0.4676046   -0.7944043     0.4695347   -0.7908003     0.0066849   -0.0439757 
   0.708250000    -0.0069296   -0.0600334     0.4460657   -0.8085430     0.4481027   -0.8048438     0.0073449   -0.0426838 
   0.728200000    -0.0108430   -0.0587031     0.4209610   -0.8225837     0.4226709   -0.8193341     0.0045070   -0.0408465 
   0.748150000    -0.0170731   -0.0588058     0.3946157   -0.8353321     0.3968032   -0.8314118    -0.0007797   -0.0405660 
   0.768100000    -0.0213661   -0.0596642     0.3682502   -0.8437188     0.3712230   -0.8403473    -0.0049440   -0.0411954 
   0.788050000    -0.0238334   -0.0593639     0.3446759   -0.8530357     0.3478452   -0.8506782    -0.0062561   -0.0407394 
   0.808000000    -0.0266054   -0.0573807     0.3201540   -0.8633295     0.3225093   -0.8609568    -0.0069631   -0.0400613 
   0.827950000    -0.0306498   -0.0561548     0.2937157   -0.8741891     0.2962860   -0.8711669    -0.0089673   -0.0393172 
   0.847900000    -0.0344896   -0.0562381     0.2659377   -0.8812186     0.2693169   -0.8779019    -0.0108745   -0.0394180 
   0.867850000    -0.0371992   -0.0558734     0.2394418   -0.8874391     0.2436686   -0.8853666    -0.0123952   -0.0383520 
   0.887800000    -0.0402425   -0.0534777     0.2142832   -0.8930088     0.2166967   -0.8913914    -0.0145103   -0.0353752 
   0.907750000    -0.0440783   -0.0515021     0.1878062   -0.8996902     0.1899333   -0.8973379    -0.0174067   -0.0330896 
   0.927700000    -0.0479722   -0.0509684     0.1605590   -0.9046388     0.1642473   -0.9012122    -0.0195567   -0.0326199 
   0.947650000    -0.0499194   -0.0503722     0.1328310   -0.9084249     0.1375725   -0.9073997    -0.0200864   -0.0328369 
   0.967600000    -0.0512010   -0.0472954     0.1059549   -0.9109635     0.1088652   -0.9106899    -0.0199122   -0.0315175 
   0.987550000    -0.0544422   -0.0428803     0.0785448   -0.9130203     0.0796190   -0.9117129    -0.0213696   -0.0286611 
   1.007500000    -0.0588814   -0.0400374     0.0527434   -0.9144351     0.0551025   -0.9104962    -0.0242608   -0.0268377 
   1.027450000    -0.0618255   -0.0390513     0.0247180   -0.9161031     0.0300837   -0.9132851    -0.0254419   -0.0252908 
   1.047400000    -0.0623578   -0.0381410    -0.0030093   -0.9162537     0.0019290   -0.9165401    -0.0252172   -0.0239104 
   1.067350000    -0.0639825   -0.0353642    -0.0317886   -0.9136092    -0.0301413   -0.9143817    -0.0263488   -0.0213260 
   1.087300000    -0.0665483   -0.0311930    -0.0569115   -0.9106761    -0.0560104   -0.9082950    -0.0282032   -0.0195164 
   1.107250000    -0.0681814   -0.0287414    -0.0825748   -0.9089956    -0.0791167   -0.9053678    -0.0285527   -0.0201696 
   1.127200000    -0.0684199   -0.0264282    -0.1094061   -0.9084489    -0.1041275   -0.9069918    -0.0269260   -0.0201331 
   1.147150000    -0.0696794   -0.0233835    -0.1390859   -0.9030703    -0.1362046   -0.9041615    -0.0254938   -0.0172768 
   1.167100000    -0.0731980   -0.0188841    -0.1664811   -0.8953973    -0.1656615   -0.8952577    -0.0271978   -0.0129930 
   1.187050000    -0.0761303   -0.0157279    -0.1890279   -0.8883118    -0.1877560   -0.8858354    -0.0287723   -0.0103107 
   1.207000000    -0.0772113   -0.0151513    -0.2134855   -0.8857598    -0.2096915   -0.8828315    -0.0282674   -0.0114385 
   1.226950000    -0.0765355   -0.0135237    -0.2426017   -0.8793156    -0.2388418   -0.8786948    -0.0259105   -0.0118732 
   1.246900000    -0.0763977   -0.0100291    -0.2700613   -0.8694440    -0.2671225   -0.8693076    -0.0245709   -0.0098928 
   1.266850000    -0.0779832   -0.0050061    -0.2941136   -0.8574493    -0.2932026   -0.8565596    -0.0261079   -0.0067895 
   1.286800000    -0.0789187   -0.0021957    -0.3166778   -0.8500430    -0.3154133   -0.8477830    -0.0267337   -0.0057055 
   1.306750000    -0.0783653   -0.0004571    -0.3422497   -0.8419204    -0.3397851   -0.8382341    -0.0254838   -0.0065301 
   1.326700000    -0.0770639    0.0020208    -0.3700016   -0.8303430    -0.3652517   -0.8283055    -0.0230014   -0.0063924 
   1.346650000    -0.0768945    0.0065465    -0.3923310   -0.8150274    -0.3885725   -0.8149006    -0.0222795   -0.0043152 
   1.366600000    -0.0780525    0.0104931    -0.4144800   -0.8034812    -0.4134295   -0.8037131    -0.0235654   -0.0025431 
   1.386550000    -0.0780270    0.0120748    -0.4368306   -0.7927211    -0.4366474   -0.7891832    -0.0237555   -0.0027396 
   1.406500000    -0.0773023    0.0134797    -0.4619505   -0.7794652    -0.4586794   -0.7742059    -0.0216805   -0.0042310 
   1.426450000    -0.0767336    0.0163457    -0.4847107   -0.7633297    -0.4781494   -0.7602679    -0.0194957   -0.0043281 
   1.446400000    -0.0773057    0.0186629    -0.5061622   -0.7476940    -0.5009654   -0.7477919    -0.0182761   -0.0040160 
   1.466350000    -0.0778423    0.0206763    -0.5266608   -0.7330897    -0.5243831   -0.7317142    -0.0174209   -0.0029130 
   1.486300000    -0.0768221    0.0222186    -0.5486813   -0.7172640    -0.5455971   -0.7129845    -0.0166551   -0.0023794 
   1.506250000    -0.0750586    0.0255253    -0.5697075   -0.7005216    -0.5626884   -0.6954635    -0.0169460   -0.0022673 
   1.526200000    -0.0743332    0.0292407    -0.5897002   -0.6825044    -0.5838895   -0.6784450    -0.0173229   -0.0029225 
   1.546150000    -0.0735099    0.0313403    -0.6091545   -0.6640590    -0.6023433   -0.6639687    -0.0168466   -0.0045683 
   1.566100000    -0.0725420    0.0318227    -0.6275324   -0.6452977    -0.6235068   -0.6445727    -0.0154522   -0.0063180 
   1.586050000    -0.0709526    0.0320752    -0.6451385   -0.6268811    -0.6409281   -0.6242644    -0.0146814   -0.0066247 
   1.606000000    -0.0699971    0.0339796    -0.6640393   -0.6085298    -0.6578472   -0.6043290    -0.0162521   -0.0061690 
   1.625950000    -0.0696368    0.0362590    -0.6834763   -0.5881547    -0.6735888   -0.5846385    -0.0173352   -0.0075995 
   1.645900000    -0.0689341    0.0368155    -0.7004572   -0.5649574    -0.6893334   -0.5655313    -0.0167321   -0.0111164 
   1.665850000    -0.0679947    0.0366732    -0.7142128   -0.5429857    -0.7063621   -0.5471686    -0.0157251   -0.0131917 
   1.685800000    -0.0659853    0.0378020    -0.7270755   -0.5241897    -0.7252417   -0.5249617    -0.0165097   -0.0127876 
   1.705750000    -0.0652771    0.0391006    -0.7452279   -0.5060151    -0.7403393   -0.4994513    -0.0192886   -0.0128609 
   1.725700000    -0.0643111    0.0422248    -0.7643235   -0.4813843    -0.7493169   -0.4753504    -0.0214552   -0.0169634 
   1.745650000    -0.0631211    0.0420623    -0.7787176   -0.4529467    -0.7598910   -0.4587142    -0.0199300   -0.0227515 
   1.765600000    -0.0643577    0.0439234    -0.7853243   -0.4276021    -0.7770783   -0.4394662    -0.0162516   -0.0246763 
   1.785550000    -0.0630628    0.0442493    -0.7936171   -0.4104894    -0.7948213   -0.4122443    -0.0155465   -0.0212502 
   1.805500000    -0.0668452    0.0441985    -0.8118586   -0.3934067    -0.8033459   -0.3831006    -0.0214402   -0.0186538 
   1.825450000    -0.0657680    0.0475510    -0.8361675   -0.3609848    -0.8092200   -0.3618709    -0.0304145   -0.0195556 
   1.845400000    -0.0618592    0.0487853    -0.8403746   -0.3183433    -0.8240160   -0.3432200    -0.0371252   -0.0279796 
   1.865350000    -0.0566585    0.0444146    -0.8288261   -0.2934877    -0.8401487   -0.3129088    -0.0397194   -0.0343191 
   1.885300000    -0.0682729    0.0415455    -0.8338326   -0.2904408    -0.8443445   -0.2789606    -0.0364745   -0.0386497 
   1.905250000    -0.0670278    0.0560629    -0.8639408   -0.2682030    -0.8409291   -0.2528912    -0.0336075   -0.0385284 
   1.925200000    -0.0554146    0.0490750    -0.8736457   -0.2199488    -0.8436359   -0.2351946    -0.0305462   -0.0361319 
   1.945150000    -0.0611291    0.0420812    -0.8558050   -0.1878249    -0.8512062   -0.2132811    -0.0327473   -0.0346074 
   1.965100000    -0.0680827    0.0483387    -0.8497434   -0.1844434    -0.8585727   -0.1886458    -0.0388542   -0.0329213 
   1.985050000    -0.0663919    0.0551843    -0.8738729   -0.1743136    -0.8631007   -0.1633525    -0.0460257   -0.0331129 
   2.005000000    -0.0626123    0.0527940    -0.8967960   -0.1310731    -0.8683596   -0.1395915    -0.0517779   -0.0356469 
   2.024950000    -0.0642434    0.0490586    -0.8873032   -0.0840361    -0.8731287   -0.1123036    -0.0555534   -0.0388568 
   2.044900000    -0.0674606    0.0498278    -0.8679521   -0.0644954    -0.8731113   -0.0845829    -0.0581872   -0.0407414 
   2.064850000    -0.0685223    0.0562829    -0.8689906   -0.0596280    -0.8716140   -0.0621205    -0.0629273   -0.0401607 
   2.084800000    -0.0660755    0.0594913    -0.8905217   -0.0387852    -0.8772261   -0.0415217    -0.0658334   -0.0380825 
   2.104750000    -0.0674673    0.0604073    -0.9014798    0.0063228    -0.8845621   -0.0107294    -0.0694159   -0.0390253 
   2.124700000    -0.0675494    0.0602398    -0.8861982    0.0489235    -0.8803458    0.0239870    -0.0725630   -0.0379507 
   2.144650000    -0.0702867    0.0604878    -0.8646924    0.0683476    -0.8689406    0.0482285    -0.0775815   -0.0392494 
   2.164600000    -0.0705451    0.0656891    -0.8616205    0.0735818    -0.8661714    0.0628069    -0.0853795   -0.0357725 
   2.184550000    -0.0685132    0.0668085    -0.8790433    0.0941501    -0.8747263    0.0868815    -0.0874960   -0.0325734 
   2.204500000    -0.0688914    0.0687436    -0.8845091    0.1395601    -0.8738995    0.1239749    -0.0902302   -0.0312294 
   2.224450000    -0.0683129    0.0696613    -0.8620743    0.1804361    -0.8583390    0.1536216    -0.0923399   -0.0300835 
   2.244400000    -0.0722462    0.0737256    -0.8346844    0.1939363    -0.8464047    0.1683330    -0.1012121   -0.0286620 
   2.264350000    -0.0712604    0.0799222    -0.8341318    0.1946841    -0.8499975    0.1845962    -0.1080785   -0.0223350 
   2.284300000    -0.0715290    0.0812974    -0.8507066    0.2188870    -0.8523068    0.2172467    -0.1102175   -0.0215655 
   2.304250000    -0.0707581    0.0831698    -0.8481917    0.2662353    -0.8385820    0.2504901    -0.1132741   -0.0209430 
   2.324200000    -0.0701720    0.0844029    -0.8175160    0.3001139    -0.8216200    0.2700121    -0.1164796   -0.0190752 
   2.344150000    -0.0693578    0.0900397    -0.7936171    0.3065054    -0.8164086    0.2856728    -0.1223525   -0.0131063 
   2.364100000    -0.0672321    0.0952594    -0.7956075    0.3115540    -0.8143324    0.3107370    -0.1249210   -0.0066457 
   2.384050000    -0.0678057    0.0988156    -0.8042985    0.3410771    -0.8039746    0.3395694    -0.1282524   -0.0037577 
   2.404000000    -0.0675570    0.1012294    -0.7913867    0.3823914    -0.7896957    0.3618852    -0.1314359   -0.0011185 
   2.423950000    -0.0664076    0.1027684    -0.7609640    0.4085312    -0.7786504    0.3832714    -0.1350825    0.0036857 
   2.443900000    -0.0629737    0.1055661    -0.7392241    0.4154642    -0.7656561    0.4053971    -0.1379412    0.0097369 
   2.463850000    -0.0588063    0.1108606    -0.7350064    0.4241558    -0.7510613    0.4242833    -0.1409758    0.0163798 
   2.483800000    -0.0560462    0.1160143    -0.7371494    0.4483185    -0.7432729    0.4400991    -0.1422077    0.0208892 
   2.503750000    -0.0576342    0.1200895    -0.7247787    0.4857709    -0.7378651    0.4667931    -0.1448672    0.0241383 
   2.523700000    -0.0572080    0.1231536    -0.6938611    0.5123519    -0.7201837    0.4982095    -0.1469511    0.0310570 
   2.543650000    -0.0545552    0.1239749    -0.6650773    0.5166990    -0.6927528    0.5172007    -0.1489706    0.0381654 
   2.563600000    -0.0463742    0.1270569    -0.6618369    0.5164909    -0.6787807    0.5244306    -0.1496499    0.0461650 
   2.583550000    -0.0393595    0.1290554    -0.6679218    0.5419564    -0.6761609    0.5435495    -0.1485681    0.0487789 
   2.603500000    -0.0370718    0.1366202    -0.6512666    0.5866793    -0.6630977    0.5761623    -0.1528701    0.0512130 
   2.623450000    -0.0353462    0.1418571    -0.6047328    0.6088158    -0.6324874    0.5986274    -0.1541134    0.0584113 
   2.643400000    -0.0338958    0.1429798    -0.5780389    0.5977091    -0.6113688    0.6059323    -0.1545210    0.0665831 
   2.663350000    -0.0279651    0.1403772    -0.5849480    0.5991860    -0.6015804    0.6198984    -0.1509961    0.0734275 
   2.683300000    -0.0213307    0.1407240    -0.5871379    0.6383202    -0.5871589    0.6463166    -0.1509667    0.0757424 
   2.703250000    -0.0123547    0.1481810    -0.5476906    0.6767355    -0.5602739    0.6656789    -0.1524807    0.0835939 
   2.723200000    -0.0069160    0.1547730    -0.5043497    0.6754848    -0.5413596    0.6761341    -0.1530607    0.0921494 
   2.743150000    -0.0061257    0.1557705    -0.4971549    0.6636569    -0.5273391    0.6920757    -0.1512493    0.0986158 
   2.763100000    -0.0060021    0.1523001    -0.5036944    0.6872895    -0.5041220    0.7157680    -0.1516099    0.1009625 
   2.783050000     0.0023398    0.1501270    -0.4767188    0.7248971    -0.4731915    0.7250943    -0.1496473    0.1062531 
   2.803000000     0.0150680    0.1515068    -0.4335811    0.7358531    -0.4583917    0.7315608    -0.1460641    0.1122869 
   2.822950000     0.0241074    0.1548201    -0.4139296    0.7269464    -0.4465441    0.7522361    -0.1412103    0.1180373 
   2.842900000     0.0255117    0.1581489    -0.4103860    0.7405878    -0.4160756    0.7805218    -0.1431343    0.1217053 
   2.862850000     0.0290075    0.1591127    -0.3865512    0.7649148    -0.3759800    0.7819996    -0.1430434    0.1310059 
   2.882800000     0.0362098    0.1552617    -0.3517185    0.7732369    -0.3609648    0.7772397    -0.1383318    0.1387992 
   2.902750000     0.0460277    0.1509411    -0.3355025    0.7708983    -0.3560083    0.7942818    -0.1323304    0.1411228 
   2.922700000     0.0537668    0.1511286    -0.3252714    0.7903343    -0.3239551    0.8284322    -0.1329799    0.1402040 
   2.942650000     0.0629776    0.1518246    -0.2927101    0.8113588    -0.2751500    0.8302459    -0.1306212    0.1453937 
   2.962600000     0.0675556    0.1500483    -0.2554819    0.8089267    -0.2527577    0.8158427    -0.1236593    0.1524553 
   2.982550000     0.0699577    0.1460187    -0.2447743    0.8007970    -0.2506786    0.8219485    -0.1159573    0.1591811 
   3.002500000     0.0720021    0.1417460    -0.2363588    0.8235265    -0.2249429    0.8531268    -0.1147364    0.1619865 
   3.022450000     0.0826451    0.1358377    -0.1961509    0.8482129    -0.1765960    0.8594011    -0.1124708    0.1687813 
   3.042400000     0.0930314    0.1295173    -0.1510777    0.8385903    -0.1477139    0.8451833    -0.1051828    0.1710424 
   3.062350000     0.0998214    0.1280217    -0.1427931    0.8210409    -0.1410763    0.8459640    -0.0982478    0.1760901 
   3.082300000     0.1005074    0.1277840    -0.1416474    0.8415794    -0.1154907    0.8687008    -0.0965444    0.1797812 
   3.102250000     0.1060170    0.1204805    -0.1001545    0.8720221    -0.0699315    0.8708025    -0.0945507    0.1873185 
   3.122200000     0.1123224    0.1058638    -0.0444127    0.8597625    -0.0414018    0.8540152    -0.0875407    0.1864918 
   3.142150000     0.1202152    0.0983824    -0.0314698    0.8310655    -0.0302494    0.8537164    -0.0807901    0.1874120 
