! 9/28/2016 2:47:37 PM
! C:\USERS\ANRITSUUSER\DESKTOP\SWITCHES\EVAL_PE42441-RF1-RF3-STATE-00-00.S2P
! CHANNEL.1
! TR.MEASUREMENT
! CORRECTED.DATA
# GHZ S RI R 50.0
! FREQ.GHZ         S11RE         S11IM         S21RE         S21IM         S12RE         S12IM         S22RE         S22IM         
!; PortSelection: Port_12
   0.010000000     0.0599635   -0.0034506    -0.0000293   -0.0000927    -0.0000444   -0.0001031     0.1711998    0.1003161 
   0.029950000     0.0586626   -0.0048397    -0.0001354   -0.0002546    -0.0001273   -0.0002573     0.4845936    0.2782285 
   0.049900000     0.0582860   -0.0084716    -0.0003120    0.0000925    -0.0003113    0.0000970     0.3155805   -0.3665932 
   0.069850000     0.0588145   -0.0118402    -0.0001551   -0.0003336    -0.0001569   -0.0003352     0.7585601   -0.2704768 
   0.089800000     0.0583465   -0.0146415    -0.0002641   -0.0003207    -0.0002551   -0.0003081     0.2343280   -0.4542362 
   0.109750000     0.0572171   -0.0176240    -0.0008699   -0.0008203    -0.0008607   -0.0007947     0.3164610   -0.2403800 
   0.129700000     0.0558699   -0.0214945    -0.0010290   -0.0000260    -0.0010180   -0.0000289     0.1107126   -0.4140109 
   0.149650000     0.0556692   -0.0254660    -0.0006576    0.0002041    -0.0006522    0.0001965     0.0236620   -0.3333055 
   0.169600000     0.0554219   -0.0279482    -0.0006179    0.0001631    -0.0006066    0.0001658    -0.0042722   -0.2802865 
   0.189550000     0.0534273   -0.0303560    -0.0005429    0.0000466    -0.0005289    0.0000489    -0.0218421   -0.2386598 
   0.209500000     0.0510197   -0.0341007    -0.0006767   -0.0001586    -0.0006713   -0.0001535    -0.0269066   -0.2033114 
   0.229450000     0.0498217   -0.0383384    -0.0019425    0.0000767    -0.0019215    0.0000745     0.0319022   -0.2069800 
   0.249400000     0.0497526   -0.0415862    -0.0003281    0.0008528    -0.0003159    0.0008441    -0.0766043   -0.2069165 
   0.269350000     0.0480968   -0.0431790    -0.0002010    0.0004561    -0.0001984    0.0004536    -0.0831598   -0.1665271 
   0.289300000     0.0451553   -0.0455672    -0.0002011    0.0003175    -0.0002090    0.0003108    -0.0885981   -0.1435482 
   0.309250000     0.0424044   -0.0492460    -0.0001976    0.0002185    -0.0001951    0.0002148    -0.0917165   -0.1235066 
   0.329200000     0.0412184   -0.0529261    -0.0001947    0.0001759    -0.0001865    0.0001736    -0.0923461   -0.1056841 
   0.349150000     0.0400959   -0.0547251    -0.0001886    0.0001278    -0.0001819    0.0001279    -0.0905661   -0.0869771 
   0.369100000     0.0370352   -0.0561904    -0.0002314    0.0000510    -0.0002341    0.0000590    -0.0882862   -0.0698015 
   0.389050000     0.0334193   -0.0588573    -0.0003098    0.0001656    -0.0003105    0.0001668    -0.0844367   -0.0564860 
   0.409000000     0.0313181   -0.0622239    -0.0003025    0.0001717    -0.0002995    0.0001721    -0.0752793   -0.0494192 
   0.428950000     0.0300809   -0.0641816    -0.0004367    0.0003019    -0.0004282    0.0003053    -0.0625160   -0.0532784 
   0.448900000     0.0271783   -0.0644217    -0.0004716    0.0007631    -0.0004630    0.0007589    -0.0768120   -0.0939836 
   0.468850000     0.0226124   -0.0656981     0.0003148    0.0007021     0.0003145    0.0006873    -0.1557018   -0.0205377 
   0.488800000     0.0186471   -0.0689578     0.0002895    0.0003151     0.0002957    0.0003031    -0.1136202    0.0253205 
   0.508750000     0.0167953   -0.0719175     0.0000418    0.0002119     0.0000530    0.0002095    -0.0829973    0.0327232 
   0.528700000     0.0150384   -0.0725342    -0.0000179    0.0004316    -0.0000255    0.0004330    -0.0732426    0.0352508 
   0.548650000     0.0112999   -0.0724954     0.0001719    0.0005416     0.0001666    0.0005318    -0.0683264    0.0494237 
   0.568600000     0.0066002   -0.0740993     0.0003766    0.0003918     0.0003801    0.0003775    -0.0545996    0.0655429 
   0.588550000     0.0036564   -0.0766008     0.0003754    0.0001903     0.0003788    0.0001874    -0.0360748    0.0709191 
   0.608500000     0.0014603   -0.0773402     0.0002706    0.0002114     0.0002622    0.0002150    -0.0178863    0.0730084 
   0.628450000    -0.0017527   -0.0765308     0.0003017    0.0001471     0.0003045    0.0001582     0.0001484    0.0774454 
   0.648400000    -0.0067171   -0.0761325     0.0002228    0.0001175     0.0002196    0.0001074     0.0155970    0.0747031 
   0.668350000    -0.0113675   -0.0780619     0.0002512    0.0000496     0.0002575    0.0000426     0.0295599    0.0704946 
   0.688300000    -0.0139712   -0.0794579     0.0002592    0.0000977     0.0002568    0.0001041     0.0436269    0.0638548 
   0.708250000    -0.0163011   -0.0792055     0.0003136    0.0000603     0.0002979    0.0000526     0.0577581    0.0578162 
   0.728200000    -0.0203289   -0.0778018     0.0003767    0.0000330     0.0003701    0.0000216     0.0686158    0.0500349 
   0.748150000    -0.0251958   -0.0776389     0.0004527   -0.0000375     0.0004522   -0.0000421     0.0768739    0.0391350 
   0.768100000    -0.0287051   -0.0783678     0.0004521   -0.0001397     0.0004544   -0.0001447     0.0849114    0.0258737 
   0.788050000    -0.0315072   -0.0778270     0.0004097   -0.0002029     0.0004030   -0.0001996     0.0927514    0.0128863 
   0.808000000    -0.0352967   -0.0762588     0.0003510   -0.0002164     0.0003520   -0.0002207     0.0982326    0.0003170 
   0.827950000    -0.0400944   -0.0754429     0.0003161   -0.0002248     0.0003138   -0.0002215     0.1002771   -0.0132206 
   0.847900000    -0.0438827   -0.0756728     0.0002766   -0.0002157     0.0002722   -0.0002196     0.1002569   -0.0281869 
   0.867850000    -0.0465417   -0.0755314     0.0002479   -0.0002275     0.0002358   -0.0002250     0.0993347   -0.0428111 
   0.887800000    -0.0490804   -0.0734852     0.0002260   -0.0002413     0.0002211   -0.0002398     0.0966523   -0.0558465 
   0.907750000    -0.0533203   -0.0713391     0.0002047   -0.0002602     0.0002057   -0.0002620     0.0908361   -0.0683395 
   0.927700000    -0.0576692   -0.0704074     0.0001780   -0.0002619     0.0001891   -0.0002611     0.0830792   -0.0811787 
   0.947650000    -0.0607841   -0.0699933     0.0001615   -0.0002723     0.0001586   -0.0002725     0.0747625   -0.0927877 
   0.967600000    -0.0628238   -0.0679704     0.0001183   -0.0002918     0.0001127   -0.0002874     0.0658608   -0.1022165 
   0.987550000    -0.0662364   -0.0649104     0.0000715   -0.0002790     0.0000651   -0.0002793     0.0543678   -0.1095289 
   1.007500000    -0.0705564   -0.0632262     0.0000328   -0.0002834     0.0000288   -0.0002799     0.0413655   -0.1166639 
   1.027450000    -0.0737786   -0.0623278    -0.0000070   -0.0002990    -0.0000173   -0.0002904     0.0286062   -0.1228498 
   1.047400000    -0.0754744   -0.0606891    -0.0000560   -0.0003040    -0.0000669   -0.0002972     0.0168009   -0.1264818 
   1.067350000    -0.0776247   -0.0573009    -0.0000941   -0.0003213    -0.0000929   -0.0003174     0.0033205   -0.1266917 
   1.087300000    -0.0812842   -0.0540836    -0.0001211   -0.0003177    -0.0001191   -0.0003052    -0.0115417   -0.1263515 
   1.107250000    -0.0848075   -0.0521898    -0.0001490   -0.0003029    -0.0001374   -0.0002994    -0.0253224   -0.1258715 
   1.127200000    -0.0866552   -0.0504592    -0.0001585   -0.0003048    -0.0001570   -0.0002991    -0.0368791   -0.1238196 
   1.147150000    -0.0879921   -0.0470398    -0.0001805   -0.0002988    -0.0001829   -0.0002959    -0.0471846   -0.1178321 
   1.167100000    -0.0907317   -0.0427882    -0.0002015   -0.0002987    -0.0001959   -0.0002890    -0.0591078   -0.1098305 
   1.187050000    -0.0944408   -0.0397988    -0.0002313   -0.0002936    -0.0002209   -0.0002819    -0.0715155   -0.1020543 
   1.207000000    -0.0969850   -0.0385951    -0.0002358   -0.0003019    -0.0002408   -0.0003016    -0.0813296   -0.0956655 
   1.226950000    -0.0976533   -0.0361669    -0.0002679   -0.0003191    -0.0002606   -0.0003137    -0.0878519   -0.0874262 
   1.246900000    -0.0987055   -0.0319835    -0.0002790   -0.0003056    -0.0002790   -0.0003042    -0.0932427   -0.0767966 
   1.266850000    -0.1009279   -0.0275178    -0.0002827   -0.0002770    -0.0002900   -0.0002699    -0.0989165   -0.0656887 
   1.286800000    -0.1033459   -0.0249736    -0.0002883   -0.0002428    -0.0002915   -0.0002460    -0.1036689   -0.0556626 
   1.306750000    -0.1044258   -0.0223294    -0.0002777   -0.0002046    -0.0002717   -0.0001916    -0.1053944   -0.0462140 
   1.326700000    -0.1045485   -0.0185714    -0.0002854   -0.0001557    -0.0002772   -0.0001441    -0.1056169   -0.0352853 
   1.346650000    -0.1055949   -0.0139285    -0.0002948   -0.0001061    -0.0002983   -0.0001033    -0.1057103   -0.0236817 
   1.366600000    -0.1080946   -0.0097287    -0.0003238   -0.0000738    -0.0003254   -0.0000645    -0.1066710   -0.0139022 
   1.386550000    -0.1095644   -0.0072705    -0.0003500   -0.0000553    -0.0003457   -0.0000579    -0.1053378   -0.0063519 
   1.406500000    -0.1098600   -0.0045890    -0.0003719   -0.0000331    -0.0003626   -0.0000268    -0.1016213    0.0012669 
   1.426450000    -0.1098052   -0.0004231    -0.0003893   -0.0000157    -0.0003788   -0.0000065    -0.0972452    0.0094952 
   1.446400000    -0.1106305    0.0036616    -0.0004086   -0.0000014    -0.0003989    0.0000107    -0.0937648    0.0172675 
   1.466350000    -0.1112158    0.0070728    -0.0004272    0.0000069    -0.0004211    0.0000058    -0.0905483    0.0231162 
   1.486300000    -0.1110265    0.0101845    -0.0004662    0.0000152    -0.0004645    0.0000134    -0.0860383    0.0277499 
   1.506250000    -0.1104531    0.0145005    -0.0005049    0.0000423    -0.0004948    0.0000413    -0.0810803    0.0318366 
   1.526200000    -0.1107417    0.0189031    -0.0005198    0.0000467    -0.0005098    0.0000508    -0.0761824    0.0358319 
   1.546150000    -0.1113427    0.0223839    -0.0005191    0.0000537    -0.0005238    0.0000491    -0.0716270    0.0394021 
   1.566100000    -0.1110462    0.0249669    -0.0004951    0.0000598    -0.0005038    0.0000557    -0.0674056    0.0416583 
   1.586050000    -0.1097213    0.0283266    -0.0004854    0.0000663    -0.0004757    0.0000675    -0.0627008    0.0435104 
   1.606000000    -0.1088056    0.0323827    -0.0004633    0.0000895    -0.0004451    0.0000965    -0.0590889    0.0445196 
   1.625950000    -0.1083775    0.0363093    -0.0004152    0.0001306    -0.0004086    0.0001232    -0.0553733    0.0450561 
   1.645900000    -0.1078520    0.0388663    -0.0003648    0.0001795    -0.0003723    0.0001744    -0.0511989    0.0450280 
   1.665850000    -0.1059918    0.0416501    -0.0003388    0.0002408    -0.0003422    0.0002384    -0.0471430    0.0457437 
   1.685800000    -0.1039560    0.0456642    -0.0003393    0.0003198    -0.0003281    0.0003206    -0.0447142    0.0470839 
   1.705750000    -0.1025444    0.0499175    -0.0003445    0.0003841    -0.0003416    0.0003783    -0.0441455    0.0472361 
   1.725700000    -0.1019418    0.0533916    -0.0003431    0.0004426    -0.0003413    0.0004164    -0.0428297    0.0450405 
   1.745650000    -0.1003487    0.0558710    -0.0003545    0.0004780    -0.0003495    0.0004783    -0.0391025    0.0434150 
   1.765600000    -0.0979266    0.0589805    -0.0003563    0.0005031    -0.0003548    0.0005355    -0.0353349    0.0451849 
   1.785550000    -0.0960123    0.0628120    -0.0003675    0.0005769    -0.0003547    0.0005807    -0.0348724    0.0485214 
   1.805500000    -0.0949833    0.0661774    -0.0003527    0.0006298    -0.0003503    0.0006111    -0.0380484    0.0488005 
   1.825450000    -0.0939549    0.0683255    -0.0003255    0.0006652    -0.0003343    0.0006312    -0.0394177    0.0451802 
   1.845400000    -0.0914226    0.0698949    -0.0003186    0.0006609    -0.0003178    0.0006754    -0.0365110    0.0418659 
   1.865350000    -0.0886822    0.0724985    -0.0003381    0.0006924    -0.0003166    0.0006885    -0.0315023    0.0423425 
   1.885300000    -0.0858102    0.0755256    -0.0002946    0.0007221    -0.0002624    0.0006962    -0.0295955    0.0462689 
   1.905250000    -0.0836196    0.0777622    -0.0002043    0.0007161    -0.0002046    0.0006856    -0.0310114    0.0492576 
   1.925200000    -0.0809457    0.0798786    -0.0001365    0.0006938    -0.0001544    0.0006873    -0.0329011    0.0491235 
   1.945150000    -0.0783598    0.0822758    -0.0000849    0.0006944    -0.0000660    0.0006962    -0.0327702    0.0474302 
   1.965100000    -0.0755037    0.0843113    -0.0000109    0.0007298     0.0000046    0.0007069    -0.0303517    0.0473237 
   1.985050000    -0.0728925    0.0863687     0.0001121    0.0007427     0.0000970    0.0007022    -0.0291690    0.0490037 
   2.005000000    -0.0699331    0.0875700     0.0002069    0.0007215     0.0001827    0.0007191    -0.0287734    0.0506550 
   2.024950000    -0.0668322    0.0889681     0.0002701    0.0007197     0.0002659    0.0007197    -0.0294316    0.0514679 
   2.044900000    -0.0633990    0.0907163     0.0003396    0.0007594     0.0003349    0.0007352    -0.0293005    0.0513667 
   2.064850000    -0.0603078    0.0922178     0.0004349    0.0007917     0.0004202    0.0007545    -0.0284305    0.0516489 
   2.084800000    -0.0574016    0.0936014     0.0005225    0.0007894     0.0004905    0.0007859    -0.0269611    0.0524358 
   2.104750000    -0.0539889    0.0946634     0.0005885    0.0007839     0.0005735    0.0008097    -0.0261907    0.0543418 
   2.124700000    -0.0506423    0.0955051     0.0006466    0.0007753     0.0006432    0.0007981    -0.0263253    0.0559943 
   2.144650000    -0.0469948    0.0964484     0.0006973    0.0007991     0.0006879    0.0007746    -0.0268414    0.0575617 
   2.164600000    -0.0439152    0.0974268     0.0007702    0.0007959     0.0007450    0.0007748    -0.0273832    0.0582623 
   2.184550000    -0.0409805    0.0975025     0.0008391    0.0007554     0.0008190    0.0007570    -0.0270041    0.0592956 
   2.204500000    -0.0373454    0.0972901     0.0008579    0.0006789     0.0008617    0.0007057    -0.0259108    0.0607774 
   2.224450000    -0.0332466    0.0977549     0.0009056    0.0006230     0.0008817    0.0006313    -0.0253819    0.0640883 
   2.244400000    -0.0297094    0.0983355     0.0009550    0.0005777     0.0009126    0.0005589    -0.0256934    0.0675189 
   2.264350000    -0.0267429    0.0984684     0.0010010    0.0005078     0.0009947    0.0004857    -0.0262836    0.0706662 
   2.284300000    -0.0239440    0.0981070     0.0010701    0.0003845     0.0010548    0.0003795    -0.0260693    0.0730738 
   2.304250000    -0.0204377    0.0974641     0.0011148    0.0002500     0.0010859    0.0002649    -0.0249882    0.0763004 
   2.324200000    -0.0169472    0.0968684     0.0011429    0.0001664     0.0011340    0.0001800    -0.0233254    0.0805932 
   2.344150000    -0.0137501    0.0964430     0.0011810    0.0001000     0.0011843    0.0000947    -0.0221957    0.0846321 
   2.364100000    -0.0110129    0.0955271     0.0012449   -0.0000046     0.0012264   -0.0000216    -0.0199483    0.0888255 
   2.384050000    -0.0082958    0.0940967     0.0012948   -0.0001549     0.0012670   -0.0001313    -0.0165639    0.0926367 
   2.404000000    -0.0044273    0.0923015     0.0013286   -0.0002529     0.0013044   -0.0002300    -0.0121048    0.0975434 
   2.423950000    -0.0006313    0.0916412     0.0013419   -0.0002876     0.0013424   -0.0002877    -0.0078181    0.1033992 
   2.443900000     0.0020697    0.0910586     0.0013473   -0.0003398     0.0013582   -0.0003581    -0.0037303    0.1082742 
   2.463850000     0.0040187    0.0896704     0.0013740   -0.0004349     0.0013413   -0.0004350     0.0009152    0.1116897 
   2.483800000     0.0059783    0.0870087     0.0013759   -0.0005466     0.0013367   -0.0005187     0.0077319    0.1141291 
   2.503750000     0.0089592    0.0838798     0.0013261   -0.0006329     0.0013285   -0.0006232     0.0165705    0.1162446 
   2.523700000     0.0131983    0.0821228     0.0012505   -0.0006966     0.0012708   -0.0007108     0.0258332    0.1195577 
   2.543650000     0.0161664    0.0808729     0.0012123   -0.0007904     0.0011874   -0.0008040     0.0339474    0.1223986 
   2.563600000     0.0179735    0.0791716     0.0011920   -0.0009297     0.0011366   -0.0009247     0.0423624    0.1227224 
   2.583550000     0.0198042    0.0761294     0.0011104   -0.0010582     0.0010927   -0.0010474     0.0522666    0.1211371 
   2.603500000     0.0224787    0.0730092     0.0009733   -0.0011690     0.0009980   -0.0011588     0.0632813    0.1195698 
   2.623450000     0.0253594    0.0703989     0.0008790   -0.0012461     0.0008892   -0.0012531     0.0736398    0.1178784 
   2.643400000     0.0273322    0.0686329     0.0008394   -0.0013514     0.0007931   -0.0013542     0.0823476    0.1148272 
   2.663350000     0.0288766    0.0659047     0.0007324   -0.0014862     0.0006895   -0.0014583     0.0899851    0.1089322 
   2.683300000     0.0306281    0.0628598     0.0005496   -0.0015949     0.0005840   -0.0015591     0.0991368    0.1008321 
   2.703250000     0.0324689    0.0596033     0.0004218   -0.0016456     0.0004543   -0.0016314     0.1084860    0.0923959 
   2.723200000     0.0342142    0.0567035     0.0003804   -0.0017313     0.0003483   -0.0017188     0.1169922    0.0845857 
   2.743150000     0.0355168    0.0536637     0.0002802   -0.0018152     0.0002507   -0.0017820     0.1227598    0.0761069 
   2.763100000     0.0366435    0.0502979     0.0001292   -0.0018778     0.0001472   -0.0018286     0.1271996    0.0653010 
   2.783050000     0.0378108    0.0471423    -0.0000181   -0.0018644     0.0000284   -0.0018371     0.1307169    0.0537628 
   2.803000000     0.0386046    0.0440073    -0.0001020   -0.0018701    -0.0000885   -0.0018557     0.1335343    0.0418174 
   2.822950000     0.0387606    0.0399665    -0.0002203   -0.0018617    -0.0002290   -0.0018369     0.1347129    0.0303406 
   2.842900000     0.0397455    0.0355534    -0.0004062   -0.0018452    -0.0003839   -0.0018214     0.1337989    0.0182662 
   2.862850000     0.0417439    0.0321331    -0.0005583   -0.0018034    -0.0005236   -0.0017809     0.1320052    0.0062640 
   2.882800000     0.0430228    0.0300316    -0.0006946   -0.0017736    -0.0006678   -0.0017578     0.1295147   -0.0047894 
   2.902750000     0.0420434    0.0279661    -0.0008618   -0.0017263    -0.0008172   -0.0017343     0.1246505   -0.0141934 
   2.922700000     0.0402733    0.0238122    -0.0010393   -0.0016517    -0.0009856   -0.0016595     0.1178824   -0.0232335 
   2.942650000     0.0401780    0.0182258    -0.0011832   -0.0015728    -0.0011647   -0.0015764     0.1100635   -0.0320686 
   2.962600000     0.0416813    0.0145043    -0.0013218   -0.0015428    -0.0013001   -0.0015375     0.1021569   -0.0395043 
   2.982550000     0.0418593    0.0129677    -0.0014758   -0.0014498    -0.0014218   -0.0014699     0.0930995   -0.0452722 
   3.002500000     0.0391257    0.0108463    -0.0016199   -0.0013082    -0.0015743   -0.0013391     0.0839023   -0.0498855 
   3.022450000     0.0359362    0.0055113    -0.0017334   -0.0011838    -0.0017289   -0.0012096     0.0746492   -0.0532096 
   3.042400000     0.0358060   -0.0006777    -0.0018933   -0.0010999    -0.0018652   -0.0011102     0.0667349   -0.0541718 
   3.062350000     0.0371968   -0.0042965    -0.0020201   -0.0010005    -0.0019933   -0.0010124     0.0578108   -0.0524825 
   3.082300000     0.0367743   -0.0054099    -0.0021178   -0.0008590    -0.0020988   -0.0008959     0.0477357   -0.0496905 
   3.102250000     0.0335228   -0.0079347    -0.0021703   -0.0007151    -0.0021763   -0.0007379     0.0381048   -0.0474840 
   3.122200000     0.0303029   -0.0125066    -0.0022557   -0.0005973    -0.0022499   -0.0005964     0.0318406   -0.0455282 
   3.142150000     0.0294505   -0.0172027    -0.0023290   -0.0004594    -0.0023065   -0.0004503     0.0284308   -0.0404879 
