! 9/28/2016 2:32:49 PM
! C:\USERS\ANRITSUUSER\DESKTOP\SWITCHES\EVAL_PE42441-RF3-ON.S2P
! CHANNEL.1
! TR.MEASUREMENT
! CORRECTED.DATA
# GHZ S RI R 50.0
! FREQ.GHZ         S11RE         S11IM         S21RE         S21IM         S12RE         S12IM         S22RE         S22IM         
!; PortSelection: Port_12
   0.010000000     0.0664686   -0.0029660     0.0000002    0.0000140     0.0000049    0.0000146     0.0603960   -0.0054100 
   0.029950000     0.0655848   -0.0034521     0.0000016    0.0000119    -0.0000069    0.0000038     0.0588412   -0.0049615 
   0.049900000     0.0657546   -0.0066920    -0.0000042    0.0000105    -0.0000079    0.0000015     0.0585044   -0.0086562 
   0.069850000     0.0665422   -0.0097961    -0.0000075    0.0000105    -0.0000060    0.0000027     0.0589934   -0.0121030 
   0.089800000     0.0665686   -0.0123767    -0.0000070    0.0000327    -0.0000012    0.0000267     0.0587399   -0.0143274 
   0.109750000     0.0658056   -0.0153071    -0.0000138    0.0000294    -0.0000223    0.0000307     0.0571556   -0.0174115 
   0.129700000     0.0647843   -0.0190565    -0.0000175    0.0000300    -0.0000244    0.0000270     0.0554789   -0.0216248 
   0.149650000     0.0648590   -0.0229694    -0.0000139    0.0000389    -0.0000144    0.0000333     0.0553234   -0.0261571 
   0.169600000     0.0646245   -0.0254490    -0.0000264    0.0000467    -0.0000240    0.0000466     0.0556973   -0.0291629 
   0.189550000     0.0627567   -0.0282289    -0.0000185    0.0000440    -0.0000156    0.0000550     0.0546270   -0.0313008 
   0.209500000     0.0608306   -0.0324144    -0.0000201    0.0000521    -0.0000238    0.0000537     0.0523962   -0.0339636 
   0.229450000     0.0600104   -0.0368070    -0.0000145    0.0000484    -0.0000123    0.0000450     0.0508023   -0.0375362 
   0.249400000     0.0602534   -0.0400118    -0.0000400    0.0000368    -0.0000381    0.0000289     0.0498546   -0.0406150 
   0.269350000     0.0587305   -0.0416625    -0.0000370    0.0000691    -0.0000337    0.0000727     0.0478515   -0.0427555 
   0.289300000     0.0555435   -0.0440973    -0.0000378    0.0000667    -0.0000383    0.0000672     0.0449509   -0.0457903 
   0.309250000     0.0526077   -0.0483497    -0.0000204    0.0000738    -0.0000317    0.0000657     0.0424826   -0.0496574 
   0.329200000     0.0514961   -0.0524633    -0.0000088    0.0000762    -0.0000140    0.0000731     0.0415625   -0.0530418 
   0.349150000     0.0506868   -0.0544400    -0.0000088    0.0000828    -0.0000084    0.0000937     0.0403215   -0.0547459 
   0.369100000     0.0478187   -0.0558150     0.0000072    0.0000927     0.0000022    0.0000945     0.0370273   -0.0559912 
   0.389050000     0.0439412   -0.0584010     0.0000152    0.0001151     0.0000087    0.0001087     0.0329794   -0.0589433 
   0.409000000     0.0413096   -0.0619425     0.0000244    0.0001196     0.0000258    0.0001154     0.0307409   -0.0625565 
   0.428950000     0.0397715   -0.0640478     0.0000121    0.0001209     0.0000069    0.0001251     0.0297581   -0.0647383 
   0.448900000     0.0368819   -0.0643755    -0.0000228    0.0001332    -0.0000152    0.0001365     0.0273259   -0.0651004 
   0.468850000     0.0323005   -0.0655164    -0.0000185    0.0001415    -0.0000265    0.0001357     0.0228724   -0.0662682 
   0.488800000     0.0280149   -0.0684125    -0.0000241    0.0001448    -0.0000228    0.0001394     0.0187268   -0.0693201 
   0.508750000     0.0255024   -0.0711622    -0.0000274    0.0001440    -0.0000305    0.0001429     0.0166634   -0.0720126 
   0.528700000     0.0232823   -0.0718726    -0.0000264    0.0001481    -0.0000245    0.0001495     0.0146970   -0.0729810 
   0.548650000     0.0193773   -0.0718437    -0.0000288    0.0001569    -0.0000290    0.0001521     0.0109827   -0.0727006 
   0.568600000     0.0148278   -0.0733558    -0.0000236    0.0001965    -0.0000255    0.0001827     0.0061124   -0.0741705 
   0.588550000     0.0117750   -0.0751420    -0.0000039    0.0002123     0.0000041    0.0002096     0.0028822   -0.0767828 
   0.608500000     0.0092252   -0.0751497     0.0000072    0.0002107     0.0000109    0.0002209     0.0007052   -0.0778803 
   0.628450000     0.0055312   -0.0737329     0.0000085    0.0002152     0.0000150    0.0002068    -0.0024045   -0.0773737 
   0.648400000    -0.0000001   -0.0732272     0.0000212    0.0001985     0.0000300    0.0001908    -0.0075073   -0.0775043 
   0.668350000    -0.0046108   -0.0748764     0.0000269    0.0001873     0.0000418    0.0001845    -0.0116877   -0.0792293 
   0.688300000    -0.0071910   -0.0758936     0.0000425    0.0001983     0.0000390    0.0001933    -0.0141995   -0.0804890 
   0.708250000    -0.0094554   -0.0747313     0.0000643    0.0001993     0.0000545    0.0001995    -0.0166152   -0.0797236 
   0.728200000    -0.0137730   -0.0724764     0.0000848    0.0002159     0.0000782    0.0002083    -0.0211580   -0.0782441 
   0.748150000    -0.0189549   -0.0716722     0.0000942    0.0002191     0.0000957    0.0002213    -0.0264876   -0.0787366 
   0.768100000    -0.0225219   -0.0719175     0.0000953    0.0002316     0.0000981    0.0002336    -0.0302647   -0.0803867 
   0.788050000    -0.0251552   -0.0709778     0.0001018    0.0002407     0.0001016    0.0002354    -0.0324941   -0.0808301 
   0.808000000    -0.0286071   -0.0686082     0.0001155    0.0002274     0.0001155    0.0002254    -0.0349231   -0.0794725 
   0.827950000    -0.0330331   -0.0669140     0.0001291    0.0002324     0.0001291    0.0002279    -0.0390291   -0.0779910 
   0.847900000    -0.0368057   -0.0662628     0.0001419    0.0002303     0.0001469    0.0002323    -0.0430177   -0.0774546 
   0.867850000    -0.0393592   -0.0653705     0.0001741    0.0002335     0.0001685    0.0002313    -0.0463268   -0.0769833 
   0.887800000    -0.0415284   -0.0625968     0.0002013    0.0002247     0.0001956    0.0002157    -0.0492769   -0.0753541 
   0.907750000    -0.0450328   -0.0598448     0.0002156    0.0002214     0.0002121    0.0002202    -0.0533128   -0.0737518 
   0.927700000    -0.0490673   -0.0580491     0.0002086    0.0002403     0.0002167    0.0002399    -0.0572007   -0.0729165 
   0.947650000    -0.0517532   -0.0566974     0.0002070    0.0002738     0.0002061    0.0002704    -0.0600597   -0.0720354 
   0.967600000    -0.0532790   -0.0542164     0.0002095    0.0002990     0.0002040    0.0002945    -0.0624157   -0.0698544 
   0.987550000    -0.0560731   -0.0506741     0.0002285    0.0003317     0.0002237    0.0003141    -0.0660091   -0.0670640 
   1.007500000    -0.0593548   -0.0484828     0.0002317    0.0003400     0.0002305    0.0003360    -0.0703247   -0.0656278 
   1.027450000    -0.0616455   -0.0469688     0.0002361    0.0003430     0.0002318    0.0003464    -0.0730023   -0.0645557 
   1.047400000    -0.0624621   -0.0446204     0.0002541    0.0003559     0.0002443    0.0003511    -0.0744506   -0.0625477 
   1.067350000    -0.0640716   -0.0410089     0.0002597    0.0003597     0.0002526    0.0003461    -0.0772686   -0.0587395 
   1.087300000    -0.0667156   -0.0377130     0.0002667    0.0003660     0.0002588    0.0003630    -0.0816233   -0.0558767 
   1.107250000    -0.0690663   -0.0355672     0.0002595    0.0003793     0.0002622    0.0003776    -0.0850754   -0.0549815 
   1.127200000    -0.0694095   -0.0337647     0.0002654    0.0003816     0.0002550    0.0003785    -0.0862394   -0.0539168 
   1.147150000    -0.0695018   -0.0300100     0.0002690    0.0003681     0.0002582    0.0003667    -0.0866848   -0.0500863 
   1.167100000    -0.0711951   -0.0253994     0.0002764    0.0003704     0.0002700    0.0003658    -0.0892799   -0.0452268 
   1.187050000    -0.0739604   -0.0225843     0.0002814    0.0003632     0.0002737    0.0003633    -0.0934894   -0.0417584 
   1.207000000    -0.0751714   -0.0217339     0.0003045    0.0003567     0.0002880    0.0003526    -0.0964213   -0.0405728 
   1.226950000    -0.0744810   -0.0197671     0.0003415    0.0003605     0.0003347    0.0003571    -0.0972448   -0.0384203 
   1.246900000    -0.0736746   -0.0159770     0.0003722    0.0003754     0.0003682    0.0003729    -0.0980395   -0.0345257 
   1.266850000    -0.0745880   -0.0118118     0.0003982    0.0003861     0.0003863    0.0003845    -0.1002039   -0.0303134 
   1.286800000    -0.0757441   -0.0092797     0.0004046    0.0003899     0.0003966    0.0003974    -0.1026685   -0.0274425 
   1.306750000    -0.0757778   -0.0073763     0.0004115    0.0003971     0.0004069    0.0003894    -0.1032506   -0.0250615 
   1.326700000    -0.0747418   -0.0045272     0.0004254    0.0003891     0.0004199    0.0003950    -0.1035090   -0.0209657 
   1.346650000    -0.0744474   -0.0006940     0.0004318    0.0003787     0.0004253    0.0003813    -0.1047279   -0.0157429 
   1.366600000    -0.0755823    0.0025499     0.0004388    0.0003607     0.0004380    0.0003554    -0.1075437   -0.0119930 
   1.386550000    -0.0759445    0.0040346     0.0004732    0.0003422     0.0004698    0.0003328    -0.1090502   -0.0098237 
   1.406500000    -0.0751083    0.0055294     0.0005149    0.0003516     0.0005111    0.0003467    -0.1088806   -0.0070765 
   1.426450000    -0.0744526    0.0083524     0.0005390    0.0003697     0.0005363    0.0003737    -0.1082375   -0.0028756 
   1.446400000    -0.0740415    0.0108885     0.0005382    0.0003809     0.0005281    0.0003918    -0.1089843    0.0017000 
   1.466350000    -0.0738550    0.0128457     0.0005231    0.0004117     0.0005101    0.0004133    -0.1104214    0.0052450 
   1.486300000    -0.0729218    0.0142876     0.0004970    0.0004311     0.0004977    0.0004104    -0.1106162    0.0083709 
   1.506250000    -0.0716093    0.0172200     0.0004882    0.0004096     0.0004810    0.0004110    -0.1102571    0.0115325 
   1.526200000    -0.0715256    0.0193974     0.0004822    0.0003692     0.0004697    0.0003606    -0.1098390    0.0153442 
   1.546150000    -0.0715509    0.0215464     0.0005109    0.0003006     0.0004956    0.0003068    -0.1095604    0.0192094 
   1.566100000    -0.0707905    0.0221532     0.0005514    0.0002559     0.0005427    0.0002412    -0.1092589    0.0229156 
   1.586050000    -0.0693044    0.0236243     0.0006017    0.0002362     0.0006129    0.0002162    -0.1086275    0.0268661 
   1.606000000    -0.0683909    0.0261052     0.0006793    0.0002234     0.0006709    0.0002172    -0.1085680    0.0301516 
   1.625950000    -0.0684216    0.0280580     0.0007364    0.0002050     0.0007148    0.0002090    -0.1081990    0.0326545 
   1.645900000    -0.0681519    0.0282924     0.0007697    0.0002213     0.0007607    0.0002244    -0.1061171    0.0352401 
   1.665850000    -0.0666240    0.0287488     0.0007842    0.0002608     0.0007998    0.0002662    -0.1034810    0.0396733 
   1.685800000    -0.0646737    0.0305783     0.0007847    0.0003188     0.0007950    0.0003026    -0.1024381    0.0452514 
   1.705750000    -0.0638478    0.0330644     0.0007942    0.0003297     0.0007673    0.0003192    -0.1035933    0.0491893 
   1.725700000    -0.0639379    0.0347329     0.0007776    0.0003302     0.0007566    0.0003239    -0.1040244    0.0499234 
   1.745650000    -0.0637498    0.0353937     0.0007509    0.0003217     0.0007576    0.0003402    -0.1003817    0.0504110 
   1.765600000    -0.0628631    0.0364008     0.0007293    0.0003440     0.0007508    0.0003611    -0.0950424    0.0548242 
   1.785550000    -0.0621578    0.0380048     0.0007312    0.0003766     0.0007267    0.0003479    -0.0924317    0.0622054 
   1.805500000    -0.0626188    0.0392848     0.0007545    0.0003371     0.0007079    0.0003256    -0.0948823    0.0676900 
   1.825450000    -0.0629930    0.0395334     0.0007199    0.0002629     0.0006820    0.0002915    -0.0972830    0.0684626 
   1.845400000    -0.0626107    0.0396319     0.0006728    0.0002326     0.0006938    0.0002472    -0.0957002    0.0671678 
   1.865350000    -0.0618398    0.0403054     0.0006775    0.0002327     0.0007126    0.0002054    -0.0899315    0.0672462 
   1.885300000    -0.0612454    0.0414290     0.0008102    0.0001931     0.0007747    0.0001377    -0.0844118    0.0698858 
   1.905250000    -0.0610979    0.0422098     0.0008804    0.0000376     0.0008275    0.0000766    -0.0798551    0.0732102 
   1.925200000    -0.0608513    0.0428548     0.0008602    0.0000338     0.0008873    0.0000664    -0.0772106    0.0750803 
   1.945150000    -0.0606855    0.0437125     0.0008946    0.0001036     0.0009330    0.0000813    -0.0746181    0.0779693 
   1.965100000    -0.0609312    0.0447882     0.0010007    0.0001616     0.0009791    0.0001046    -0.0715937    0.0807557 
   1.985050000    -0.0609085    0.0452386     0.0010767    0.0001083     0.0010112    0.0001240    -0.0700840    0.0837193 
   2.005000000    -0.0606195    0.0458434     0.0010550    0.0000733     0.0010344    0.0001354    -0.0683866    0.0855298 
   2.024950000    -0.0600399    0.0463497     0.0010070    0.0001011     0.0010311    0.0001169    -0.0659180    0.0861080 
   2.044900000    -0.0595719    0.0479621     0.0010147    0.0001244     0.0010304    0.0000931    -0.0624867    0.0866353 
   2.064850000    -0.0597533    0.0493812     0.0010622    0.0000900     0.0010239    0.0000562    -0.0583134    0.0880350 
   2.084800000    -0.0603137    0.0505330     0.0010950    0.0000179     0.0010548    0.0000421    -0.0544145    0.0898211 
   2.104750000    -0.0602632    0.0509878     0.0010845   -0.0000436     0.0010913    0.0000091    -0.0510259    0.0918147 
   2.124700000    -0.0596648    0.0520089     0.0010807   -0.0000350     0.0011016   -0.0000375    -0.0480714    0.0930667 
   2.144650000    -0.0588536    0.0534907     0.0011400   -0.0000234     0.0011320   -0.0000640    -0.0453270    0.0939613 
   2.164600000    -0.0591677    0.0551765     0.0012130   -0.0000593     0.0011750   -0.0000742    -0.0425339    0.0939807 
   2.184550000    -0.0596479    0.0564576     0.0012509   -0.0001018     0.0012169   -0.0000857    -0.0386738    0.0938515 
   2.204500000    -0.0592970    0.0572017     0.0012241   -0.0001548     0.0012212   -0.0001187    -0.0343748    0.0937315 
   2.224450000    -0.0581625    0.0584998     0.0012318   -0.0001723     0.0012108   -0.0001657    -0.0304393    0.0948401 
   2.244400000    -0.0573029    0.0605809     0.0012709   -0.0001588     0.0012454   -0.0001877    -0.0273878    0.0956024 
   2.264350000    -0.0568435    0.0630291     0.0013203   -0.0001952     0.0012875   -0.0002220    -0.0247895    0.0957852 
   2.284300000    -0.0573207    0.0650124     0.0013544   -0.0002834     0.0013295   -0.0002572    -0.0216615    0.0950046 
   2.304250000    -0.0575628    0.0665129     0.0013656   -0.0003239     0.0013414   -0.0002982    -0.0180789    0.0942532 
   2.324200000    -0.0568800    0.0677540     0.0013830   -0.0003146     0.0013685   -0.0003158    -0.0144203    0.0939351 
   2.344150000    -0.0560526    0.0691416     0.0014064   -0.0002974     0.0013889   -0.0003137    -0.0118964    0.0930947 
   2.364100000    -0.0552112    0.0709245     0.0014155   -0.0003463     0.0013923   -0.0003437    -0.0090129    0.0916055 
   2.384050000    -0.0543489    0.0730467     0.0014238   -0.0004316     0.0013949   -0.0003964    -0.0049524    0.0895455 
   2.404000000    -0.0536374    0.0745972     0.0014254   -0.0004792     0.0013961   -0.0004496    -0.0006279    0.0886398 
   2.423950000    -0.0524517    0.0766503     0.0014124   -0.0004867     0.0014064   -0.0004949     0.0027997    0.0886151 
   2.443900000    -0.0516963    0.0783452     0.0014236   -0.0005335     0.0014086   -0.0005386     0.0047932    0.0881394 
   2.463850000    -0.0507324    0.0796705     0.0014580   -0.0006238     0.0014114   -0.0005954     0.0064117    0.0861650 
   2.483800000    -0.0494080    0.0811430     0.0014921   -0.0007056     0.0014549   -0.0006557     0.0091342    0.0829193 
   2.503750000    -0.0473025    0.0825086     0.0015151   -0.0007333     0.0015030   -0.0007000     0.0132484    0.0800258 
   2.523700000    -0.0449676    0.0847357     0.0015194   -0.0007500     0.0015154   -0.0007323     0.0172382    0.0788953 
   2.543650000    -0.0434369    0.0870513     0.0015271   -0.0007641     0.0015192   -0.0007644     0.0192977    0.0779689 
   2.563600000    -0.0424438    0.0887588     0.0015734   -0.0008148     0.0015085   -0.0007943     0.0208904    0.0756629 
   2.583550000    -0.0406300    0.0893895     0.0015694   -0.0008775     0.0015538   -0.0008352     0.0233437    0.0717933 
   2.603500000    -0.0377650    0.0905116     0.0015115   -0.0009369     0.0015480   -0.0008930     0.0270267    0.0691128 
   2.623450000    -0.0351169    0.0923532     0.0014999   -0.0009679     0.0015100   -0.0009440     0.0304166    0.0678955 
   2.643400000    -0.0333790    0.0942819     0.0015302   -0.0010112     0.0015066   -0.0009972     0.0316193    0.0663050 
   2.663350000    -0.0311911    0.0952261     0.0015512   -0.0010753     0.0015161   -0.0010492     0.0315751    0.0634630 
   2.683300000    -0.0288120    0.0957799     0.0014986   -0.0011352     0.0015199   -0.0010869     0.0330287    0.0589931 
   2.703250000    -0.0257589    0.0967677     0.0014406   -0.0011909     0.0014750   -0.0011396     0.0357590    0.0552746 
   2.723200000    -0.0229432    0.0980669     0.0014478   -0.0012300     0.0014409   -0.0011874     0.0383682    0.0524746 
   2.743150000    -0.0210225    0.0988418     0.0014370   -0.0012854     0.0014228   -0.0012657     0.0397840    0.0504750 
   2.763100000    -0.0185566    0.0985105     0.0013934   -0.0013710     0.0013997   -0.0013511     0.0402192    0.0475243 
   2.783050000    -0.0152875    0.0984248     0.0013648   -0.0014802     0.0013791   -0.0014385     0.0410280    0.0439740 
   2.803000000    -0.0116061    0.0987184     0.0013622   -0.0015501     0.0013773   -0.0014985     0.0419443    0.0400956 
   2.822950000    -0.0092626    0.0989288     0.0013856   -0.0016059     0.0014086   -0.0015907     0.0427015    0.0365768 
   2.842900000    -0.0066782    0.0984316     0.0013822   -0.0016776     0.0014166   -0.0016596     0.0436297    0.0326334 
   2.862850000    -0.0031376    0.0977057     0.0013640   -0.0017331     0.0013887   -0.0017133     0.0448287    0.0289203 
   2.882800000     0.0005466    0.0973117     0.0013631   -0.0017579     0.0013640   -0.0017304     0.0457784    0.0259573 
   2.902750000     0.0030029    0.0972947     0.0013423   -0.0018043     0.0013774   -0.0017718     0.0454315    0.0231171 
   2.922700000     0.0052589    0.0959781     0.0012782   -0.0018606     0.0013448   -0.0018472     0.0446089    0.0196833 
   2.942650000     0.0084096    0.0939034     0.0012317   -0.0019065     0.0012399   -0.0019057     0.0442147    0.0152417 
   2.962600000     0.0124266    0.0928860     0.0012034   -0.0019975     0.0011956   -0.0019659     0.0441991    0.0113440 
   2.982550000     0.0150314    0.0931078     0.0011976   -0.0020796     0.0012385   -0.0020229     0.0439135    0.0079730 
   3.002500000     0.0155990    0.0919116     0.0011787   -0.0021220     0.0012336   -0.0021004     0.0428092    0.0043965 
   3.022450000     0.0164349    0.0881566     0.0011363   -0.0021441     0.0011705   -0.0021499     0.0416752   -0.0001621 
   3.042400000     0.0202051    0.0839936     0.0010866   -0.0021650     0.0010892   -0.0021765     0.0422663   -0.0042217 
   3.062350000     0.0246778    0.0823814     0.0010343   -0.0022204     0.0010683   -0.0022101     0.0420635   -0.0064583 
   3.082300000     0.0267936    0.0822079     0.0009785   -0.0022821     0.0010329   -0.0022670     0.0394831   -0.0082715 
   3.102250000     0.0263399    0.0796866     0.0008831   -0.0023128     0.0009382   -0.0023231     0.0363383   -0.0122127 
   3.122200000     0.0271498    0.0748504     0.0008347   -0.0023792     0.0008542   -0.0023892     0.0346429   -0.0178538 
   3.142150000     0.0307586    0.0708452     0.0007905   -0.0024898     0.0008356   -0.0024612     0.0348811   -0.0213618 
