! 9/28/2016 2:45:29 PM
! C:\USERS\ANRITSUUSER\DESKTOP\SWITCHES\EVAL_PE42441-RF1-RF1-STATE-00-00.S2P
! CHANNEL.1
! TR.MEASUREMENT
! CORRECTED.DATA
# GHZ S RI R 50.0
! FREQ.GHZ         S11RE         S11IM         S21RE         S21IM         S12RE         S12IM         S22RE         S22IM         
!; PortSelection: Port_12
   0.010000000     0.1702359   -0.0013888     0.8146078   -0.0525407     0.8121995   -0.0610047     0.1696904   -0.0056389 
   0.029950000     0.1708191   -0.0186793     0.8020398   -0.1086939     0.8002194   -0.1066102     0.1695021   -0.0188913 
   0.049900000     0.1682172   -0.0379462     0.7899621   -0.1696784     0.7883780   -0.1675542     0.1660522   -0.0382378 
   0.069850000     0.1657723   -0.0500628     0.7708787   -0.2356570     0.7693109   -0.2332925     0.1636404   -0.0508495 
   0.089800000     0.1600600   -0.0651837     0.7483837   -0.2941474     0.7471722   -0.2918220     0.1569829   -0.0660060 
   0.109750000     0.1520326   -0.0756029     0.7220978   -0.3553727     0.7213249   -0.3532452     0.1477524   -0.0753947 
   0.129700000     0.1451150   -0.0923448     0.6894538   -0.4092372     0.6886082   -0.4065295     0.1381411   -0.0910776 
   0.149650000     0.1353994   -0.1070486     0.6528993   -0.4618959     0.6521517   -0.4588473     0.1265116   -0.1035849 
   0.169600000     0.1236442   -0.1176766     0.6131270   -0.5103897     0.6125385   -0.5075239     0.1140611   -0.1131648 
   0.189550000     0.1097652   -0.1257774     0.5700175   -0.5556093     0.5694526   -0.5530250     0.0995378   -0.1202303 
   0.209500000     0.0954949   -0.1335397     0.5251400   -0.5979949     0.5246307   -0.5955606     0.0834436   -0.1260070 
   0.229450000     0.0861288   -0.1378154     0.4718385   -0.6402792     0.4714285   -0.6377344     0.0729730   -0.1272802 
   0.249400000     0.0732888   -0.1469215     0.4199143   -0.6713980     0.4197580   -0.6684268     0.0576637   -0.1317378 
   0.269350000     0.0576428   -0.1496672     0.3645771   -0.6998572     0.3651300   -0.6967523     0.0421070   -0.1300902 
   0.289300000     0.0409682   -0.1507493     0.3086898   -0.7246249     0.3096831   -0.7215353     0.0263779   -0.1276555 
   0.309250000     0.0258362   -0.1515972     0.2513990   -0.7447875     0.2523175   -0.7416468     0.0117369   -0.1250523 
   0.329200000     0.0129800   -0.1510137     0.1926123   -0.7625576     0.1939889   -0.7590475    -0.0002438   -0.1203206 
   0.349150000     0.0007407   -0.1462673     0.1315552   -0.7733629     0.1333514   -0.7705677    -0.0107232   -0.1115754 
   0.369100000    -0.0130683   -0.1394628     0.0710763   -0.7796845     0.0730347   -0.7772857    -0.0213011   -0.1003775 
   0.389050000    -0.0268712   -0.1319012     0.0124814   -0.7818520     0.0140538   -0.7790259    -0.0313885   -0.0891637 
   0.409000000    -0.0360463   -0.1220364    -0.0484322   -0.7854173    -0.0457189   -0.7822878    -0.0362172   -0.0767407 
   0.428950000    -0.0329355   -0.1132802    -0.1207633   -0.7792563    -0.1173676   -0.7769739    -0.0297697   -0.0696042 
   0.448900000    -0.0440944   -0.1128312    -0.1783855   -0.7555989    -0.1753137   -0.7545147    -0.0405507   -0.0652252 
   0.468850000    -0.0555441   -0.1004138    -0.2307381   -0.7387716    -0.2283727   -0.7374234    -0.0458102   -0.0496682 
   0.488800000    -0.0593831   -0.0900664    -0.2886218   -0.7207333    -0.2851699   -0.7190490    -0.0433880   -0.0400695 
   0.508750000    -0.0611278   -0.0837048    -0.3440032   -0.6940029    -0.3397993   -0.6931854    -0.0414205   -0.0329549 
   0.528700000    -0.0627121   -0.0747659    -0.3971388   -0.6629724    -0.3938396   -0.6635776    -0.0386999   -0.0229843 
   0.548650000    -0.0647514   -0.0646907    -0.4450423   -0.6272312    -0.4428022   -0.6272216    -0.0364704   -0.0128310 
   0.568600000    -0.0664183   -0.0560495    -0.4900488   -0.5908660    -0.4866071   -0.5898724    -0.0339247   -0.0046481 
   0.588550000    -0.0643538   -0.0488607    -0.5326005   -0.5513823    -0.5279787   -0.5515515    -0.0280586    0.0005558 
   0.608500000    -0.0594813   -0.0413432    -0.5736466   -0.5073895    -0.5697905   -0.5098659    -0.0200841    0.0056000 
   0.628450000    -0.0562551   -0.0321942    -0.6083872   -0.4612878    -0.6066363   -0.4632038    -0.0127105    0.0125874 
   0.648400000    -0.0534408   -0.0248074    -0.6412190   -0.4132220    -0.6391709   -0.4137135    -0.0055851    0.0173880 
   0.668350000    -0.0488107   -0.0208184    -0.6709669   -0.3633013    -0.6672951   -0.3639913     0.0029203    0.0180598 
   0.688300000    -0.0427259   -0.0185293    -0.6961163   -0.3100412    -0.6928491   -0.3128471     0.0113016    0.0172640 
   0.708250000    -0.0350931   -0.0152779    -0.7168549   -0.2559875    -0.7151908   -0.2589717     0.0202670    0.0170708 
   0.728200000    -0.0286979   -0.0122503    -0.7336618   -0.2007883    -0.7330155   -0.2023761     0.0276731    0.0158563 
   0.748150000    -0.0229992   -0.0125822    -0.7472296   -0.1445329    -0.7449806   -0.1455861     0.0340725    0.0112267 
   0.768100000    -0.0170875   -0.0153968    -0.7568099   -0.0863662    -0.7538047   -0.0888067     0.0409803    0.0039663 
   0.788050000    -0.0110499   -0.0181450    -0.7607273   -0.0272042    -0.7591184   -0.0310446     0.0478787   -0.0028359 
   0.808000000    -0.0063075   -0.0204019    -0.7596832    0.0311068    -0.7595316    0.0278705     0.0532369   -0.0085620 
   0.827950000    -0.0026749   -0.0244717    -0.7553056    0.0880917    -0.7552175    0.0862649     0.0562268   -0.0159591 
   0.847900000     0.0007205   -0.0310976    -0.7482237    0.1454090    -0.7466384    0.1435181     0.0577712   -0.0253268 
   0.867850000     0.0038727   -0.0380198    -0.7360856    0.2043083    -0.7345576    0.2006987     0.0589186   -0.0348906 
   0.887800000     0.0054848   -0.0436439    -0.7172086    0.2612780    -0.7172592    0.2576975     0.0588136   -0.0433860 
   0.907750000     0.0047707   -0.0502308    -0.6943301    0.3147562    -0.6951157    0.3127811     0.0561441   -0.0522701 
   0.927700000     0.0025111   -0.0584036    -0.6701066    0.3666846    -0.6693729    0.3645894     0.0516555   -0.0618646 
   0.947650000     0.0000699   -0.0668546    -0.6417707    0.4193908    -0.6414012    0.4160107     0.0471080   -0.0707127 
   0.967600000    -0.0030714   -0.0735119    -0.6067909    0.4705929    -0.6081116    0.4669201     0.0421544   -0.0776594 
   0.987550000    -0.0090600   -0.0787865    -0.5660636    0.5162419    -0.5675951    0.5147632     0.0340965   -0.0831723 
   1.007500000    -0.0169656   -0.0847747    -0.5254350    0.5565597    -0.5249667    0.5553961     0.0244140   -0.0890290 
   1.027450000    -0.0246783   -0.0906787    -0.4837058    0.5968624    -0.4826500    0.5933806     0.0154841   -0.0946968 
   1.047400000    -0.0311508   -0.0948767    -0.4363100    0.6376592    -0.4377068    0.6329901     0.0074256   -0.0981038 
   1.067350000    -0.0393544   -0.0970374    -0.3802530    0.6714909    -0.3830374    0.6693960    -0.0020750   -0.0988892 
   1.087300000    -0.0505609   -0.0977313    -0.3243804    0.6961114    -0.3255146    0.6956036    -0.0139508   -0.0989560 
   1.107250000    -0.0616023   -0.0979036    -0.2720379    0.7167393    -0.2716187    0.7146633    -0.0244371   -0.0989462 
   1.127200000    -0.0706885   -0.0972325    -0.2186282    0.7406570    -0.2197218    0.7363482    -0.0327263   -0.0979080 
   1.147150000    -0.0790940   -0.0940875    -0.1550167    0.7588139    -0.1585482    0.7562883    -0.0399867   -0.0937219 
   1.167100000    -0.0899397   -0.0896112    -0.0890915    0.7655042    -0.0924966    0.7659425    -0.0504555   -0.0880257 
   1.187050000    -0.1010761   -0.0837635    -0.0319167    0.7640278    -0.0320908    0.7647992    -0.0611875   -0.0814519 
   1.207000000    -0.1094786   -0.0787438     0.0225041    0.7672814     0.0229116    0.7648170    -0.0689485   -0.0769180 
   1.226950000    -0.1151633   -0.0719168     0.0857299    0.7680496     0.0837243    0.7642633    -0.0735666   -0.0709133 
   1.246900000    -0.1204001   -0.0633513     0.1520176    0.7576084     0.1471368    0.7559792    -0.0779234   -0.0635666 
   1.266850000    -0.1267122   -0.0526605     0.2109983    0.7355148     0.2089040    0.7374569    -0.0837343   -0.0541623 
   1.286800000    -0.1312423   -0.0433458     0.2622365    0.7164689     0.2636208    0.7163831    -0.0872019   -0.0457697 
   1.306750000    -0.1332606   -0.0343599     0.3167901    0.6981566     0.3170974    0.6931584    -0.0884830   -0.0385241 
   1.326700000    -0.1334560   -0.0238574     0.3767005    0.6711156     0.3706335    0.6672050    -0.0887126   -0.0299984 
   1.346650000    -0.1334295   -0.0118062     0.4278870    0.6323641     0.4220824    0.6346942    -0.0894495   -0.0200228 
   1.366600000    -0.1330770   -0.0006158     0.4710462    0.5945970     0.4718550    0.5987588    -0.0904845   -0.0111492 
   1.386550000    -0.1310087    0.0070958     0.5125538    0.5598921     0.5157341    0.5563666    -0.0887816   -0.0048358 
   1.406500000    -0.1273181    0.0144111     0.5579166    0.5204352     0.5545548    0.5135192    -0.0853834    0.0004901 
   1.426450000    -0.1218399    0.0228864     0.5994385    0.4713608     0.5903901    0.4700616    -0.0823149    0.0071929 
   1.446400000    -0.1159324    0.0306252     0.6315094    0.4189817     0.6264527    0.4234805    -0.0797324    0.0136287 
   1.466350000    -0.1094313    0.0359832     0.6574085    0.3695580     0.6577394    0.3713120    -0.0763327    0.0183882 
   1.486300000    -0.1026881    0.0396231     0.6843387    0.3208616     0.6818668    0.3170854    -0.0721044    0.0215580 
   1.506250000    -0.0955634    0.0438831     0.7107211    0.2666101     0.7016257    0.2642816    -0.0679355    0.0249367 
   1.526200000    -0.0880390    0.0469236     0.7291611    0.2058012     0.7204977    0.2091685    -0.0642564    0.0284056 
   1.546150000    -0.0808308    0.0466623     0.7374840    0.1463763     0.7349806    0.1542368    -0.0612406    0.0304838 
   1.566100000    -0.0743259    0.0448823     0.7431096    0.0932599     0.7452024    0.0958932    -0.0582440    0.0310954 
   1.586050000    -0.0682641    0.0439054     0.7515100    0.0394437     0.7494909    0.0370091    -0.0546139    0.0321667 
   1.606000000    -0.0624871    0.0434487     0.7570121   -0.0226029     0.7488264   -0.0214835    -0.0511437    0.0331007 
   1.625950000    -0.0573866    0.0408919     0.7496217   -0.0875826     0.7435221   -0.0785554    -0.0480727    0.0325095 
   1.645900000    -0.0538006    0.0351738     0.7330945   -0.1436092     0.7355831   -0.1343580    -0.0459976    0.0316777 
   1.665850000    -0.0500914    0.0299259     0.7196102   -0.1917699     0.7248148   -0.1913101    -0.0437441    0.0329270 
   1.685800000    -0.0467968    0.0258044     0.7113845   -0.2449117     0.7083083   -0.2494510    -0.0415987    0.0346345 
   1.705750000    -0.0453288    0.0219704     0.6938851   -0.3097075     0.6843038   -0.3056059    -0.0416918    0.0345912 
   1.725700000    -0.0457182    0.0162159     0.6577888   -0.3693587     0.6555729   -0.3560924    -0.0420492    0.0314434 
   1.745650000    -0.0487761    0.0098716     0.6167889   -0.4108477     0.6265191   -0.4036298    -0.0417526    0.0304922 
   1.765600000    -0.0505366    0.0062491     0.5903333   -0.4439409     0.5959949   -0.4511520    -0.0385111    0.0331528 
   1.785550000    -0.0532634    0.0026955     0.5697544   -0.4940965     0.5586994   -0.5004508    -0.0385134    0.0353943 
   1.805500000    -0.0560927   -0.0001476     0.5256613   -0.5572495     0.5139157   -0.5432879    -0.0414852    0.0351765 
   1.825450000    -0.0618988   -0.0066397     0.4565923   -0.5946096     0.4672392   -0.5783222    -0.0455239    0.0320303 
   1.845400000    -0.0703380   -0.0076868     0.4080256   -0.6016573     0.4243124   -0.6096293    -0.0428996    0.0333931 
   1.865350000    -0.0751606   -0.0064976     0.3883357   -0.6268466     0.3775922   -0.6432686    -0.0377835    0.0337545 
   1.885300000    -0.0778039   -0.0063911     0.3457729   -0.6867613     0.3229115   -0.6739157    -0.0375840    0.0377344 
   1.905250000    -0.0837910   -0.0118777     0.2558458   -0.7185090     0.2640721   -0.6936369    -0.0420960    0.0401853 
   1.925200000    -0.0961737   -0.0081017     0.1894730   -0.7024910     0.2104498   -0.7067190    -0.0458988    0.0432390 
   1.945150000    -0.0986791   -0.0000815     0.1651315   -0.7011997     0.1584186   -0.7202569    -0.0441500    0.0428176 
   1.965100000    -0.1018205    0.0016306     0.1263939   -0.7406083     0.1014918   -0.7323184    -0.0416536    0.0420776 
   1.985050000    -0.1092983    0.0028088     0.0429988   -0.7652752     0.0430631   -0.7351215    -0.0419399    0.0450078 
   2.005000000    -0.1171880    0.0094150    -0.0359307   -0.7442681    -0.0125941   -0.7358113    -0.0419792    0.0496886 
   2.024950000    -0.1193517    0.0170949    -0.0766339   -0.7184419    -0.0709818   -0.7327370    -0.0414279    0.0519135 
   2.044900000    -0.1196093    0.0239028    -0.1117681   -0.7220888    -0.1302176   -0.7214862    -0.0411581    0.0520684 
   2.064850000    -0.1220360    0.0283519    -0.1737496   -0.7322208    -0.1806631   -0.7041117    -0.0411509    0.0520930 
   2.084800000    -0.1268158    0.0385186    -0.2526512   -0.7141697    -0.2283148   -0.6936651    -0.0399789    0.0552372 
   2.104750000    -0.1262574    0.0467942    -0.3084973   -0.6711352    -0.2871604   -0.6808922    -0.0376531    0.0578730 
   2.124700000    -0.1261105    0.0546071    -0.3429720   -0.6384814    -0.3487798   -0.6496820    -0.0372486    0.0620529 
   2.144650000    -0.1216120    0.0609423    -0.3805267   -0.6234233    -0.3902505   -0.6091346    -0.0358521    0.0640489 
   2.164600000    -0.1219823    0.0671371    -0.4386332   -0.6045978    -0.4246457   -0.5828648    -0.0375500    0.0655796 
   2.184550000    -0.1188724    0.0773484    -0.4984075   -0.5619420    -0.4725810   -0.5606522    -0.0361069    0.0677204 
   2.204500000    -0.1143385    0.0832968    -0.5372615   -0.5058866    -0.5277646   -0.5178169    -0.0346708    0.0703300 
   2.224450000    -0.1075961    0.0900424    -0.5585728   -0.4616649    -0.5609608   -0.4621340    -0.0310125    0.0749048 
   2.244400000    -0.1032045    0.0926111    -0.5879731   -0.4310451    -0.5819442   -0.4213434    -0.0302648    0.0774269 
   2.264350000    -0.0999823    0.0996599    -0.6322994   -0.3930427    -0.6145035   -0.3884459    -0.0302471    0.0826648 
   2.284300000    -0.0921111    0.1044607    -0.6724176   -0.3319848    -0.6559236   -0.3391703    -0.0278909    0.0854322 
   2.304250000    -0.0848977    0.1075772    -0.6876020   -0.2661755    -0.6798235   -0.2761915    -0.0248502    0.0887110 
   2.324200000    -0.0775953    0.1094812    -0.6919048   -0.2168355    -0.6896152   -0.2223684    -0.0209958    0.0917068 
   2.344150000    -0.0730936    0.1115190    -0.7081568   -0.1767855    -0.7042558   -0.1761679    -0.0194045    0.0964378 
   2.364100000    -0.0665718    0.1133532    -0.7338196   -0.1229158    -0.7227451   -0.1220530    -0.0158945    0.1007311 
   2.384050000    -0.0597303    0.1118552    -0.7458794   -0.0528422    -0.7316594   -0.0609402    -0.0115212    0.1032957 
   2.404000000    -0.0524394    0.1100009    -0.7365104    0.0123698    -0.7314474   -0.0030314    -0.0057994    0.1068595 
   2.423950000    -0.0457307    0.1087342    -0.7244530    0.0607560    -0.7292747    0.0530204     0.0003415    0.1109219 
   2.443900000    -0.0402425    0.1086646    -0.7234524    0.1064626    -0.7218585    0.1097088     0.0061615    0.1150185 
   2.463850000    -0.0358867    0.1074300    -0.7248670    0.1656079    -0.7098181    0.1636850     0.0119873    0.1176741 
   2.483800000    -0.0318216    0.1033686    -0.7108067    0.2343486    -0.6980867    0.2154945     0.0191091    0.1181962 
   2.503750000    -0.0289644    0.0977427    -0.6786262    0.2934884    -0.6841506    0.2736815     0.0270858    0.1191324 
   2.523700000    -0.0248282    0.0939732    -0.6476238    0.3337171    -0.6576940    0.3323917     0.0368302    0.1211798 
   2.543650000    -0.0214874    0.0912626    -0.6300751    0.3734896    -0.6223934    0.3812381     0.0451149    0.1217279 
   2.563600000    -0.0179110    0.0892961    -0.6127300    0.4310533    -0.5920216    0.4213599     0.0539925    0.1199642 
   2.583550000    -0.0165400    0.0845839    -0.5690942    0.4942032    -0.5635403    0.4672322     0.0608539    0.1156891 
   2.603500000    -0.0170235    0.0810411    -0.5114287    0.5330721    -0.5258779    0.5165606     0.0702736    0.1143276 
   2.623450000    -0.0170528    0.0775182    -0.4700119    0.5530795    -0.4763218    0.5564342     0.0810679    0.1107556 
   2.643400000    -0.0175218    0.0747253    -0.4452362    0.5892252    -0.4306526    0.5865665     0.0895210    0.1056145 
   2.663350000    -0.0174913    0.0715902    -0.3979751    0.6420658    -0.3867995    0.6171305     0.0942055    0.0987142 
   2.683300000    -0.0185700    0.0697362    -0.3271335    0.6754256    -0.3387272    0.6495343     0.1006655    0.0933737 
   2.703250000    -0.0185318    0.0689121    -0.2671293    0.6800557    -0.2828103    0.6733668     0.1101353    0.0863069 
   2.723200000    -0.0199021    0.0676940    -0.2304191    0.6953653    -0.2306688    0.6907962     0.1175734    0.0771134 
   2.743150000    -0.0228372    0.0657946    -0.1790482    0.7268818    -0.1780949    0.7061879     0.1197558    0.0681912 
   2.763100000    -0.0269067    0.0648960    -0.1064206    0.7449468    -0.1216164    0.7215614     0.1217550    0.0598068 
   2.783050000    -0.0277897    0.0654769    -0.0411048    0.7353337    -0.0609514    0.7245917     0.1249948    0.0492959 
   2.803000000    -0.0269507    0.0665454     0.0053162    0.7324249    -0.0083788    0.7247037     0.1279024    0.0373982 
   2.822950000    -0.0277246    0.0670351     0.0606950    0.7381587     0.0443360    0.7260482     0.1285992    0.0260615 
   2.842900000    -0.0301332    0.0685126     0.1277013    0.7332547     0.1050133    0.7271292     0.1281516    0.0161859 
   2.862850000    -0.0301809    0.0706441     0.1853288    0.7111503     0.1673039    0.7103449     0.1262264    0.0058779 
   2.882800000    -0.0294363    0.0731565     0.2345636    0.6956617     0.2167222    0.6894714     0.1238568   -0.0025586 
   2.902750000    -0.0298693    0.0762030     0.2917084    0.6781151     0.2623702    0.6748172     0.1195603   -0.0107317 
   2.922700000    -0.0297579    0.0796561     0.3490537    0.6477431     0.3203511    0.6620665     0.1138108   -0.0207650 
   2.942650000    -0.0270365    0.0809391     0.3923489    0.6124654     0.3804896    0.6283783     0.1052022   -0.0298908 
   2.962600000    -0.0236007    0.0839905     0.4347966    0.5856535     0.4232709    0.5878054     0.0984532   -0.0352126 
   2.982550000    -0.0221725    0.0885105     0.4854702    0.5512475     0.4576458    0.5576175     0.0916994   -0.0396236 
   3.002500000    -0.0218952    0.0932062     0.5290571    0.5027516     0.5055732    0.5310140     0.0843680   -0.0459622 
   3.022450000    -0.0202946    0.0926343     0.5572246    0.4574372     0.5559118    0.4848098     0.0739292   -0.0502855 
   3.042400000    -0.0157588    0.0921031     0.5888181    0.4203290     0.5884301    0.4307171     0.0676933   -0.0516797 
   3.062350000    -0.0083366    0.0946519     0.6269879    0.3744611     0.6114716    0.3876973     0.0618726   -0.0497522 
   3.082300000    -0.0015571    0.0993580     0.6542214    0.3162915     0.6455854    0.3463298     0.0532613   -0.0472194 
   3.102250000     0.0015162    0.0998715     0.6684632    0.2637245     0.6787831    0.2889730     0.0428385   -0.0445120 
   3.122200000     0.0046562    0.0990271     0.6857765    0.2174575     0.6935064    0.2275918     0.0367752   -0.0437339 
   3.142150000     0.0120875    0.0969815     0.7065114    0.1642653     0.7038717    0.1783222     0.0327849   -0.0415050 
