! 9/28/2016 2:50:19 PM
! C:\USERS\ANRITSUUSER\DESKTOP\SWITCHES\EVAL_PE42441-RF3-RF3-STATE-00-00.S2P
! CHANNEL.1
! TR.MEASUREMENT
! CORRECTED.DATA
# GHZ S RI R 50.0
! FREQ.GHZ         S11RE         S11IM         S21RE         S21IM         S12RE         S12IM         S22RE         S22IM         
!; PortSelection: Port_12
   0.010000000     0.0599554   -0.0033633     0.0000017    0.0000130     0.0000102    0.0000286     0.9792888   -0.0549787 
   0.029950000     0.0586127   -0.0047479    -0.0000078   -0.0000042    -0.0000065   -0.0000008     0.9721229   -0.1222096 
   0.049900000     0.0582743   -0.0083175    -0.0000067    0.0000036    -0.0000076    0.0000033     0.9585660   -0.2005732 
   0.069850000     0.0586786   -0.0116259    -0.0000027    0.0000003    -0.0000008   -0.0000031     0.9385290   -0.2769554 
   0.089800000     0.0581212   -0.0144085     0.0000008    0.0000046     0.0000062    0.0000050     0.9119833   -0.3488453 
   0.109750000     0.0569540   -0.0173473    -0.0000132   -0.0000012    -0.0000087    0.0000083     0.8793264   -0.4195680 
   0.129700000     0.0555493   -0.0212867    -0.0000074    0.0000169    -0.0000146    0.0000119     0.8407543   -0.4897081 
   0.149650000     0.0553902   -0.0253170    -0.0000001    0.0000170    -0.0000014    0.0000096     0.7966402   -0.5563627 
   0.169600000     0.0550595   -0.0277570     0.0000095    0.0000148     0.0000107    0.0000142     0.7487801   -0.6158121 
   0.189550000     0.0530659   -0.0301847     0.0000024    0.0000054    -0.0000011    0.0000129     0.6946919   -0.6700152 
   0.209500000     0.0506218   -0.0339678    -0.0000019   -0.0000032     0.0000025   -0.0000025     0.6363435   -0.7217992 
   0.229450000     0.0493990   -0.0383317    -0.0000287    0.0000071    -0.0000334   -0.0000008     0.5744464   -0.7687915 
   0.249400000     0.0493517   -0.0415061    -0.0000186    0.0000129    -0.0000122    0.0000139     0.5103957   -0.8098397 
   0.269350000     0.0477910   -0.0432103    -0.0000230    0.0000109    -0.0000177    0.0000169     0.4411092   -0.8433372 
   0.289300000     0.0448568   -0.0455351    -0.0000213    0.0000134    -0.0000255    0.0000133     0.3676850   -0.8727050 
   0.309250000     0.0420670   -0.0492199    -0.0000061    0.0000044    -0.0000089    0.0000032     0.2936470   -0.8953916 
   0.329200000     0.0409630   -0.0529708    -0.0000054   -0.0000050     0.0000039   -0.0000061     0.2215400   -0.9136441 
   0.349150000     0.0399729   -0.0547712     0.0000152   -0.0000079     0.0000143   -0.0000091     0.1482206   -0.9225624 
   0.369100000     0.0369313   -0.0561314     0.0000362   -0.0000730     0.0000228   -0.0000665     0.0713998   -0.9250519 
   0.389050000     0.0333678   -0.0587055    -0.0000492   -0.0000477    -0.0000542   -0.0000521    -0.0051892   -0.9208736 
   0.409000000     0.0312205   -0.0620767    -0.0000170   -0.0000173    -0.0000156   -0.0000129    -0.0792293   -0.9138156 
   0.428950000     0.0299408   -0.0640154    -0.0000135    0.0000053    -0.0000062    0.0000126    -0.1497060   -0.8992963 
   0.448900000     0.0270461   -0.0642847    -0.0000039    0.0000048    -0.0000052    0.0000215    -0.2214780   -0.8774115 
   0.468850000     0.0225818   -0.0656002    -0.0000012    0.0000162    -0.0000099    0.0000164    -0.2906398   -0.8485981 
   0.488800000     0.0186910   -0.0687714    -0.0000006    0.0000326    -0.0000008    0.0000373    -0.3564802   -0.8175832 
   0.508750000     0.0169094   -0.0716567     0.0000121    0.0000286     0.0000111    0.0000352    -0.4163866   -0.7817355 
   0.528700000     0.0151310   -0.0721853     0.0000097    0.0000176     0.0000089    0.0000188    -0.4746297   -0.7394347 
   0.548650000     0.0113335   -0.0720665     0.0000113    0.0000027     0.0000043    0.0000080    -0.5289032   -0.6909276 
   0.568600000     0.0066138   -0.0737326     0.0000181   -0.0000018     0.0000157    0.0000005    -0.5803922   -0.6408704 
   0.588550000     0.0036320   -0.0762356     0.0000155    0.0000122     0.0000172    0.0000035    -0.6243570   -0.5895715 
   0.608500000     0.0016101   -0.0769452     0.0000293    0.0000087     0.0000263    0.0000078    -0.6635969   -0.5326656 
   0.628450000    -0.0014777   -0.0760188     0.0000178   -0.0000024     0.0000118    0.0000021    -0.6979291   -0.4716398 
   0.648400000    -0.0064363   -0.0754773     0.0000098   -0.0000161     0.0000130   -0.0000079    -0.7293385   -0.4096220 
   0.668350000    -0.0111090   -0.0773390     0.0000073   -0.0000147     0.0000089   -0.0000174    -0.7541481   -0.3487109 
   0.688300000    -0.0137872   -0.0786020     0.0000082   -0.0000328    -0.0000018   -0.0000244    -0.7725717   -0.2856985 
   0.708250000    -0.0161543   -0.0782817    -0.0000149   -0.0000511    -0.0000134   -0.0000405    -0.7848680   -0.2196245 
   0.728200000    -0.0201983   -0.0768099    -0.0000121   -0.0000375    -0.0000148   -0.0000327    -0.7940404   -0.1530418 
   0.748150000    -0.0249301   -0.0766817     0.0000139   -0.0000103     0.0000234   -0.0000144    -0.7988807   -0.0887054 
   0.768100000    -0.0285212   -0.0773132     0.0000435   -0.0000090     0.0000455   -0.0000052    -0.7964766   -0.0267958 
   0.788050000    -0.0311880   -0.0767114     0.0000555   -0.0000174     0.0000484   -0.0000155    -0.7881379    0.0351843 
   0.808000000    -0.0350810   -0.0750255     0.0000508   -0.0000066     0.0000447   -0.0000180    -0.7760658    0.0975832 
   0.827950000    -0.0398500   -0.0741008     0.0000300   -0.0000008     0.0000335   -0.0000016    -0.7606038    0.1588451 
   0.847900000    -0.0436303   -0.0742711     0.0000091    0.0000199     0.0000096    0.0000299    -0.7399601    0.2161250 
   0.867850000    -0.0464169   -0.0739763     0.0000015    0.0000522    -0.0000004    0.0000520    -0.7133278    0.2706265 
   0.887800000    -0.0489460   -0.0717553     0.0000212    0.0000611     0.0000214    0.0000597    -0.6846983    0.3236070 
   0.907750000    -0.0532429   -0.0696082     0.0000455    0.0000520     0.0000423    0.0000469    -0.6530871    0.3746760 
   0.927700000    -0.0577390   -0.0686249     0.0000528    0.0000447     0.0000519    0.0000485    -0.6175528    0.4211053 
   0.947650000    -0.0608435   -0.0681887     0.0000527    0.0000324     0.0000476    0.0000421    -0.5772813    0.4636678 
   0.967600000    -0.0629080   -0.0661324     0.0000578    0.0000373     0.0000496    0.0000285    -0.5352568    0.5037266 
   0.987550000    -0.0663618   -0.0630824     0.0000459    0.0000269     0.0000475    0.0000220    -0.4916716    0.5411661 
   1.007500000    -0.0706064   -0.0613070     0.0000403    0.0000243     0.0000369    0.0000223    -0.4466048    0.5737697 
   1.027450000    -0.0738114   -0.0603829     0.0000029    0.0000148     0.0000128    0.0000075    -0.3971913    0.6012024 
   1.047400000    -0.0755137   -0.0586378    -0.0000111    0.0000001    -0.0000118   -0.0000012    -0.3456516    0.6262777 
   1.067350000    -0.0776406   -0.0552385    -0.0000118   -0.0000120    -0.0000051   -0.0000115    -0.2940521    0.6481040 
   1.087300000    -0.0813033   -0.0519389    -0.0000089   -0.0000080    -0.0000009   -0.0000070    -0.2428591    0.6660418 
   1.107250000    -0.0848196   -0.0499058    -0.0000116   -0.0000120     0.0000021   -0.0000029    -0.1902599    0.6768692 
   1.127200000    -0.0867404   -0.0480887    -0.0000063   -0.0000049    -0.0000121   -0.0000087    -0.1355714    0.6854472 
   1.147150000    -0.0880939   -0.0446091    -0.0000141   -0.0000058    -0.0000114   -0.0000069    -0.0802774    0.6909264 
   1.167100000    -0.0908235   -0.0403956    -0.0000250    0.0000166    -0.0000159    0.0000113    -0.0264255    0.6928878 
   1.187050000    -0.0945938   -0.0373561    -0.0000352    0.0000283    -0.0000311    0.0000376     0.0234613    0.6900567 
   1.207000000    -0.0970746   -0.0361273    -0.0000375    0.0000347    -0.0000396    0.0000321     0.0748243    0.6826347 
   1.226950000    -0.0977264   -0.0335903    -0.0000262    0.0000294    -0.0000357    0.0000240     0.1276734    0.6709089 
   1.246900000    -0.0986418   -0.0294354    -0.0000132    0.0000210    -0.0000111    0.0000215     0.1797794    0.6575804 
   1.266850000    -0.1008565   -0.0249297     0.0000157    0.0000080     0.0000133    0.0000187     0.2280377    0.6389693 
   1.286800000    -0.1030358   -0.0221602     0.0000424   -0.0000033     0.0000455   -0.0000015     0.2752695    0.6169488 
   1.306750000    -0.1040361   -0.0195810     0.0000691   -0.0000063     0.0000639   -0.0000186     0.3214462    0.5916954 
   1.326700000    -0.1041699   -0.0155233     0.0000821    0.0000002     0.0000919    0.0000023     0.3671639    0.5643408 
   1.346650000    -0.1053428   -0.0106793     0.0000864    0.0000151     0.0000962    0.0000143     0.4062950    0.5348704 
   1.366600000    -0.1078713   -0.0063225     0.0000730    0.0000243     0.0000716    0.0000145     0.4437673    0.5009719 
   1.386550000    -0.1095243   -0.0039538     0.0000618    0.0000205     0.0000587    0.0000160     0.4791058    0.4635328 
   1.406500000    -0.1095809   -0.0013359     0.0000526    0.0000143     0.0000478    0.0000051     0.5144235    0.4234340 
   1.426450000    -0.1095972    0.0028985     0.0000304    0.0000101     0.0000267    0.0000101     0.5448869    0.3834491 
   1.446400000    -0.1103066    0.0071198     0.0000092    0.0000049     0.0000067    0.0000077     0.5711764    0.3401281 
   1.466350000    -0.1109477    0.0106884    -0.0000054    0.0000076    -0.0000161    0.0000134     0.5938869    0.2952083 
   1.486300000    -0.1107935    0.0139372    -0.0000157    0.0000347    -0.0000095    0.0000311     0.6154462    0.2463424 
   1.506250000    -0.1101741    0.0181234    -0.0000189    0.0000406    -0.0000171    0.0000340     0.6329291    0.1978720 
   1.526200000    -0.1103569    0.0226323    -0.0000371    0.0000325    -0.0000333    0.0000378     0.6455857    0.1501644 
   1.546150000    -0.1109300    0.0261285    -0.0000407    0.0000167    -0.0000452    0.0000076     0.6551750    0.0988065 
   1.566100000    -0.1105695    0.0289053    -0.0000643   -0.0000014    -0.0000626   -0.0000009     0.6606986    0.0468774 
   1.586050000    -0.1093277    0.0324249    -0.0000932   -0.0000206    -0.0000796   -0.0000209     0.6627305   -0.0054842 
   1.606000000    -0.1084638    0.0367861    -0.0000880   -0.0000421    -0.0000764   -0.0000331     0.6598387   -0.0577854 
   1.625950000    -0.1081549    0.0405223    -0.0000643   -0.0000546    -0.0000633   -0.0000416     0.6536621   -0.1104879 
   1.645900000    -0.1076409    0.0430384    -0.0000259   -0.0000734    -0.0000314   -0.0000640     0.6442644   -0.1633194 
   1.665850000    -0.1057198    0.0458728    -0.0000035   -0.0000709    -0.0000054   -0.0000596     0.6309542   -0.2142308 
   1.685800000    -0.1035727    0.0499524     0.0000071   -0.0000401     0.0000166   -0.0000334     0.6124080   -0.2631032 
   1.705750000    -0.1021123    0.0542627     0.0000010   -0.0000287    -0.0000065   -0.0000152     0.5886896   -0.3120388 
   1.725700000    -0.1014425    0.0577752     0.0000131   -0.0000030     0.0000111   -0.0000133     0.5620701   -0.3613434 
   1.745650000    -0.0998771    0.0603644     0.0000364   -0.0000117     0.0000350   -0.0000102     0.5340528   -0.4081505 
   1.765600000    -0.0974996    0.0636473     0.0000454   -0.0000205     0.0000357   -0.0000038     0.5029846   -0.4495272 
   1.785550000    -0.0954307    0.0675280     0.0000388   -0.0000286     0.0000289   -0.0000102     0.4645602   -0.4875467 
   1.805500000    -0.0944836    0.0711248     0.0000233   -0.0000186     0.0000228   -0.0000267     0.4198095   -0.5255374 
   1.825450000    -0.0935052    0.0731709     0.0000169   -0.0000045     0.0000105   -0.0000115     0.3742752   -0.5634395 
   1.845400000    -0.0910898    0.0749003     0.0000150    0.0000242     0.0000110    0.0000161     0.3296680   -0.6005739 
   1.865350000    -0.0884119    0.0775784     0.0000106    0.0000276     0.0000139    0.0000323     0.2825859   -0.6278108 
   1.885300000    -0.0856811    0.0804310     0.0000093    0.0000128    -0.0000056    0.0000228     0.2302224   -0.6454580 
   1.905250000    -0.0835384    0.0825362    -0.0000385    0.0000219    -0.0000230    0.0000165     0.1763333   -0.6607494 
   1.925200000    -0.0808412    0.0846033    -0.0000629    0.0000475    -0.0000480    0.0000376     0.1183216   -0.6790563 
   1.945150000    -0.0781538    0.0869378    -0.0000435    0.0000799    -0.0000635    0.0000466     0.0595491   -0.6906224 
   1.965100000    -0.0753151    0.0891132    -0.0000500    0.0000428    -0.0000550    0.0000404     0.0030902   -0.6960568 
   1.985050000    -0.0727516    0.0913020    -0.0000357   -0.0000086    -0.0000423   -0.0000075    -0.0531601   -0.6985447 
   2.005000000    -0.0699561    0.0925156    -0.0000370   -0.0000466    -0.0000416   -0.0000323    -0.1130031   -0.6942790 
   2.024950000    -0.0670190    0.0937433    -0.0000373   -0.0000682    -0.0000261   -0.0000531    -0.1728696   -0.6865242 
   2.044900000    -0.0635831    0.0951791    -0.0000193   -0.0000798    -0.0000002   -0.0000769    -0.2326967   -0.6716921 
   2.064850000    -0.0603604    0.0965129     0.0000253   -0.0000752     0.0000350   -0.0000980    -0.2886785   -0.6540520 
   2.084800000    -0.0572251    0.0979867     0.0000476   -0.0000876     0.0000435   -0.0000911    -0.3446214   -0.6300039 
   2.104750000    -0.0537264    0.0991086     0.0000703   -0.0000848     0.0000486   -0.0000737    -0.3988172   -0.6022395 
   2.124700000    -0.0503664    0.1000474     0.0000400   -0.0000658     0.0000566   -0.0000546    -0.4515750   -0.5680552 
   2.144650000    -0.0469328    0.1009453     0.0000609   -0.0000439     0.0000612   -0.0000444    -0.5011624   -0.5303529 
   2.164600000    -0.0438941    0.1016753     0.0000568   -0.0000167     0.0000566   -0.0000224    -0.5458588   -0.4890691 
   2.184550000    -0.0407970    0.1017364     0.0000525   -0.0000004     0.0000585   -0.0000021    -0.5874926   -0.4454379 
   2.204500000    -0.0370637    0.1014327     0.0000311    0.0000187     0.0000087    0.0000248    -0.6260668   -0.3968920 
   2.224450000    -0.0329493    0.1020788     0.0000221    0.0000438    -0.0000176    0.0000390    -0.6610771   -0.3433431 
   2.244400000    -0.0293628    0.1026787     0.0000149    0.0000687    -0.0000265    0.0000540    -0.6910785   -0.2851104 
   2.264350000    -0.0264056    0.1028809    -0.0000113    0.0000848    -0.0000213    0.0000844    -0.7165328   -0.2284061 
   2.284300000    -0.0236335    0.1026032    -0.0000208    0.0000915    -0.0000243    0.0000878    -0.7362291   -0.1698172 
   2.304250000    -0.0202221    0.1019409    -0.0000005    0.0000797    -0.0000262    0.0000728    -0.7518433   -0.1085538 
   2.324200000    -0.0169393    0.1013838     0.0000080    0.0000558    -0.0000281    0.0000517    -0.7609795   -0.0444265 
   2.344150000    -0.0137586    0.1009300    -0.0000044    0.0000462    -0.0000428    0.0000202    -0.7662885    0.0180867 
   2.364100000    -0.0111551    0.0998924    -0.0000301    0.0000078    -0.0000326   -0.0000121    -0.7655011    0.0799659 
   2.384050000    -0.0082808    0.0984295    -0.0000177   -0.0000525    -0.0000455   -0.0000546    -0.7599043    0.1420363 
   2.404000000    -0.0044168    0.0965136    -0.0000109   -0.0000828    -0.0000306   -0.0001105    -0.7476324    0.2059743 
   2.423950000    -0.0004932    0.0959654     0.0000054   -0.0000909     0.0000027   -0.0001210    -0.7304936    0.2688782 
   2.443900000     0.0022074    0.0953927     0.0000026   -0.0000830     0.0000051   -0.0001254    -0.7093431    0.3296735 
   2.463850000     0.0041416    0.0941781     0.0000203   -0.0001052    -0.0000011   -0.0001315    -0.6846580    0.3866557 
   2.483800000     0.0058680    0.0915907     0.0000460   -0.0001082     0.0000115   -0.0001369    -0.6544214    0.4402351 
   2.503750000     0.0087160    0.0885492     0.0000547   -0.0000745     0.0000261   -0.0001034    -0.6181054    0.4924616 
   2.523700000     0.0126635    0.0865369     0.0000257   -0.0000228     0.0000247   -0.0000569    -0.5761401    0.5433617 
   2.543650000     0.0156466    0.0850969     0.0000094    0.0000149     0.0000142   -0.0000130    -0.5329869    0.5908913 
   2.563600000     0.0175341    0.0831529     0.0000300    0.0000456     0.0000265    0.0000073    -0.4870677    0.6331218 
   2.583550000     0.0195181    0.0802070     0.0000385    0.0001049     0.0000511    0.0000318    -0.4379680    0.6709784 
   2.603500000     0.0222741    0.0772213     0.0000605    0.0001091     0.0000681    0.0000640    -0.3831183    0.7050056 
   2.623450000     0.0249056    0.0749765     0.0000465    0.0000927     0.0000570    0.0000760    -0.3260880    0.7359043 
   2.643400000     0.0267964    0.0730456     0.0000354    0.0000769     0.0000553    0.0000677    -0.2684494    0.7612586 
   2.663350000     0.0281204    0.0703455     0.0000121    0.0000944     0.0000303    0.0000447    -0.2115961    0.7824558 
   2.683300000     0.0298672    0.0670740    -0.0000316    0.0000776     0.0000069    0.0000269    -0.1512158    0.7973157 
   2.703250000     0.0317280    0.0637985    -0.0000614    0.0000443    -0.0000311    0.0000284    -0.0880011    0.8079001 
   2.723200000     0.0333992    0.0609973    -0.0000734   -0.0000100    -0.0000708   -0.0000105    -0.0235280    0.8135185 
   2.743150000     0.0345533    0.0581528    -0.0001004   -0.0000408    -0.0000938   -0.0000423     0.0381767    0.8168219 
   2.763100000     0.0354963    0.0547329    -0.0001423   -0.0000591    -0.0001065   -0.0000601     0.1000391    0.8124229 
   2.783050000     0.0364183    0.0515278    -0.0001660   -0.0000813    -0.0001016   -0.0000779     0.1614076    0.8036185 
   2.803000000     0.0372813    0.0483157    -0.0001304   -0.0000847    -0.0001042   -0.0000649     0.2234598    0.7889426 
   2.822950000     0.0375131    0.0443017    -0.0000984   -0.0000993    -0.0000895   -0.0000672     0.2832202    0.7722672 
   2.842900000     0.0384070    0.0401723    -0.0000948   -0.0000885    -0.0000699   -0.0000657     0.3413363    0.7488654 
   2.862850000     0.0400915    0.0368941    -0.0000616   -0.0000844    -0.0000319   -0.0000503     0.3979398    0.7208596 
   2.882800000     0.0409789    0.0346306     0.0000115   -0.0000462     0.0000047   -0.0000367     0.4535523    0.6877425 
   2.902750000     0.0397707    0.0322707     0.0000416   -0.0000173     0.0000517   -0.0000161     0.5050619    0.6542699 
   2.922700000     0.0382473    0.0280207     0.0000629   -0.0000018     0.0000696    0.0000144     0.5536134    0.6147208 
   2.942650000     0.0382925    0.0225903     0.0000744   -0.0000031     0.0000664    0.0000265     0.5973716    0.5714778 
   2.962600000     0.0397432    0.0191998     0.0000968   -0.0000021     0.0000745    0.0000095     0.6398124    0.5225222 
   2.982550000     0.0397264    0.0179907     0.0001283    0.0000035     0.0001047    0.0000103     0.6783177    0.4741283 
   3.002500000     0.0364926    0.0159435     0.0001367    0.0000185     0.0001122    0.0000281     0.7130243    0.4200320 
   3.022450000     0.0330132    0.0104316     0.0001003    0.0000419     0.0000728    0.0000513     0.7424010    0.3644165 
   3.042400000     0.0327908    0.0041300     0.0000358    0.0000459     0.0000347    0.0000534     0.7690650    0.3048309 
   3.062350000     0.0342524    0.0004361    -0.0000018    0.0000260    -0.0000117    0.0000294     0.7909992    0.2484386 
   3.082300000     0.0338397   -0.0005663    -0.0000401    0.0000363    -0.0000427    0.0000261     0.8070508    0.1885261 
   3.102250000     0.0304974   -0.0027332    -0.0000870    0.0000468    -0.0000925    0.0000261     0.8172358    0.1255993 
   3.122200000     0.0271519   -0.0072994    -0.0001186    0.0000242    -0.0001330    0.0000242     0.8230119    0.0595039 
   3.142150000     0.0262530   -0.0118984    -0.0001388    0.0000020    -0.0001252   -0.0000014     0.8271219   -0.0040464 
