! 9/28/2016 2:53:32 PM
! C:\USERS\ANRITSUUSER\DESKTOP\SWITCHES\EVAL_PE42441-RF3-RF1-STATE-00-00.S2P
! CHANNEL.1
! TR.MEASUREMENT
! CORRECTED.DATA
# GHZ S RI R 50.0
! FREQ.GHZ         S11RE         S11IM         S21RE         S21IM         S12RE         S12IM         S22RE         S22IM         
!; PortSelection: Port_12
   0.010000000     0.1588919    0.0916966     0.0000465    0.0000287     0.0000404    0.0000044     0.9792123   -0.0549959 
   0.029950000     0.3237194    0.0409288     0.0000334   -0.0001377     0.0000352   -0.0001283     0.9722385   -0.1222834 
   0.049900000     0.2641253   -0.1388954    -0.0001264   -0.0001884    -0.0001218   -0.0001934     0.9586654   -0.2006893 
   0.069850000     0.3249807   -0.0970375    -0.0000919   -0.0002479    -0.0000960   -0.0002436     0.9384468   -0.2772406 
   0.089800000     0.2478575   -0.1808582    -0.0001840   -0.0001987    -0.0001792   -0.0001963     0.9119118   -0.3489728 
   0.109750000     0.2399983   -0.1228840    -0.0003193   -0.0008151    -0.0003108   -0.0008035     0.8793615   -0.4196452 
   0.129700000     0.1999688   -0.2122425    -0.0006480   -0.0000643    -0.0006393   -0.0000633     0.8410284   -0.4897516 
   0.149650000     0.1451935   -0.2260014    -0.0005358    0.0000583    -0.0005243    0.0000486     0.7968316   -0.5563751 
   0.169600000     0.1061931   -0.2216557    -0.0003645    0.0001862    -0.0003566    0.0001839     0.7487136   -0.6157621 
   0.189550000     0.0728483   -0.2109873    -0.0002204    0.0002071    -0.0002141    0.0002058     0.6946648   -0.6700674 
   0.209500000     0.0476962   -0.1930820     0.0000919    0.0001301     0.0000902    0.0001319     0.6363364   -0.7218563 
   0.229450000     0.0726068   -0.1809466    -0.0003442   -0.0011851    -0.0003480   -0.0011855     0.5743812   -0.7689618 
   0.249400000     0.0248803   -0.2063304    -0.0007793    0.0001770    -0.0007608    0.0001787     0.5103813   -0.8101625 
   0.269350000     0.0012707   -0.1875381    -0.0004302    0.0003120    -0.0004241    0.0003082     0.4407617   -0.8435938 
   0.289300000    -0.0138256   -0.1743713    -0.0002049    0.0003455    -0.0002148    0.0003477     0.3673310   -0.8728864 
   0.309250000    -0.0265614   -0.1609870    -0.0000406    0.0002842    -0.0000446    0.0002769     0.2935240   -0.8955776 
   0.329200000    -0.0350132   -0.1492076    -0.0000268    0.0002280    -0.0000242    0.0002302     0.2217450   -0.9137389 
   0.349150000    -0.0401770   -0.1348490     0.0000492    0.0002202     0.0000571    0.0002163     0.1482653   -0.9227263 
   0.369100000    -0.0437333   -0.1207988     0.0001472    0.0001297     0.0001362    0.0001331     0.0710539   -0.9253860 
   0.389050000    -0.0440423   -0.1085675     0.0000778    0.0001102     0.0000868    0.0001112    -0.0057419   -0.9209624 
   0.409000000    -0.0369609   -0.1000309     0.0001566    0.0000134     0.0001588    0.0000074    -0.0798399   -0.9140505 
   0.428950000    -0.0208270   -0.0999926     0.0000100   -0.0002464     0.0000060   -0.0002438    -0.1500666   -0.8995869 
   0.448900000    -0.0129065   -0.1271812    -0.0006450   -0.0002696    -0.0006218   -0.0002706    -0.2216037   -0.8777875 
   0.468850000    -0.0621756   -0.1434377    -0.0007031    0.0006614    -0.0007114    0.0006474    -0.2907965   -0.8488455 
   0.488800000    -0.0914408   -0.1135877    -0.0000346    0.0007093    -0.0000234    0.0007187    -0.3566068   -0.8176662 
   0.508750000    -0.0866914   -0.0851562     0.0000325    0.0000439     0.0000371    0.0000407    -0.4165828   -0.7818896 
   0.528700000    -0.0772839   -0.0804547    -0.0002089    0.0002202    -0.0001961    0.0002130    -0.4749726   -0.7396867 
   0.548650000    -0.0784310   -0.0702444    -0.0004679   -0.0000615    -0.0004525   -0.0000710    -0.5293746   -0.6911150 
   0.568600000    -0.0878604   -0.0612547    -0.0003837    0.0003060    -0.0003923    0.0003031    -0.5809070   -0.6407505 
   0.588550000    -0.0872228   -0.0512061    -0.0000807    0.0004528    -0.0000629    0.0004612    -0.6248583   -0.5893020 
   0.608500000    -0.0810484   -0.0406032     0.0001524    0.0001456     0.0001599    0.0001386    -0.6641403   -0.5325472 
   0.628450000    -0.0769730   -0.0306897     0.0000290   -0.0002471     0.0000347   -0.0002426    -0.6985339   -0.4714899 
   0.648400000    -0.0727615   -0.0226832    -0.0002266   -0.0002977    -0.0002161   -0.0003082    -0.7300497   -0.4092852 
   0.668350000    -0.0669179   -0.0176892    -0.0002705   -0.0003096    -0.0002676   -0.0003090    -0.7549742   -0.3482105 
   0.688300000    -0.0616360   -0.0156776    -0.0003285   -0.0003623    -0.0003340   -0.0003522    -0.7733680   -0.2850294 
   0.708250000    -0.0539262   -0.0112416    -0.0003214   -0.0003733    -0.0003057   -0.0003515    -0.7855632   -0.2192356 
   0.728200000    -0.0484416   -0.0079190    -0.0004248   -0.0003423    -0.0004010   -0.0003437    -0.7947638   -0.1529001 
   0.748150000    -0.0437004   -0.0070370    -0.0003933   -0.0002243    -0.0003848   -0.0002328    -0.7992421   -0.0881615 
   0.768100000    -0.0378915   -0.0080220    -0.0003533   -0.0001724    -0.0003536   -0.0001733    -0.7968237   -0.0257797 
   0.788050000    -0.0322944   -0.0090145    -0.0003775   -0.0001412    -0.0003745   -0.0001366    -0.7885770    0.0363001 
   0.808000000    -0.0282063   -0.0092808    -0.0004166   -0.0000975    -0.0004034   -0.0000914    -0.7765698    0.0984649 
   0.827950000    -0.0251954   -0.0115536    -0.0005347    0.0000311    -0.0005109    0.0000088    -0.7611178    0.1593276 
   0.847900000    -0.0225340   -0.0159684    -0.0005889    0.0002272    -0.0005917    0.0002085    -0.7403234    0.2168553 
   0.867850000    -0.0190873   -0.0201287    -0.0005218    0.0004409    -0.0005389    0.0004377    -0.7134060    0.2717538 
   0.887800000    -0.0164489   -0.0226502    -0.0003380    0.0005356    -0.0003295    0.0005313    -0.6845416    0.3248538 
   0.907750000    -0.0159475   -0.0257377    -0.0002850    0.0004609    -0.0002819    0.0004402    -0.6529906    0.3757642 
   0.927700000    -0.0169332   -0.0303202    -0.0003073    0.0004573    -0.0003157    0.0004451    -0.6175832    0.4222076 
   0.947650000    -0.0174268   -0.0353057    -0.0003575    0.0004789    -0.0003722    0.0004812    -0.5771362    0.4648071 
   0.967600000    -0.0175578   -0.0390051    -0.0003742    0.0005742    -0.0003962    0.0005675    -0.5348102    0.5051842 
   0.987550000    -0.0196962   -0.0416711    -0.0003374    0.0006523    -0.0003310    0.0006502    -0.4910949    0.5426613 
   1.007500000    -0.0232820   -0.0450048    -0.0002434    0.0006891    -0.0002366    0.0006735    -0.4461505    0.5752397 
   1.027450000    -0.0266950   -0.0492559    -0.0001458    0.0006613    -0.0001705    0.0006466    -0.3969779    0.6023783 
   1.047400000    -0.0288730   -0.0522489    -0.0000760    0.0006099    -0.0001018    0.0006161    -0.3452001    0.6273386 
   1.067350000    -0.0320318   -0.0535255    -0.0000049    0.0005612    -0.0000027    0.0005836    -0.2929629    0.6492985 
   1.087300000    -0.0369939   -0.0540828     0.0000512    0.0005495     0.0000655    0.0005540    -0.2416117    0.6671808 
   1.107250000    -0.0421104   -0.0554886     0.0001312    0.0005449     0.0001238    0.0005302    -0.1893079    0.6780287 
   1.127200000    -0.0460105   -0.0569155     0.0002149    0.0005040     0.0001820    0.0005118    -0.1348176    0.6865294 
   1.147150000    -0.0494529   -0.0559851     0.0002662    0.0004608     0.0002467    0.0004969    -0.0793664    0.6918488 
   1.167100000    -0.0541157   -0.0540785     0.0002940    0.0004490     0.0003179    0.0004636    -0.0252071    0.6935787 
   1.187050000    -0.0599201   -0.0530278     0.0003548    0.0004475     0.0003729    0.0004358     0.0248736    0.6906361 
   1.207000000    -0.0642922   -0.0530018     0.0004582    0.0003920     0.0004315    0.0003886     0.0759854    0.6833815 
   1.226950000    -0.0669337   -0.0514999     0.0005241    0.0003082     0.0005278    0.0003373     0.1286189    0.6716693 
   1.246900000    -0.0695831   -0.0479928     0.0005722    0.0002348     0.0006101    0.0002602     0.1811406    0.6579792 
   1.266850000    -0.0734564   -0.0442169     0.0006342    0.0001764     0.0006649    0.0001490     0.2299429    0.6391189 
   1.286800000    -0.0768365   -0.0420808     0.0007152    0.0000643     0.0006956    0.0000461     0.2773228    0.6172206 
   1.306750000    -0.0786950   -0.0396965     0.0006842   -0.0000703     0.0006789   -0.0000639     0.3229901    0.5922905 
   1.326700000    -0.0793358   -0.0357414     0.0006363   -0.0001478     0.0006620   -0.0001429     0.3682052    0.5648442 
   1.346650000    -0.0809357   -0.0310042     0.0006048   -0.0002016     0.0006203   -0.0002334     0.4073873    0.5348652 
   1.366600000    -0.0838248   -0.0271462     0.0006023   -0.0003181     0.0005682   -0.0003492     0.4453090    0.5002040 
   1.386550000    -0.0853758   -0.0253488     0.0005415   -0.0004681     0.0005195   -0.0004626     0.4808877    0.4627924 
   1.406500000    -0.0852159   -0.0235942     0.0004524   -0.0005552     0.0004676   -0.0005478     0.5163400    0.4229640 
   1.426450000    -0.0848143   -0.0203577     0.0004178   -0.0005961     0.0004249   -0.0006280     0.5465354    0.3832096 
   1.446400000    -0.0847785   -0.0175641     0.0004085   -0.0006874     0.0003750   -0.0007200     0.5727272    0.3396647 
   1.466350000    -0.0851858   -0.0153712     0.0003724   -0.0008221     0.0003090   -0.0008169     0.5954285    0.2941375 
   1.486300000    -0.0845679   -0.0144256     0.0002419   -0.0009341     0.0002184   -0.0008946     0.6170038    0.2452602 
   1.506250000    -0.0837466   -0.0125487     0.0000968   -0.0009506     0.0001010   -0.0009519     0.6343052    0.1971518 
   1.526200000    -0.0837952   -0.0110904     0.0000316   -0.0009424    -0.0000163   -0.0009782     0.6469665    0.1490809 
   1.546150000    -0.0848336   -0.0098267     0.0000027   -0.0009995    -0.0000849   -0.0009762     0.6560384    0.0975512 
   1.566100000    -0.0851738   -0.0099599    -0.0000845   -0.0010621    -0.0001344   -0.0009802     0.6615087    0.0448012 
   1.586050000    -0.0852585   -0.0094853    -0.0002170   -0.0010537    -0.0001789   -0.0009917     0.6638383   -0.0076794 
   1.606000000    -0.0860842   -0.0083841    -0.0003026   -0.0009779    -0.0002946   -0.0009949     0.6612317   -0.0593984 
   1.625950000    -0.0877203   -0.0080271    -0.0003309   -0.0009777    -0.0004283   -0.0009622     0.6547924   -0.1115538 
   1.645900000    -0.0893857   -0.0083728    -0.0004970   -0.0010481    -0.0005679   -0.0008923     0.6447759   -0.1644873 
   1.665850000    -0.0901061   -0.0087152    -0.0008254   -0.0009124    -0.0006996   -0.0007876     0.6308326   -0.2158600 
   1.685800000    -0.0913014   -0.0073830    -0.0009670   -0.0006185    -0.0008589   -0.0006571     0.6122896   -0.2652816 
   1.705750000    -0.0938267   -0.0055605    -0.0009371   -0.0005072    -0.0010225   -0.0005577     0.5888801   -0.3142614 
   1.725700000    -0.0969885   -0.0043897    -0.0010699   -0.0006599    -0.0011772   -0.0004684     0.5621604   -0.3634206 
   1.745650000    -0.0999041   -0.0036790    -0.0016176   -0.0006337    -0.0013446   -0.0003648     0.5337546   -0.4104009 
   1.765600000    -0.1021629   -0.0017690    -0.0018576    0.0000104    -0.0015072   -0.0001996     0.5026945   -0.4520244 
   1.785550000    -0.1052220    0.0013741    -0.0015369    0.0002733    -0.0016329    0.0000061     0.4647190   -0.4902175 
   1.805500000    -0.1095186    0.0043936    -0.0014134    0.0000171    -0.0016874    0.0001632     0.4200972   -0.5277181 
   1.825450000    -0.1137076    0.0067064    -0.0020017   -0.0002132    -0.0017016    0.0002649     0.3739794   -0.5650225 
   1.845400000    -0.1168471    0.0091213    -0.0024204    0.0007653    -0.0017420    0.0003269     0.3281751   -0.6026063 
   1.865350000    -0.1191374    0.0131886    -0.0016617    0.0010961    -0.0018484    0.0005005     0.2795564   -0.6318845 
   1.885300000    -0.1216965    0.0178962    -0.0013379    0.0006538    -0.0018438    0.0007365     0.2264647   -0.6500407 
   1.905250000    -0.1245068    0.0230666    -0.0018960    0.0003017    -0.0017002    0.0009222     0.1738613   -0.6645146 
   1.925200000    -0.1268680    0.0280772    -0.0022548    0.0015449    -0.0015306    0.0010736     0.1168276   -0.6811740 
   1.945150000    -0.1280967    0.0339821    -0.0010551    0.0018017    -0.0013556    0.0012049     0.0573544   -0.6907709 
   1.965100000    -0.1291195    0.0406787    -0.0007736    0.0012801    -0.0012216    0.0013447    -0.0004733   -0.6957204 
   1.985050000    -0.1296220    0.0472500    -0.0011622    0.0010908    -0.0011139    0.0014922    -0.0573562   -0.6984237 
   2.005000000    -0.1301049    0.0541077    -0.0014658    0.0019279    -0.0009686    0.0016980    -0.1169866   -0.6952553 
   2.024950000    -0.1291207    0.0603123    -0.0005133    0.0024796    -0.0007782    0.0018980    -0.1764452   -0.6873680 
   2.044900000    -0.1273823    0.0672961    -0.0000052    0.0020598    -0.0005350    0.0020423    -0.2362574   -0.6716586 
   2.064850000    -0.1246728    0.0743349    -0.0001674    0.0018403    -0.0003348    0.0021604    -0.2928641   -0.6529357 
   2.084800000    -0.1217381    0.0815227    -0.0004191    0.0022285    -0.0001337    0.0022965    -0.3492787   -0.6289328 
   2.104750000    -0.1177373    0.0881943     0.0001028    0.0028924     0.0000755    0.0024513    -0.4031076   -0.6018770 
   2.124700000    -0.1131511    0.0945002     0.0009058    0.0026552     0.0003340    0.0025147    -0.4553520   -0.5673813 
   2.144650000    -0.1077920    0.1007208     0.0009642    0.0021873     0.0005489    0.0025172    -0.5047349   -0.5286341 
   2.164600000    -0.1022883    0.1056590     0.0007314    0.0021618     0.0007488    0.0025478    -0.5499124   -0.4856944 
   2.184550000    -0.0961088    0.1099336     0.0008101    0.0025743     0.0010206    0.0025572    -0.5921568   -0.4420393 
   2.204500000    -0.0888368    0.1133669     0.0015899    0.0026360     0.0013202    0.0024451    -0.6306750   -0.3940991 
   2.224450000    -0.0808839    0.1168505     0.0019739    0.0019121     0.0015105    0.0022001    -0.6647661   -0.3405831 
   2.244400000    -0.0735503    0.1197235     0.0017278    0.0014959     0.0016744    0.0020053    -0.6941772   -0.2812370 
   2.264350000    -0.0661236    0.1213592     0.0015645    0.0016015     0.0019077    0.0018668    -0.7194688   -0.2229452 
   2.284300000    -0.0588322    0.1217253     0.0019951    0.0018136     0.0021973    0.0016585    -0.7394809   -0.1641452 
   2.304250000    -0.0511151    0.1210954     0.0026588    0.0013405     0.0024224    0.0013592    -0.7551431   -0.1036893 
   2.324200000    -0.0433685    0.1198959     0.0026339    0.0006631     0.0026221    0.0010698    -0.7633495   -0.0400106 
   2.344150000    -0.0364241    0.1181420     0.0023929    0.0005623     0.0028180    0.0008090    -0.7675608    0.0229378 
   2.364100000    -0.0301585    0.1149952     0.0025277    0.0006728     0.0029640    0.0005150    -0.7660367    0.0864267 
   2.384050000    -0.0241680    0.1106370     0.0030445    0.0004850     0.0030864    0.0002145    -0.7607338    0.1491251 
   2.404000000    -0.0178285    0.1056694     0.0032298   -0.0001235     0.0031461   -0.0000692    -0.7490037    0.2122293 
   2.423950000    -0.0122111    0.1015220     0.0029444   -0.0004626     0.0032118   -0.0003203    -0.7313055    0.2740996 
   2.443900000    -0.0083938    0.0967512     0.0027517   -0.0004282     0.0032192   -0.0005789    -0.7086028    0.3347134 
   2.463850000    -0.0061911    0.0911465     0.0029063   -0.0004336     0.0031667   -0.0008574    -0.6828288    0.3924318 
   2.483800000    -0.0048023    0.0840789     0.0032334   -0.0007879     0.0031125   -0.0011589    -0.6523814    0.4469946 
   2.503750000    -0.0030795    0.0767572     0.0031324   -0.0014156     0.0030172   -0.0014824    -0.6167185    0.4988644 
   2.523700000    -0.0012987    0.0708443     0.0026040   -0.0016971     0.0028094   -0.0017954    -0.5747657    0.5486879 
   2.543650000    -0.0012890    0.0659469     0.0023415   -0.0016044     0.0025679   -0.0020667    -0.5303127    0.5952001 
   2.563600000    -0.0035026    0.0606898     0.0025572   -0.0017021     0.0023427   -0.0023196    -0.4828865    0.6377320 
   2.583550000    -0.0062648    0.0548687     0.0026802   -0.0023875     0.0021268   -0.0025845    -0.4334608    0.6762758 
   2.603500000    -0.0087618    0.0493645     0.0019589   -0.0030416     0.0018228   -0.0028424    -0.3794294    0.7103560 
   2.623450000    -0.0116509    0.0457831     0.0013398   -0.0028708     0.0014761   -0.0030539    -0.3229510    0.7402425 
   2.643400000    -0.0160993    0.0435725     0.0014347   -0.0027289     0.0011321   -0.0032459    -0.2646683    0.7642264 
   2.663350000    -0.0212874    0.0412788     0.0015945   -0.0032652     0.0008260   -0.0033738    -0.2063624    0.7850626 
   2.683300000    -0.0269864    0.0395031     0.0008762   -0.0039739     0.0005043   -0.0034942    -0.1450465    0.8003839 
   2.703250000    -0.0318913    0.0386602     0.0000549   -0.0036914     0.0001759   -0.0035294    -0.0822083    0.8115541 
   2.723200000    -0.0370789    0.0394297     0.0001076   -0.0033452    -0.0000963   -0.0035325    -0.0186131    0.8168266 
   2.743150000    -0.0424111    0.0411891     0.0002914   -0.0036637    -0.0003473   -0.0035354     0.0427791    0.8186412 
   2.763100000    -0.0476114    0.0435509    -0.0003131   -0.0041585    -0.0006186   -0.0034976     0.1051343    0.8131872 
   2.783050000    -0.0523049    0.0467332    -0.0011216   -0.0038421    -0.0009382   -0.0034041     0.1672855    0.8041750 
   2.803000000    -0.0563744    0.0507846    -0.0012290   -0.0034141    -0.0012371   -0.0032606     0.2295021    0.7898940 
   2.822950000    -0.0600891    0.0555631    -0.0013127   -0.0034973    -0.0015278   -0.0031394     0.2886067    0.7731094 
   2.842900000    -0.0622899    0.0604323    -0.0019469   -0.0035805    -0.0018549   -0.0030031     0.3467576    0.7482358 
   2.862850000    -0.0625390    0.0670142    -0.0024855   -0.0031472    -0.0021803   -0.0027782     0.4033913    0.7194300 
   2.882800000    -0.0624780    0.0751484    -0.0025439   -0.0028210    -0.0024223   -0.0025504     0.4592567    0.6862260 
   2.902750000    -0.0634268    0.0833462    -0.0028721   -0.0028109    -0.0026170   -0.0023549     0.5105909    0.6531930 
   2.922700000    -0.0636351    0.0897494    -0.0034931   -0.0024234    -0.0029324   -0.0021374     0.5584952    0.6134384 
   2.942650000    -0.0607360    0.0950571    -0.0036466   -0.0017785    -0.0032299   -0.0018089     0.6015732    0.5690623 
   2.962600000    -0.0548365    0.1020426    -0.0035937   -0.0016130    -0.0033609   -0.0014843     0.6438510    0.5191006 
   2.982550000    -0.0493414    0.1109383    -0.0039943   -0.0015098    -0.0034512   -0.0012207     0.6826869    0.4703411 
   3.002500000    -0.0457383    0.1182334    -0.0043923   -0.0007362    -0.0036111   -0.0009426     0.7177694    0.4163957 
   3.022450000    -0.0411869    0.1219610    -0.0040279   -0.0000519    -0.0037386   -0.0005656     0.7465343    0.3607827 
   3.042400000    -0.0323351    0.1238960    -0.0037780   -0.0000766    -0.0037204   -0.0002103     0.7722261    0.3003277 
   3.062350000    -0.0207936    0.1275094    -0.0041389    0.0000107    -0.0036607    0.0000298     0.7938060    0.2434416 
   3.082300000    -0.0102829    0.1324947    -0.0042678    0.0008963    -0.0036415    0.0003179     0.8098902    0.1833623 
   3.102250000    -0.0022634    0.1349397    -0.0035238    0.0014692    -0.0035779    0.0007184     0.8203276    0.1205404 
   3.122200000     0.0063802    0.1339794    -0.0031621    0.0013221    -0.0033816    0.0011004     0.8254297    0.0540777 
   3.142150000     0.0179392    0.1312719    -0.0034106    0.0014877    -0.0032026    0.0013756     0.8284871   -0.0102221 
