! 9/28/2016 2:31:38 PM
! C:\USERS\ANRITSUUSER\DESKTOP\SWITCHES\EVAL_PE42441-RF1-ON.S2P
! CHANNEL.1
! TR.MEASUREMENT
! CORRECTED.DATA
# GHZ S RI R 50.0
! FREQ.GHZ         S11RE         S11IM         S21RE         S21IM         S12RE         S12IM         S22RE         S22IM         
!; PortSelection: Port_12
   0.010000000     0.0743691   -0.0034908     0.9177483   -0.0188642     0.9159081   -0.0288585     0.0757887   -0.0057685 
   0.029950000     0.0734287   -0.0043676     0.9150756   -0.0454132     0.9130369   -0.0432015     0.0743401   -0.0043885 
   0.049900000     0.0735886   -0.0082600     0.9125463   -0.0713833     0.9107284   -0.0691743     0.0746169   -0.0082342 
   0.069850000     0.0738147   -0.0116661     0.9095218   -0.0973174     0.9075916   -0.0949666     0.0759051   -0.0122394 
   0.089800000     0.0733077   -0.0140253     0.9055355   -0.1226000     0.9037546   -0.1201411     0.0762733   -0.0150083 
   0.109750000     0.0725599   -0.0170374     0.9011150   -0.1475721     0.8997657   -0.1452068     0.0750841   -0.0177822 
   0.129700000     0.0724597   -0.0215873     0.8966430   -0.1726792     0.8947815   -0.1699773     0.0733980   -0.0221186 
   0.149650000     0.0727170   -0.0269700     0.8907221   -0.1979746     0.8888240   -0.1953178     0.0727019   -0.0271679 
   0.169600000     0.0715584   -0.0306904     0.8840467   -0.2224145     0.8824590   -0.2196898     0.0725403   -0.0316077 
   0.189550000     0.0683943   -0.0332773     0.8767364   -0.2463740     0.8752372   -0.2440016     0.0715931   -0.0353556 
   0.209500000     0.0653295   -0.0361615     0.8693196   -0.2703381     0.8681190   -0.2678863     0.0704462   -0.0393817 
   0.229450000     0.0644113   -0.0398779     0.8609899   -0.2941792     0.8597724   -0.2920276     0.0695809   -0.0437927 
   0.249400000     0.0646356   -0.0436149     0.8524124   -0.3181579     0.8511223   -0.3155673     0.0683656   -0.0471658 
   0.269350000     0.0632987   -0.0466498     0.8420584   -0.3415357     0.8409126   -0.3386905     0.0656455   -0.0492060 
   0.289300000     0.0597768   -0.0498970     0.8317159   -0.3647208     0.8306807   -0.3614308     0.0622312   -0.0524759 
   0.309250000     0.0567454   -0.0537255     0.8207259   -0.3863643     0.8198233   -0.3835483     0.0599390   -0.0573969 
   0.329200000     0.0552496   -0.0568812     0.8102251   -0.4089568     0.8090858   -0.4059154     0.0590783   -0.0620684 
   0.349150000     0.0538820   -0.0585564     0.7984490   -0.4312044     0.7973046   -0.4281729     0.0574924   -0.0642312 
   0.369100000     0.0503318   -0.0607666     0.7847841   -0.4540055     0.7844713   -0.4504136     0.0535346   -0.0656749 
   0.389050000     0.0461466   -0.0638335     0.7706805   -0.4737046     0.7702827   -0.4708299     0.0489894   -0.0689213 
   0.409000000     0.0437576   -0.0670349     0.7578415   -0.4934598     0.7571210   -0.4908037     0.0466425   -0.0733279 
   0.428950000     0.0424411   -0.0682342     0.7457712   -0.5140248     0.7443560   -0.5110295     0.0457362   -0.0762594 
   0.448900000     0.0395706   -0.0687251     0.7304018   -0.5371495     0.7296513   -0.5329258     0.0433743   -0.0773381 
   0.468850000     0.0341495   -0.0706882     0.7123406   -0.5565371     0.7128125   -0.5523739     0.0380785   -0.0792225 
   0.488800000     0.0291662   -0.0745064     0.6951337   -0.5733708     0.6961908   -0.5703554     0.0329117   -0.0820800 
   0.508750000     0.0269244   -0.0775763     0.6821645   -0.5898792     0.6815635   -0.5874075     0.0298310   -0.0851852 
   0.528700000     0.0252554   -0.0777105     0.6672263   -0.6113656     0.6659068   -0.6077938     0.0277534   -0.0863137 
   0.548650000     0.0216292   -0.0773900     0.6480460   -0.6316563     0.6479748   -0.6269208     0.0238980   -0.0871113 
   0.568600000     0.0160118   -0.0790092     0.6263820   -0.6476668     0.6275881   -0.6436502     0.0178559   -0.0890550 
   0.588550000     0.0118320   -0.0809892     0.6095854   -0.6600192     0.6102414   -0.6573716     0.0134282   -0.0912309 
   0.608500000     0.0083311   -0.0814999     0.5941612   -0.6765891     0.5935767   -0.6733080     0.0098825   -0.0922721 
   0.628450000     0.0040074   -0.0800900     0.5764532   -0.6962193     0.5760289   -0.6915781     0.0055947   -0.0920204 
   0.648400000    -0.0011549   -0.0796432     0.5525666   -0.7132288     0.5536402   -0.7085512     0.0000746   -0.0939021 
   0.668350000    -0.0058268   -0.0810107     0.5308880   -0.7252241     0.5328913   -0.7213030    -0.0048593   -0.0961388 
   0.688300000    -0.0086555   -0.0816232     0.5121697   -0.7360177     0.5133832   -0.7334458    -0.0077236   -0.0969849 
   0.708250000    -0.0120412   -0.0808003     0.4955229   -0.7512320     0.4957588   -0.7480333    -0.0112126   -0.0954163 
   0.728200000    -0.0171833   -0.0794309     0.4730954   -0.7674282     0.4735438   -0.7631457    -0.0168298   -0.0934451 
   0.748150000    -0.0232794   -0.0786716     0.4482606   -0.7808831     0.4505351   -0.7757849    -0.0238162   -0.0942330 
   0.768100000    -0.0270274   -0.0775417     0.4242868   -0.7884294     0.4280279   -0.7851767    -0.0289969   -0.0956134 
   0.788050000    -0.0293786   -0.0754501     0.4055595   -0.7971171     0.4081379   -0.7959307    -0.0318479   -0.0956492 
   0.808000000    -0.0334287   -0.0726466     0.3862924   -0.8091547     0.3862209   -0.8073648    -0.0352051   -0.0942486 
   0.827950000    -0.0388807   -0.0714850     0.3629248   -0.8232808     0.3632832   -0.8188208    -0.0403993   -0.0924566 
   0.847900000    -0.0434508   -0.0714565     0.3364254   -0.8322324     0.3394288   -0.8271551    -0.0450313   -0.0915391 
   0.867850000    -0.0457788   -0.0703216     0.3121037   -0.8383937     0.3168887   -0.8356136    -0.0489105   -0.0901732 
   0.887800000    -0.0480282   -0.0666356     0.2913913   -0.8438413     0.2931277   -0.8431883    -0.0526984   -0.0876426 
   0.907750000    -0.0519237   -0.0631469     0.2695874   -0.8531452     0.2697459   -0.8506843    -0.0577103   -0.0850728 
   0.927700000    -0.0565011   -0.0613603     0.2451648   -0.8618513     0.2470147   -0.8563502    -0.0624380   -0.0834116 
   0.947650000    -0.0593723   -0.0600529     0.2187185   -0.8679762     0.2237000   -0.8645911    -0.0658268   -0.0821540 
   0.967600000    -0.0611430   -0.0566945     0.1941877   -0.8711947     0.1979927   -0.8703619    -0.0686066   -0.0794614 
   0.987550000    -0.0642560   -0.0517450     0.1708925   -0.8742782     0.1716334   -0.8733113    -0.0725659   -0.0751873 
   1.007500000    -0.0683215   -0.0484964     0.1498616   -0.8786915     0.1497608   -0.8740042    -0.0772240   -0.0723838 
   1.027450000    -0.0708130   -0.0466084     0.1246949   -0.8854460     0.1284065   -0.8790696    -0.0804162   -0.0696954 
   1.047400000    -0.0710100   -0.0451167     0.0969086   -0.8893399     0.1031926   -0.8856745    -0.0819055   -0.0665450 
   1.067350000    -0.0725804   -0.0415509     0.0688316   -0.8871391     0.0732993   -0.8866323    -0.0854950   -0.0623159 
   1.087300000    -0.0755070   -0.0365218     0.0475405   -0.8840103     0.0491906   -0.8831356    -0.0900406   -0.0581284 
   1.107250000    -0.0772754   -0.0331038     0.0282188   -0.8861957     0.0292437   -0.8821992    -0.0923445   -0.0562665 
   1.127200000    -0.0773598   -0.0298969     0.0035619   -0.8930024     0.0075898   -0.8871751    -0.0927150   -0.0540888 
   1.147150000    -0.0781314   -0.0266131    -0.0283197   -0.8914720    -0.0219224   -0.8884101    -0.0928874   -0.0497225 
   1.167100000    -0.0810752   -0.0222460    -0.0553429   -0.8825053    -0.0497911   -0.8833982    -0.0969744   -0.0439022 
   1.187050000    -0.0832864   -0.0183495    -0.0712985   -0.8757847    -0.0701674   -0.8763302    -0.1005898   -0.0384393 
   1.207000000    -0.0837106   -0.0164774    -0.0895665   -0.8806655    -0.0893783   -0.8763708    -0.1021271   -0.0367395 
   1.226950000    -0.0825619   -0.0135958    -0.1203370   -0.8828767    -0.1157987   -0.8764802    -0.1016108   -0.0344686 
   1.246900000    -0.0820688   -0.0095494    -0.1515756   -0.8747128    -0.1424627   -0.8715549    -0.1018630   -0.0307601 
   1.266850000    -0.0833098   -0.0047223    -0.1729527   -0.8604210    -0.1673220   -0.8627821    -0.1044806   -0.0250463 
   1.286800000    -0.0835277   -0.0021809    -0.1879596   -0.8564740    -0.1878461   -0.8572221    -0.1053714   -0.0209714 
   1.306750000    -0.0825925    0.0001021    -0.2109840   -0.8581074    -0.2101264   -0.8520577    -0.1046932   -0.0183343 
   1.326700000    -0.0810063    0.0039208    -0.2432206   -0.8524240    -0.2344152   -0.8464832    -0.1039362   -0.0143647 
   1.346650000    -0.0803999    0.0094648    -0.2672894   -0.8358141    -0.2568364   -0.8372316    -0.1050463   -0.0091481 
   1.366600000    -0.0812388    0.0135719    -0.2835342   -0.8242456    -0.2805546   -0.8307120    -0.1074924   -0.0042559 
   1.386550000    -0.0807109    0.0148052    -0.2995181   -0.8216090    -0.3025495   -0.8205383    -0.1073767   -0.0015446 
   1.406500000    -0.0794250    0.0158046    -0.3259392   -0.8184600    -0.3235523   -0.8103236    -0.1052699    0.0006883 
   1.426450000    -0.0778713    0.0193130    -0.3538783   -0.8059918    -0.3426029   -0.8006516    -0.1037531    0.0044584 
   1.446400000    -0.0771718    0.0226352    -0.3750614   -0.7890023    -0.3644967   -0.7927982    -0.1035694    0.0089322 
   1.466350000    -0.0766229    0.0249006    -0.3894684   -0.7770457    -0.3872325   -0.7818880    -0.1036848    0.0132455 
   1.486300000    -0.0748378    0.0257659    -0.4079410   -0.7705170    -0.4083282   -0.7679311    -0.1021390    0.0161746 
   1.506250000    -0.0726666    0.0281125    -0.4329303   -0.7630881    -0.4256262   -0.7551407    -0.1011779    0.0187398 
   1.526200000    -0.0715953    0.0318343    -0.4592677   -0.7462209    -0.4461616   -0.7436005    -0.1004490    0.0215541 
   1.546150000    -0.0698754    0.0348253    -0.4763025   -0.7257252    -0.4649999   -0.7336251    -0.0993391    0.0242390 
   1.566100000    -0.0679219    0.0359609    -0.4869431   -0.7112551    -0.4865335   -0.7196165    -0.0976726    0.0266041 
   1.586050000    -0.0660908    0.0360546    -0.5019934   -0.7064787    -0.5050008   -0.7045435    -0.0956871    0.0292399 
   1.606000000    -0.0653280    0.0370112    -0.5299174   -0.6978671    -0.5226677   -0.6894156    -0.0951614    0.0320245 
   1.625950000    -0.0649069    0.0388722    -0.5571129   -0.6742854    -0.5392756   -0.6748800    -0.0936069    0.0349214 
   1.645900000    -0.0629719    0.0397473    -0.5667344   -0.6461907    -0.5560379   -0.6606923    -0.0898428    0.0356980 
   1.665850000    -0.0602581    0.0402621    -0.5683503   -0.6354118    -0.5742359   -0.6475891    -0.0877907    0.0369968 
   1.685800000    -0.0575929    0.0415768    -0.5846859   -0.6381487    -0.5942937   -0.6306198    -0.0874938    0.0407415 
   1.705750000    -0.0565560    0.0428621    -0.6236614   -0.6264232    -0.6111367   -0.6108758    -0.0890364    0.0432408 
   1.725700000    -0.0554366    0.0451134    -0.6488485   -0.5860860    -0.6227340   -0.5918906    -0.0872839    0.0443001 
   1.745650000    -0.0527028    0.0440025    -0.6432405   -0.5540689    -0.6353859   -0.5797051    -0.0810527    0.0410842 
   1.765600000    -0.0521645    0.0444758    -0.6350921   -0.5537792    -0.6539313   -0.5653019    -0.0780680    0.0428425 
   1.785550000    -0.0505759    0.0457264    -0.6641031   -0.5661540    -0.6735764   -0.5439543    -0.0761844    0.0493212 
   1.805500000    -0.0528758    0.0460126    -0.7150714   -0.5365036    -0.6849555   -0.5204349    -0.0804687    0.0540825 
   1.825450000    -0.0511040    0.0473435    -0.7233210   -0.4754061    -0.6940858   -0.5040603    -0.0800355    0.0534013 
   1.845400000    -0.0482071    0.0452219    -0.6937554   -0.4543059    -0.7093133   -0.4903605    -0.0812030    0.0436106 
   1.865350000    -0.0444466    0.0434823    -0.6933508   -0.4790440    -0.7279149   -0.4684048    -0.0789715    0.0437226 
   1.885300000    -0.0499883    0.0402036    -0.7529283   -0.4791418    -0.7385606   -0.4426177    -0.0737832    0.0454593 
   1.905250000    -0.0520116    0.0500884    -0.7857031   -0.4078167    -0.7439524   -0.4193303    -0.0683563    0.0507895 
   1.925200000    -0.0430483    0.0472387    -0.7512968   -0.3655306    -0.7503431   -0.4035958    -0.0645356    0.0492467 
   1.945150000    -0.0448390    0.0403102    -0.7326717   -0.3789125    -0.7622271   -0.3859906    -0.0671575    0.0483051 
   1.965100000    -0.0490773    0.0414447    -0.7685645   -0.3939775    -0.7735927   -0.3659992    -0.0682888    0.0499114 
   1.985050000    -0.0483167    0.0457056    -0.8152257   -0.3533514    -0.7825530   -0.3438684    -0.0671425    0.0524335 
   2.005000000    -0.0448951    0.0454097    -0.8117056   -0.2964361    -0.7914531   -0.3237449    -0.0655112    0.0514654 
   2.024950000    -0.0450526    0.0422746    -0.7878242   -0.2772720    -0.8005248   -0.3009634    -0.0659888    0.0500556 
   2.044900000    -0.0473638    0.0404798    -0.7898550   -0.2836641    -0.8071279   -0.2782567    -0.0668827    0.0492724 
   2.064850000    -0.0487754    0.0420219    -0.8203739   -0.2747245    -0.8116387   -0.2575335    -0.0681064    0.0511631 
   2.084800000    -0.0465457    0.0433338    -0.8450280   -0.2337471    -0.8206915   -0.2392382    -0.0655661    0.0511975 
   2.104750000    -0.0467080    0.0431735    -0.8390048   -0.1907159    -0.8314047   -0.2145459    -0.0656249    0.0508417 
   2.124700000    -0.0469333    0.0434027    -0.8234848   -0.1714278    -0.8356766   -0.1857109    -0.0633117    0.0515991 
   2.144650000    -0.0488524    0.0425635    -0.8240691   -0.1664536    -0.8332403   -0.1623570    -0.0644805    0.0508600 
   2.164600000    -0.0508164    0.0442649    -0.8426808   -0.1539689    -0.8352409   -0.1466413    -0.0665992    0.0536738 
   2.184550000    -0.0493949    0.0441660    -0.8600230   -0.1202596    -0.8452370   -0.1266414    -0.0657704    0.0542761 
   2.204500000    -0.0493147    0.0444365    -0.8558689   -0.0806453    -0.8517592   -0.0970033    -0.0652833    0.0547693 
   2.224450000    -0.0488808    0.0450237    -0.8403466   -0.0587470    -0.8474026   -0.0688405    -0.0630415    0.0542986 
   2.244400000    -0.0523641    0.0460575    -0.8359888   -0.0514462    -0.8427598   -0.0515408    -0.0659928    0.0543314 
   2.264350000    -0.0542549    0.0494552    -0.8507355   -0.0396474    -0.8474838   -0.0355979    -0.0669776    0.0577685 
   2.284300000    -0.0542025    0.0496510    -0.8651877   -0.0062963    -0.8552221   -0.0097325    -0.0661665    0.0577395 
   2.304250000    -0.0533511    0.0503296    -0.8584889    0.0324718    -0.8529143    0.0204585    -0.0653492    0.0581544 
   2.324200000    -0.0533291    0.0510433    -0.8405961    0.0536583    -0.8448751    0.0426755    -0.0649885    0.0579883 
   2.344150000    -0.0558504    0.0542931    -0.8356232    0.0614918    -0.8427535    0.0595794    -0.0672090    0.0602798 
   2.364100000    -0.0570321    0.0571670    -0.8463551    0.0768223    -0.8453170    0.0810824    -0.0670909    0.0627760 
   2.384050000    -0.0576585    0.0572161    -0.8542156    0.1093758    -0.8438860    0.1073216    -0.0668230    0.0638045 
   2.404000000    -0.0568131    0.0570694    -0.8440205    0.1439050    -0.8378894    0.1303233    -0.0660649    0.0649922 
   2.423950000    -0.0560987    0.0585125    -0.8270081    0.1641354    -0.8335434    0.1517230    -0.0655999    0.0666999 
   2.443900000    -0.0560686    0.0624623    -0.8201460    0.1747979    -0.8283488    0.1740009    -0.0655553    0.0691667 
   2.463850000    -0.0571500    0.0664834    -0.8242961    0.1919137    -0.8209482    0.1953212    -0.0663869    0.0717887 
   2.483800000    -0.0577489    0.0681582    -0.8274434    0.2209583    -0.8159271    0.2124839    -0.0657670    0.0735712 
   2.503750000    -0.0582677    0.0674728    -0.8177279    0.2542057    -0.8158457    0.2349795    -0.0648429    0.0748485 
   2.523700000    -0.0570633    0.0689229    -0.7987006    0.2753366    -0.8107639    0.2634524    -0.0635290    0.0778245 
   2.543650000    -0.0553708    0.0725488    -0.7863232    0.2847891    -0.7957892    0.2885192    -0.0632769    0.0795931 
   2.563600000    -0.0537832    0.0787817    -0.7888446    0.2973723    -0.7834622    0.3016041    -0.0631146    0.0818138 
   2.583550000    -0.0518201    0.0806549    -0.7923772    0.3273288    -0.7825454    0.3173797    -0.0609200    0.0820472 
   2.603500000    -0.0526521    0.0813398    -0.7785544    0.3636804    -0.7802935    0.3447554    -0.0595421    0.0836786 
   2.623450000    -0.0515487    0.0823951    -0.7513304    0.3822968    -0.7646632    0.3725206    -0.0567285    0.0883633 
   2.643400000    -0.0505416    0.0847429    -0.7393143    0.3849795    -0.7480732    0.3889715    -0.0556466    0.0919476 
   2.663350000    -0.0473006    0.0884474    -0.7447631    0.3998877    -0.7403297    0.4032288    -0.0548399    0.0939148 
   2.683300000    -0.0457401    0.0908886    -0.7422028    0.4358572    -0.7354563    0.4262815    -0.0554108    0.0930930 
   2.703250000    -0.0443979    0.0951490    -0.7158204    0.4668454    -0.7206447    0.4500161    -0.0547183    0.0954535 
   2.723200000    -0.0420691    0.0977493    -0.6911584    0.4742440    -0.7060907    0.4663663    -0.0510705    0.0983682 
   2.743150000    -0.0388715    0.0981998    -0.6878778    0.4790853    -0.6970677    0.4825068    -0.0467222    0.0998958 
   2.763100000    -0.0366837    0.0964693    -0.6887493    0.5054870    -0.6857942    0.5071345    -0.0449842    0.0989365 
   2.783050000    -0.0344266    0.0987791    -0.6686977    0.5370738    -0.6647596    0.5262320    -0.0434589    0.1018753 
   2.803000000    -0.0319022    0.1030622    -0.6416640    0.5522691    -0.6502858    0.5375707    -0.0403868    0.1056919 
   2.822950000    -0.0283431    0.1056645    -0.6294450    0.5574206    -0.6447092    0.5533592    -0.0353578    0.1085950 
   2.842900000    -0.0257865    0.1042577    -0.6245965    0.5775959    -0.6323957    0.5831754    -0.0334422    0.1066590 
   2.862850000    -0.0218601    0.1051983    -0.6059719    0.6013356    -0.6040622    0.6023255    -0.0320479    0.1067091 
   2.882800000    -0.0165717    0.1078835    -0.5825363    0.6160982    -0.5837908    0.6079377    -0.0287632    0.1092040 
   2.902750000    -0.0130264    0.1107597    -0.5693334    0.6252401    -0.5799218    0.6174183    -0.0238623    0.1117841 
   2.922700000    -0.0132095    0.1109253    -0.5587950    0.6478341    -0.5696836    0.6483441    -0.0208481    0.1111787 
   2.942650000    -0.0111236    0.1106202    -0.5348914    0.6686059    -0.5381607    0.6715015    -0.0172505    0.1111771 
   2.962600000    -0.0056308    0.1097374    -0.5106333    0.6771435    -0.5091846    0.6752743    -0.0123053    0.1109948 
   2.982550000     0.0006314    0.1108148    -0.4994029    0.6834404    -0.5019876    0.6768718    -0.0075546    0.1122619 
   3.002500000     0.0023716    0.1106274    -0.4875152    0.7074351    -0.4943742    0.7031298    -0.0058378    0.1116573 
   3.022450000     0.0044339    0.1108588    -0.4576042    0.7294259    -0.4656445    0.7281175    -0.0035733    0.1132799 
   3.042400000     0.0100388    0.1078176    -0.4278194    0.7332349    -0.4330563    0.7343622     0.0028634    0.1114192 
   3.062350000     0.0154950    0.1059377    -0.4176371    0.7344044    -0.4205456    0.7340184     0.0078138    0.1107013 
   3.082300000     0.0180039    0.1046175    -0.4088629    0.7568215    -0.4097943    0.7536977     0.0094912    0.1085330 
   3.102250000     0.0201240    0.1045971    -0.3766361    0.7807546    -0.3814324    0.7747093     0.0108858    0.1088491 
   3.122200000     0.0247408    0.1014290    -0.3405041    0.7824618    -0.3494032    0.7791081     0.0166835    0.1050630 
   3.142150000     0.0292192    0.0993806    -0.3264907    0.7780394    -0.3339926    0.7803721     0.0233841    0.1028177 
