! 9/28/2016 3:30:47 PM
! C:\USERS\ANRITSUUSER\DESKTOP\SWITCHES\MINI-CIRCUIT-COM-1-ON.S2P
! CHANNEL.1
! TR.MEASUREMENT
! CORRECTED.DATA
# GHZ S RI R 50.0
! FREQ.GHZ         S11RE         S11IM         S21RE         S21IM         S12RE         S12IM         S22RE         S22IM         
!; PortSelection: Port_12
   0.010000000     0.0009489    0.0007592     0.9995276   -0.0031191     0.9964983   -0.0152966     0.0016884   -0.0001999 
   0.029950000     0.0007412    0.0009401     0.9986596   -0.0092143     0.9961813   -0.0068531     0.0005366    0.0010768 
   0.049900000     0.0009737    0.0008038     0.9983846   -0.0115916     0.9960127   -0.0093354     0.0005715    0.0010407 
   0.069850000     0.0011866    0.0009917     0.9983788   -0.0139335     0.9958627   -0.0115658     0.0018909    0.0009235 
   0.089800000     0.0006727    0.0023062     0.9980882   -0.0163325     0.9955966   -0.0139616     0.0026919    0.0019793 
   0.109750000     0.0001358    0.0037000     0.9979624   -0.0184295     0.9954507   -0.0160834     0.0017382    0.0034642 
   0.129700000     0.0009174    0.0037330     0.9979259   -0.0208657     0.9951931   -0.0184475     0.0007243    0.0036649 
   0.149650000     0.0025016    0.0029798     0.9976996   -0.0230707     0.9953672   -0.0208502     0.0008906    0.0031573 
   0.169600000     0.0027571    0.0028890     0.9974971   -0.0253875     0.9950927   -0.0230295     0.0020848    0.0026501 
   0.189550000     0.0010291    0.0033652     0.9974680   -0.0277939     0.9948249   -0.0252388     0.0028396    0.0029380 
   0.209500000    -0.0007608    0.0034926     0.9970985   -0.0302121     0.9947488   -0.0275125     0.0032325    0.0030120 
   0.229450000     0.0000598    0.0032431     0.9965191   -0.0322871     0.9943596   -0.0294716     0.0037236    0.0027240 
   0.249400000     0.0021076    0.0042934     0.9969260   -0.0345198     0.9945574   -0.0319186     0.0038231    0.0040097 
   0.269350000     0.0035393    0.0061679     0.9965371   -0.0370045     0.9941657   -0.0343242     0.0032764    0.0061493 
   0.289300000     0.0025573    0.0068078     0.9963849   -0.0393027     0.9939787   -0.0364125     0.0025705    0.0069244 
   0.309250000     0.0013183    0.0058917     0.9961383   -0.0412727     0.9937735   -0.0384653     0.0030780    0.0052989 
   0.329200000     0.0016366    0.0051242     0.9960058   -0.0438364     0.9936526   -0.0410128     0.0048751    0.0039706 
   0.349150000     0.0029680    0.0060407     0.9955654   -0.0459291     0.9932618   -0.0431313     0.0058296    0.0051811 
   0.369100000     0.0035171    0.0077631     0.9955802   -0.0483095     0.9930541   -0.0453294     0.0049141    0.0077606 
   0.389050000     0.0031691    0.0084248     0.9955149   -0.0504614     0.9929388   -0.0476173     0.0038699    0.0084682 
   0.409000000     0.0034673    0.0085393     0.9952659   -0.0531051     0.9928247   -0.0498251     0.0049549    0.0077580 
   0.428950000     0.0044242    0.0090897     0.9945492   -0.0550358     0.9923456   -0.0519405     0.0068146    0.0079086 
   0.448900000     0.0051110    0.0097683     0.9946257   -0.0569848     0.9921777   -0.0540062     0.0068881    0.0092429 
   0.468850000     0.0048275    0.0093144     0.9946406   -0.0591309     0.9919603   -0.0560884     0.0050711    0.0096513 
   0.488800000     0.0051907    0.0081710     0.9941700   -0.0620305     0.9919889   -0.0586767     0.0039756    0.0086174 
   0.508750000     0.0064523    0.0086422     0.9935336   -0.0642699     0.9913887   -0.0611548     0.0058323    0.0085427 
   0.528700000     0.0077535    0.0111506     0.9930490   -0.0660162     0.9907533   -0.0630950     0.0083753    0.0106203 
   0.548650000     0.0071191    0.0129189     0.9932391   -0.0676714     0.9911521   -0.0644763     0.0085067    0.0126499 
   0.568600000     0.0065299    0.0118673     0.9937190   -0.0702586     0.9912675   -0.0670290     0.0065437    0.0120955 
   0.588550000     0.0071409    0.0093519     0.9930743   -0.0730758     0.9908819   -0.0698052     0.0055482    0.0102544 
   0.608500000     0.0087168    0.0095656     0.9922680   -0.0756015     0.9899147   -0.0721512     0.0070852    0.0102494 
   0.628450000     0.0092126    0.0118637     0.9918892   -0.0770992     0.9896844   -0.0738127     0.0089793    0.0119720 
   0.648400000     0.0081458    0.0132672     0.9920074   -0.0790251     0.9898323   -0.0757114     0.0094521    0.0127280 
   0.668350000     0.0075673    0.0120391     0.9924405   -0.0814257     0.9900012   -0.0779301     0.0086087    0.0117213 
   0.688300000     0.0089110    0.0103672     0.9917375   -0.0841720     0.9894511   -0.0805395     0.0084132    0.0110188 
   0.708250000     0.0110317    0.0107919     0.9911597   -0.0864465     0.9887373   -0.0827074     0.0089208    0.0124186 
   0.728200000     0.0117497    0.0120283     0.9903765   -0.0880313     0.9884603   -0.0843940     0.0088642    0.0136738 
   0.748150000     0.0106435    0.0118582     0.9906276   -0.0898372     0.9885681   -0.0863282     0.0085214    0.0129616 
   0.768100000     0.0101568    0.0106422     0.9908311   -0.0923063     0.9884161   -0.0886094     0.0090079    0.0111139 
   0.788050000     0.0107746    0.0104046     0.9902758   -0.0950101     0.9882042   -0.0912391     0.0097856    0.0109120 
   0.808000000     0.0114472    0.0112562     0.9900632   -0.0976825     0.9874802   -0.0933144     0.0104186    0.0122265 
   0.827950000     0.0116672    0.0114753     0.9891490   -0.0996419     0.9872617   -0.0956161     0.0100777    0.0127538 
   0.847900000     0.0120580    0.0107807     0.9888715   -0.1011236     0.9866717   -0.0975385     0.0101667    0.0121412 
   0.867850000     0.0126917    0.0105250     0.9890651   -0.1034665     0.9865903   -0.0996616     0.0112238    0.0117718 
   0.887800000     0.0130640    0.0113067     0.9887768   -0.1059918     0.9861553   -0.1018840     0.0119984    0.0122445 
   0.907750000     0.0126152    0.0115297     0.9878923   -0.1084849     0.9860505   -0.1043242     0.0114008    0.0124766 
   0.927700000     0.0122737    0.0104126     0.9871187   -0.1103411     0.9852349   -0.1064484     0.0109186    0.0114004 
   0.947650000     0.0132783    0.0093707     0.9871233   -0.1119847     0.9847594   -0.1083494     0.0118684    0.0107825 
   0.967600000     0.0148515    0.0097825     0.9870693   -0.1142257     0.9843611   -0.1098321     0.0129619    0.0119944 
   0.987550000     0.0150540    0.0103708     0.9870277   -0.1170249     0.9847474   -0.1123124     0.0123744    0.0130269 
   1.007500000     0.0142821    0.0095699     0.9862325   -0.1192285     0.9846961   -0.1147255     0.0110610    0.0122225 
   1.027450000     0.0135037    0.0083708     0.9853066   -0.1213622     0.9838613   -0.1173319     0.0112686    0.0102073 
   1.047400000     0.0145198    0.0086438     0.9851685   -0.1229215     0.9831334   -0.1191975     0.0133830    0.0097682 
   1.067350000     0.0153960    0.0098761     0.9852930   -0.1249954     0.9825270   -0.1209556     0.0145717    0.0111056 
   1.087300000     0.0151247    0.0099845     0.9856002   -0.1278233     0.9832727   -0.1233503     0.0132843    0.0120458 
   1.107250000     0.0144535    0.0081748     0.9846047   -0.1307959     0.9828953   -0.1258911     0.0114988    0.0107014 
   1.127200000     0.0148185    0.0069269     0.9836753   -0.1324608     0.9818227   -0.1282158     0.0120761    0.0092263 
   1.147150000     0.0159529    0.0078501     0.9829544   -0.1336510     0.9810287   -0.1298949     0.0144117    0.0094917 
   1.167100000     0.0159443    0.0093262     0.9838880   -0.1355892     0.9813595   -0.1312811     0.0151106    0.0109290 
   1.187050000     0.0150266    0.0087231     0.9840330   -0.1385268     0.9817156   -0.1336488     0.0135804    0.0111706 
   1.207000000     0.0148055    0.0062513     0.9832836   -0.1417440     0.9814011   -0.1365440     0.0122288    0.0097135 
   1.226950000     0.0164629    0.0051751     0.9816967   -0.1435888     0.9804381   -0.1388800     0.0128823    0.0091309 
   1.246900000     0.0177264    0.0063556     0.9814436   -0.1447028     0.9796098   -0.1406199     0.0145511    0.0101230 
   1.266850000     0.0171189    0.0076710     0.9822656   -0.1466120     0.9796029   -0.1427404     0.0147416    0.0106306 
   1.286800000     0.0158162    0.0069032     0.9820164   -0.1500772     0.9798770   -0.1452063     0.0137655    0.0095080 
   1.306750000     0.0153895    0.0047650     0.9809191   -0.1527243     0.9793714   -0.1475935     0.0130224    0.0079128 
   1.326700000     0.0166131    0.0038647     0.9796194   -0.1546439     0.9786193   -0.1500870     0.0131743    0.0085840 
   1.346650000     0.0173630    0.0042693     0.9797636   -0.1559883     0.9779155   -0.1518530     0.0135312    0.0099455 
   1.366600000     0.0170108    0.0044189     0.9803019   -0.1584148     0.9779639   -0.1539806     0.0135905    0.0098835 
   1.386550000     0.0163394    0.0040497     0.9802377   -0.1614466     0.9777694   -0.1554284     0.0134543    0.0082971 
   1.406500000     0.0162711    0.0034374     0.9787925   -0.1638620     0.9776454   -0.1578846     0.0133796    0.0075738 
   1.426450000     0.0162324    0.0033060     0.9777780   -0.1656771     0.9773895   -0.1603102     0.0133987    0.0083621 
   1.446400000     0.0163544    0.0029208     0.9777345   -0.1671857     0.9763706   -0.1627323     0.0132887    0.0086286 
   1.466350000     0.0162636    0.0026021     0.9784864   -0.1697881     0.9761271   -0.1644551     0.0133424    0.0075703 
   1.486300000     0.0167117    0.0028277     0.9775972   -0.1728590     0.9757399   -0.1663473     0.0140016    0.0069433 
   1.506250000     0.0171457    0.0035337     0.9765214   -0.1753575     0.9757523   -0.1686522     0.0143044    0.0076266 
   1.526200000     0.0163384    0.0026114     0.9755066   -0.1764089     0.9749686   -0.1729694     0.0132913    0.0085851 
   1.546150000     0.0152015    0.0000007     0.9756050   -0.1780705     0.9748164   -0.1735695     0.0116126    0.0076866 
   1.566100000     0.0147824   -0.0017610     0.9761512   -0.1803380     0.9743503   -0.1759656     0.0107217    0.0065182 
   1.586050000     0.0153829   -0.0010971     0.9760569   -0.1837803     0.9737187   -0.1780575     0.0115475    0.0064902 
   1.606000000     0.0158540    0.0007594     0.9740250   -0.1863365     0.9733291   -0.1797629     0.0122546    0.0067704 
   1.625950000     0.0152080    0.0011961     0.9730014   -0.1875661     0.9732919   -0.1823213     0.0118402    0.0054967 
   1.645900000     0.0143300   -0.0004749     0.9739901   -0.1885316     0.9731829   -0.1852192     0.0113516    0.0044332 
   1.665850000     0.0147353   -0.0024091     0.9751040   -0.1914709     0.9720204   -0.1882195     0.0120995    0.0049527 
   1.685800000     0.0154384   -0.0022688     0.9744746   -0.1957396     0.9708885   -0.1895026     0.0127356    0.0072887 
   1.705750000     0.0155015   -0.0017018     0.9716157   -0.1986913     0.9712056   -0.1910145     0.0115274    0.0076646 
   1.725700000     0.0139735   -0.0018629     0.9705071   -0.1986248     0.9715958   -0.1937188     0.0089180    0.0050408 
   1.745650000     0.0130126   -0.0026430     0.9720592   -0.1997513     0.9712827   -0.1970613     0.0088558    0.0028492 
   1.765600000     0.0126080   -0.0035705     0.9740571   -0.2030367     0.9697661   -0.1992354     0.0111955    0.0033719 
   1.785550000     0.0117853   -0.0036826     0.9728807   -0.2083459     0.9691849   -0.2009413     0.0123385    0.0060002 
   1.805500000     0.0111796   -0.0028990     0.9696376   -0.2105263     0.9700785   -0.2027281     0.0097589    0.0069336 
   1.825450000     0.0123407   -0.0024220     0.9688756   -0.2113252     0.9702891   -0.2058668     0.0052831    0.0049835 
   1.845400000     0.0142371   -0.0061114     0.9701892   -0.2130281     0.9697897   -0.2102252     0.0043556    0.0030165 
   1.865350000     0.0090260   -0.0094579     0.9703878   -0.2177244     0.9671140   -0.2128075     0.0071596    0.0017387 
   1.885300000     0.0056475   -0.0038373     0.9660225   -0.2225614     0.9651327   -0.2149257     0.0093626    0.0016660 
   1.905250000     0.0119757   -0.0016990     0.9618642   -0.2214440     0.9633571   -0.2159688     0.0085549    0.0021752 
   1.925200000     0.0139670   -0.0083968     0.9622298   -0.2203903     0.9630651   -0.2180517     0.0071220    0.0036116 
   1.945150000     0.0084648   -0.0101430     0.9640749   -0.2219413     0.9616836   -0.2189363     0.0068498    0.0039521 
   1.965100000     0.0063326   -0.0061674     0.9644632   -0.2265315     0.9619129   -0.2201113     0.0074247    0.0033026 
   1.985050000     0.0081409   -0.0051040     0.9624954   -0.2287246     0.9620982   -0.2222844     0.0069332    0.0025645 
   2.005000000     0.0092646   -0.0068324     0.9616270   -0.2305267     0.9618815   -0.2251869     0.0057551    0.0028974 
   2.024950000     0.0078512   -0.0090241     0.9612730   -0.2319211     0.9609541   -0.2273833     0.0048693    0.0034694 
   2.044900000     0.0059824   -0.0093011     0.9616919   -0.2339168     0.9610856   -0.2302535     0.0046347    0.0038594 
   2.064850000     0.0048848   -0.0086747     0.9621006   -0.2367203     0.9601527   -0.2328242     0.0038221    0.0039324 
   2.084800000     0.0045450   -0.0075975     0.9613150   -0.2409516     0.9587599   -0.2355103     0.0030948    0.0027193 
   2.104750000     0.0049324   -0.0077839     0.9596500   -0.2431334     0.9582202   -0.2369893     0.0035623    0.0023649 
   2.124700000     0.0046541   -0.0079072     0.9583574   -0.2455409     0.9581326   -0.2395091     0.0044834    0.0023649 
   2.144650000     0.0037285   -0.0081868     0.9578543   -0.2473749     0.9578898   -0.2432624     0.0032132    0.0024928 
   2.164600000     0.0007284   -0.0087885     0.9573902   -0.2497731     0.9553415   -0.2464730     0.0008786    0.0032477 
   2.184550000     0.0001107   -0.0091755     0.9578797   -0.2524909     0.9544452   -0.2475015    -0.0001637    0.0037695 
   2.204500000     0.0011881   -0.0100509     0.9558725   -0.2557669     0.9544129   -0.2491728     0.0015882    0.0037042 
   2.224450000     0.0022996   -0.0104777     0.9542975   -0.2576308     0.9550086   -0.2523018     0.0022650    0.0035814 
   2.244400000     0.0002550   -0.0103859     0.9523779   -0.2591230     0.9528065   -0.2563360    -0.0003791    0.0044589 
   2.264350000    -0.0030539   -0.0082777     0.9529656   -0.2603094     0.9504821   -0.2572939    -0.0031383    0.0049575 
   2.284300000    -0.0038235   -0.0078441     0.9532781   -0.2633283     0.9504176   -0.2583283    -0.0037326    0.0037967 
   2.304250000    -0.0026646   -0.0096129     0.9526938   -0.2665239     0.9508917   -0.2613325    -0.0018206    0.0029563 
   2.324200000    -0.0013521   -0.0116946     0.9501666   -0.2687234     0.9496965   -0.2648824    -0.0008616    0.0039454 
   2.344150000    -0.0025949   -0.0115104     0.9489444   -0.2693825     0.9476702   -0.2671990    -0.0018549    0.0061850 
   2.364100000    -0.0052484   -0.0089038     0.9490950   -0.2701551     0.9468247   -0.2681775    -0.0043783    0.0078437 
   2.384050000    -0.0075313   -0.0077662     0.9501636   -0.2734677     0.9469045   -0.2700357    -0.0061345    0.0061725 
   2.404000000    -0.0082949   -0.0085142     0.9490644   -0.2776748     0.9463458   -0.2718333    -0.0062366    0.0043472 
   2.423950000    -0.0076195   -0.0099703     0.9464406   -0.2806744     0.9454460   -0.2744074    -0.0051130    0.0041296 
   2.443900000    -0.0067102   -0.0102559     0.9443868   -0.2813551     0.9443663   -0.2763370    -0.0043009    0.0059672 
   2.463850000    -0.0067650   -0.0087411     0.9446262   -0.2825830     0.9434509   -0.2797468    -0.0052424    0.0076042 
   2.483800000    -0.0090462   -0.0072235     0.9455959   -0.2855942     0.9412594   -0.2809213    -0.0069986    0.0074374 
   2.503750000    -0.0117920   -0.0073135     0.9448731   -0.2904330     0.9408249   -0.2827408    -0.0080949    0.0061878 
   2.523700000    -0.0133896   -0.0083306     0.9421828   -0.2936753     0.9411184   -0.2844979    -0.0084487    0.0068383 
   2.543650000    -0.0133148   -0.0089534     0.9390533   -0.2936477     0.9403048   -0.2890406    -0.0089459    0.0084715 
   2.563600000    -0.0131180   -0.0083250     0.9397168   -0.2929356     0.9372629   -0.2918296    -0.0100230    0.0100787 
   2.583550000    -0.0127177   -0.0065723     0.9416792   -0.2960980     0.9357792   -0.2920046    -0.0104082    0.0090335 
   2.603500000    -0.0130890   -0.0051603     0.9413700   -0.3018470     0.9367228   -0.2933310    -0.0105369    0.0074119 
   2.623450000    -0.0143739   -0.0050950     0.9369437   -0.3058590     0.9366308   -0.2970572    -0.0098589    0.0077022 
   2.643400000    -0.0167292   -0.0067761     0.9336432   -0.3057981     0.9341302   -0.3008402    -0.0104116    0.0097460 
   2.663350000    -0.0183705   -0.0074835     0.9352679   -0.3047765     0.9313831   -0.3027534    -0.0120256    0.0124530 
   2.683300000    -0.0176737   -0.0064983     0.9380030   -0.3090588     0.9317982   -0.3035670    -0.0137492    0.0124382 
   2.703250000    -0.0170061   -0.0034467     0.9355640   -0.3149661     0.9319552   -0.3064142    -0.0151934    0.0112304 
   2.723200000    -0.0179708   -0.0005350     0.9306220   -0.3182103     0.9305260   -0.3090320    -0.0156017    0.0097032 
   2.743150000    -0.0201116   -0.0001750     0.9286660   -0.3164598     0.9286037   -0.3098684    -0.0152549    0.0098483 
   2.763100000    -0.0211892   -0.0031431     0.9316606   -0.3177013     0.9290203   -0.3124461    -0.0143468    0.0110154 
   2.783050000    -0.0209437   -0.0052160     0.9321092   -0.3227733     0.9279046   -0.3162840    -0.0144544    0.0132945 
   2.803000000    -0.0205570   -0.0035133     0.9284975   -0.3269802     0.9251414   -0.3193383    -0.0157839    0.0154022 
   2.822950000    -0.0215741    0.0009737     0.9252278   -0.3264496     0.9238263   -0.3184586    -0.0172221    0.0163892 
   2.842900000    -0.0225620    0.0033403     0.9261330   -0.3276452     0.9266514   -0.3199342    -0.0176566    0.0139231 
   2.862850000    -0.0243732    0.0026536     0.9262217   -0.3315475     0.9261419   -0.3249884    -0.0185279    0.0130492 
   2.882800000    -0.0256837    0.0017438     0.9236147   -0.3356112     0.9214041   -0.3296851    -0.0196729    0.0157611 
   2.902750000    -0.0268823    0.0031587     0.9217002   -0.3354405     0.9177862   -0.3272139    -0.0200394    0.0197899 
   2.922700000    -0.0267367    0.0045551     0.9233860   -0.3371075     0.9207940   -0.3274120    -0.0193152    0.0197868 
   2.942650000    -0.0265487    0.0045977     0.9231996   -0.3418770     0.9236261   -0.3327958    -0.0189463    0.0175952 
   2.962600000    -0.0276405    0.0052862     0.9191506   -0.3458457     0.9188023   -0.3400937    -0.0193235    0.0178999 
   2.982550000    -0.0307173    0.0076288     0.9159799   -0.3446686     0.9124672   -0.3394507    -0.0217871    0.0222750 
   3.002500000    -0.0324842    0.0091636     0.9191285   -0.3456852     0.9138733   -0.3371874    -0.0233166    0.0255813 
   3.022450000    -0.0320021    0.0075820     0.9204981   -0.3523227     0.9184490   -0.3410066    -0.0244917    0.0240578 
   3.042400000    -0.0293565    0.0077990     0.9153159   -0.3582227     0.9164336   -0.3490752    -0.0227211    0.0214282 
   3.062350000    -0.0280950    0.0106711     0.9099355   -0.3566681     0.9104921   -0.3499270    -0.0219258    0.0221194 
   3.082300000    -0.0307410    0.0149556     0.9127825   -0.3550580     0.9099853   -0.3481222    -0.0228528    0.0261125 
   3.102250000    -0.0350861    0.0151617     0.9165723   -0.3615702     0.9132622   -0.3508409    -0.0258753    0.0284732 
   3.122200000    -0.0374507    0.0132298     0.9125219   -0.3703778     0.9113665   -0.3586883    -0.0271409    0.0284455 
   3.142150000    -0.0355161    0.0123999     0.9044226   -0.3699947     0.9057364   -0.3603334    -0.0253009    0.0288732 
