! 9/28/2016 3:32:32 PM
! C:\USERS\ANRITSUUSER\DESKTOP\SWITCHES\MINI-CIRCUIT-COM-2-ON.S2P
! CHANNEL.1
! TR.MEASUREMENT
! CORRECTED.DATA
# GHZ S RI R 50.0
! FREQ.GHZ         S11RE         S11IM         S21RE         S21IM         S12RE         S12IM         S22RE         S22IM         
!; PortSelection: Port_12
   0.010000000     0.0046757    0.0004209     0.0000112    0.0000004    -0.0000048    0.0000018     0.0024505    0.0000760 
   0.029950000     0.0040845    0.0006300     0.0000017    0.0000017     0.0000061   -0.0000018     0.0017813    0.0013501 
   0.049900000     0.0040218    0.0005539    -0.0000041   -0.0000006    -0.0000014    0.0000036     0.0017806    0.0013501 
   0.069850000     0.0044679    0.0006797     0.0000021   -0.0000032    -0.0000047   -0.0000018     0.0025317    0.0016876 
   0.089800000     0.0045142    0.0012900    -0.0000042   -0.0000005     0.0000024   -0.0000036     0.0029216    0.0026519 
   0.109750000     0.0041514    0.0015134    -0.0000002    0.0000122    -0.0000015    0.0000150     0.0022995    0.0032365 
   0.129700000     0.0038782    0.0011401    -0.0000005    0.0000020    -0.0000051   -0.0000008     0.0019408    0.0025680 
   0.149650000     0.0045093    0.0011667    -0.0000022   -0.0000005    -0.0000028   -0.0000062     0.0029049    0.0019899 
   0.169600000     0.0049519    0.0021840    -0.0000020    0.0000052    -0.0000007    0.0000016     0.0041899    0.0026879 
   0.189550000     0.0037250    0.0028740    -0.0000036   -0.0000009    -0.0000043    0.0000021     0.0042070    0.0040017 
   0.209500000     0.0027683    0.0018821    -0.0000057   -0.0000036    -0.0000072    0.0000001     0.0034049    0.0041504 
   0.229450000     0.0036865    0.0002770     0.0000010   -0.0000056    -0.0000055   -0.0000094     0.0037127    0.0033517 
   0.249400000     0.0058440    0.0006786     0.0000179   -0.0000029     0.0000097   -0.0000024     0.0049583    0.0036238 
   0.269350000     0.0062870    0.0028883     0.0000300    0.0000034     0.0000329    0.0000073     0.0051622    0.0047582 
   0.289300000     0.0043198    0.0041968     0.0000493   -0.0000915     0.0000489   -0.0000883     0.0042304    0.0052636 
   0.309250000     0.0031417    0.0028666     0.0000125   -0.0000314     0.0000060   -0.0000296     0.0038515    0.0041246 
   0.329200000     0.0041242    0.0011102     0.0000229   -0.0000085     0.0000220   -0.0000066     0.0053240    0.0031565 
   0.349150000     0.0061476    0.0016491     0.0000254    0.0000094     0.0000254    0.0000057     0.0068755    0.0041463 
   0.369100000     0.0063486    0.0034860     0.0000366    0.0000181     0.0000249    0.0000172     0.0067717    0.0059696 
   0.389050000     0.0052971    0.0040932     0.0000369    0.0000481     0.0000495    0.0000455     0.0053345    0.0059206 
   0.409000000     0.0047553    0.0038072     0.0002620   -0.0001799     0.0002714   -0.0001776     0.0051620    0.0051706 
   0.428950000     0.0056907    0.0033877     0.0000050   -0.0000615     0.0000101   -0.0000589     0.0067562    0.0048895 
   0.448900000     0.0059246    0.0043483     0.0000166   -0.0000343     0.0000200   -0.0000370     0.0069862    0.0060877 
   0.468850000     0.0050892    0.0047285     0.0000405   -0.0000214     0.0000333   -0.0000138     0.0057022    0.0064234 
   0.488800000     0.0048815    0.0040944     0.0000928    0.0000124     0.0000923    0.0000108     0.0052965    0.0051038 
   0.508750000     0.0059484    0.0039486     0.0000944   -0.0000926     0.0001020   -0.0000988     0.0069302    0.0044918 
   0.528700000     0.0066515    0.0051819     0.0000432   -0.0000362     0.0000443   -0.0000352     0.0084013    0.0058461 
   0.548650000     0.0057582    0.0061978     0.0000517   -0.0000165     0.0000510   -0.0000159     0.0073646    0.0075890 
   0.568600000     0.0047152    0.0050755     0.0000611    0.0000104     0.0000553    0.0000041     0.0055385    0.0071375 
   0.588550000     0.0056787    0.0038392     0.0000506    0.0000362     0.0000597    0.0000348     0.0056166    0.0050909 
   0.608500000     0.0075517    0.0047252     0.0000482    0.0000645     0.0000422    0.0000716     0.0075764    0.0046664 
   0.628450000     0.0073954    0.0072077     0.0000725    0.0001249     0.0000695    0.0001301     0.0083841    0.0064015 
   0.648400000     0.0051438    0.0082262     0.0001586    0.0000652     0.0001591    0.0000601     0.0068337    0.0075462 
   0.668350000     0.0038904    0.0063784     0.0000807    0.0000135     0.0000917    0.0000203     0.0057534    0.0066099 
   0.688300000     0.0054646    0.0047557     0.0000365    0.0000481     0.0000395    0.0000519     0.0064330    0.0053285 
   0.708250000     0.0075037    0.0058571     0.0000013    0.0000567     0.0000007    0.0000572     0.0077668    0.0060209 
   0.728200000     0.0072955    0.0080639    -0.0000226    0.0000649    -0.0000225    0.0000667     0.0074974    0.0073880 
   0.748150000     0.0056086    0.0087914    -0.0000361    0.0000753    -0.0000350    0.0000735     0.0061671    0.0073538 
   0.768100000     0.0049184    0.0076444    -0.0000514    0.0000876    -0.0000439    0.0000954     0.0056603    0.0060129 
   0.788050000     0.0056347    0.0070355    -0.0000295    0.0001297    -0.0000356    0.0001290     0.0066157    0.0053427 
   0.808000000     0.0061272    0.0078169     0.0000234    0.0001254     0.0000272    0.0001209     0.0072098    0.0059322 
   0.827950000     0.0054693    0.0084552     0.0000196    0.0001427     0.0000163    0.0001307     0.0067905    0.0062320 
   0.847900000     0.0051476    0.0079743     0.0000231    0.0002032     0.0000155    0.0002063     0.0067037    0.0057936 
   0.867850000     0.0054882    0.0077354     0.0001091    0.0002857     0.0001087    0.0002797     0.0072836    0.0057117 
   0.887800000     0.0058860    0.0086445     0.0001413    0.0001616     0.0001341    0.0001589     0.0074440    0.0068503 
   0.907750000     0.0052669    0.0091887     0.0000701    0.0001153     0.0000624    0.0001038     0.0064781    0.0072527 
   0.927700000     0.0045925    0.0086867     0.0000023    0.0000778     0.0000026    0.0000894     0.0058265    0.0063320 
   0.947650000     0.0053232    0.0077116    -0.0000352    0.0000501    -0.0000396    0.0000495     0.0066341    0.0053749 
   0.967600000     0.0065318    0.0084377    -0.0000523    0.0000033    -0.0000555    0.0000084     0.0078149    0.0060962 
   0.987550000     0.0064217    0.0096555    -0.0000536   -0.0000279    -0.0000516   -0.0000293     0.0073426    0.0075099 
   1.007500000     0.0051257    0.0097899    -0.0000434   -0.0000409    -0.0000361   -0.0000443     0.0058875    0.0070578 
   1.027450000     0.0049130    0.0088174    -0.0000289   -0.0000398    -0.0000301   -0.0000376     0.0060003    0.0057641 
   1.047400000     0.0061015    0.0085160    -0.0000137   -0.0000239    -0.0000111   -0.0000252     0.0077162    0.0053114 
   1.067350000     0.0066715    0.0096601    -0.0000134    0.0000046    -0.0000107    0.0000004     0.0080446    0.0070677 
   1.087300000     0.0057453    0.0104692    -0.0000312    0.0000340    -0.0000287    0.0000340     0.0064295    0.0080681 
   1.107250000     0.0050908    0.0098190    -0.0000686    0.0000436    -0.0000662    0.0000560     0.0051255    0.0066762 
   1.127200000     0.0059472    0.0089292    -0.0001201    0.0000554    -0.0001177    0.0000614     0.0060723    0.0050070 
   1.147150000     0.0070136    0.0099161    -0.0001281    0.0000633    -0.0001230    0.0000620     0.0078883    0.0056450 
   1.167100000     0.0064950    0.0114841    -0.0001133    0.0000436    -0.0001173    0.0000495     0.0077981    0.0075589 
   1.187050000     0.0047074    0.0114090    -0.0000872    0.0000129    -0.0000873    0.0000106     0.0058750    0.0082232 
   1.207000000     0.0042898    0.0096309    -0.0000569   -0.0000228    -0.0000526   -0.0000226     0.0049629    0.0067701 
   1.226950000     0.0060145    0.0088533    -0.0000215   -0.0000367    -0.0000227   -0.0000334     0.0060629    0.0056723 
   1.246900000     0.0073380    0.0101503     0.0000109   -0.0000270     0.0000104   -0.0000313     0.0071065    0.0064509 
   1.266850000     0.0065239    0.0119303     0.0000236   -0.0000200     0.0000203   -0.0000200     0.0067586    0.0075945 
   1.286800000     0.0053396    0.0114965     0.0000227   -0.0000078     0.0000241   -0.0000025     0.0055341    0.0073227 
   1.306750000     0.0051638    0.0102041     0.0000219    0.0000133     0.0000146    0.0000086     0.0057498    0.0062358 
   1.326700000     0.0065254    0.0100220    -0.0000003    0.0000201     0.0000036    0.0000082     0.0068764    0.0064485 
   1.346650000     0.0071405    0.0111028    -0.0000272    0.0000061    -0.0000259    0.0000097     0.0069706    0.0077600 
   1.366600000     0.0063864    0.0118696    -0.0000378   -0.0000108    -0.0000383   -0.0000122     0.0057089    0.0083089 
   1.386550000     0.0059134    0.0117591    -0.0000425   -0.0000475    -0.0000463   -0.0000472     0.0050302    0.0074015 
   1.406500000     0.0061370    0.0111836    -0.0000360   -0.0000608    -0.0000327   -0.0000706     0.0054860    0.0069114 
   1.426450000     0.0066364    0.0116306    -0.0000254   -0.0000660    -0.0000214   -0.0000710     0.0059141    0.0074874 
   1.446400000     0.0065011    0.0119467    -0.0000031   -0.0000829    -0.0000099   -0.0000717     0.0055587    0.0077258 
   1.466350000     0.0063197    0.0120623     0.0000041   -0.0000698    -0.0000006   -0.0000659     0.0050111    0.0075644 
   1.486300000     0.0067600    0.0120148     0.0000180   -0.0000491     0.0000140   -0.0000566     0.0052554    0.0073929 
   1.506250000     0.0070226    0.0130477     0.0000117   -0.0000235     0.0000160   -0.0000252     0.0055322    0.0081530 
   1.526200000     0.0060297    0.0135067     0.0000143   -0.0000215     0.0000136   -0.0000140     0.0046988    0.0086014 
   1.546150000     0.0049047    0.0132149     0.0000030   -0.0000148     0.0000041   -0.0000173     0.0035648    0.0081982 
   1.566100000     0.0051160    0.0118104    -0.0000010   -0.0000124    -0.0000031   -0.0000214     0.0035956    0.0072861 
   1.586050000     0.0062325    0.0112700    -0.0000091   -0.0000180     0.0000075   -0.0000133     0.0044510    0.0074446 
   1.606000000     0.0070494    0.0123305    -0.0000036   -0.0000280    -0.0000142   -0.0000242     0.0039719    0.0082817 
   1.625950000     0.0063862    0.0133721    -0.0000078   -0.0000539    -0.0000093   -0.0000378     0.0028733    0.0082471 
   1.645900000     0.0055758    0.0125599     0.0000040   -0.0000537     0.0000030   -0.0000554     0.0027152    0.0072631 
   1.665850000     0.0060397    0.0116384     0.0000100   -0.0000421     0.0000051   -0.0000464     0.0037274    0.0072719 
   1.685800000     0.0072675    0.0120469     0.0000020   -0.0000337     0.0000139   -0.0000408     0.0037627    0.0085550 
   1.705750000     0.0076217    0.0131893     0.0000112   -0.0000354    -0.0000070   -0.0000362     0.0020240    0.0093314 
   1.725700000     0.0070635    0.0141458    -0.0000017   -0.0000416     0.0000029   -0.0000502     0.0004974    0.0077588 
   1.745650000     0.0064663    0.0139344     0.0000143   -0.0000470     0.0000237   -0.0000469     0.0015537    0.0059833 
   1.765600000     0.0061277    0.0138468     0.0000280   -0.0000490     0.0000319   -0.0000419     0.0037427    0.0070171 
   1.785550000     0.0061864    0.0140245     0.0000549   -0.0000376     0.0000338   -0.0000217     0.0034637    0.0100196 
   1.805500000     0.0055750    0.0139216     0.0000546   -0.0000119     0.0000318   -0.0000194    -0.0002740    0.0111705 
   1.825450000     0.0055355    0.0134101     0.0000558    0.0000126     0.0000516    0.0000049    -0.0030566    0.0084610 
   1.845400000     0.0057772    0.0132709     0.0000586    0.0000482     0.0000472    0.0000432    -0.0020290    0.0051563 
   1.865350000     0.0057216    0.0135959     0.0000107    0.0000776     0.0000097    0.0000683     0.0013518    0.0043539 
   1.885300000     0.0053420    0.0136513    -0.0000243    0.0000720    -0.0000194    0.0000714     0.0027656    0.0070410 
   1.905250000     0.0050848    0.0128666    -0.0000439    0.0000552    -0.0000263    0.0000714     0.0012079    0.0093325 
   1.925200000     0.0058774    0.0123485    -0.0000527    0.0000336    -0.0000507    0.0000538    -0.0009921    0.0096649 
   1.945150000     0.0065999    0.0127643    -0.0000691    0.0000160    -0.0000636    0.0000302    -0.0024836    0.0083336 
   1.965100000     0.0066417    0.0138536    -0.0000701   -0.0000007    -0.0000638   -0.0000126    -0.0017221    0.0072659 
   1.985050000     0.0056089    0.0141632    -0.0000458   -0.0000403    -0.0000302   -0.0000461    -0.0011307    0.0078675 
   2.005000000     0.0047940    0.0132524    -0.0000053   -0.0000541    -0.0000102   -0.0000565    -0.0017397    0.0091843 
   2.024950000     0.0053289    0.0120409     0.0000360   -0.0000566     0.0000296   -0.0000520    -0.0030916    0.0095570 
   2.044900000     0.0066603    0.0120949     0.0000625   -0.0000454     0.0000526   -0.0000448    -0.0045579    0.0090363 
   2.064850000     0.0073285    0.0132752     0.0000759   -0.0000016     0.0000649   -0.0000233    -0.0051874    0.0081202 
   2.084800000     0.0066740    0.0143984     0.0000746    0.0000252     0.0000824    0.0000258    -0.0046299    0.0071084 
   2.104750000     0.0056403    0.0146612     0.0000666    0.0000646     0.0000651    0.0000686    -0.0034525    0.0074281 
   2.124700000     0.0051119    0.0138539     0.0000363    0.0000819     0.0000269    0.0000857    -0.0032016    0.0087810 
   2.144650000     0.0053709    0.0134662     0.0000009    0.0000837    -0.0000140    0.0000889    -0.0043833    0.0100954 
   2.164600000     0.0054430    0.0136239    -0.0000206    0.0000837    -0.0000406    0.0000774    -0.0061250    0.0099072 
   2.184550000     0.0050705    0.0133627    -0.0000564    0.0000568    -0.0000600    0.0000508    -0.0065697    0.0088554 
   2.204500000     0.0049728    0.0128359    -0.0000656    0.0000131    -0.0000773    0.0000363    -0.0054210    0.0082262 
   2.224450000     0.0056053    0.0127193    -0.0000512   -0.0000202    -0.0000756   -0.0000197    -0.0049487    0.0095673 
   2.244400000     0.0059101    0.0129707    -0.0000239   -0.0000396    -0.0000336   -0.0000476    -0.0058870    0.0116175 
   2.264350000     0.0057812    0.0134941    -0.0000084   -0.0000428     0.0000013   -0.0000601    -0.0079099    0.0122037 
   2.284300000     0.0052631    0.0137041     0.0000115   -0.0000381     0.0000377   -0.0000264    -0.0088861    0.0107998 
   2.304250000     0.0048573    0.0131237     0.0000439   -0.0000288     0.0000489   -0.0000160    -0.0081979    0.0101868 
   2.324200000     0.0049163    0.0124807     0.0000641    0.0000181     0.0000523    0.0000279    -0.0074546    0.0115038 
   2.344150000     0.0054460    0.0124378     0.0000321    0.0000591     0.0000396    0.0000459    -0.0083860    0.0135485 
   2.364100000     0.0056369    0.0131212    -0.0000086    0.0000726     0.0000041    0.0000786    -0.0104333    0.0140739 
   2.384050000     0.0052558    0.0136378    -0.0000329    0.0000490    -0.0000401    0.0000588    -0.0118185    0.0127762 
   2.404000000     0.0042793    0.0133883    -0.0000306    0.0000312    -0.0000415    0.0000272    -0.0115316    0.0116815 
   2.423950000     0.0038871    0.0124849    -0.0000453    0.0000331    -0.0000467    0.0000095    -0.0102401    0.0124363 
   2.443900000     0.0042358    0.0116645    -0.0000579    0.0000035    -0.0000450   -0.0000055    -0.0103098    0.0146565 
   2.463850000     0.0050821    0.0115764    -0.0000480   -0.0000331    -0.0000421   -0.0000238    -0.0124054    0.0158787 
   2.483800000     0.0055091    0.0124723    -0.0000037   -0.0000533    -0.0000125   -0.0000462    -0.0141842    0.0152570 
   2.503750000     0.0046299    0.0135763     0.0000293   -0.0000340     0.0000264   -0.0000424    -0.0140960    0.0140952 
   2.523700000     0.0034043    0.0133086     0.0000355   -0.0000043     0.0000472   -0.0000131    -0.0127987    0.0146400 
   2.543650000     0.0025171    0.0120313     0.0000371   -0.0000120     0.0000459   -0.0000038    -0.0128714    0.0166730 
   2.563600000     0.0031759    0.0101954     0.0000476    0.0000017     0.0000440   -0.0000017    -0.0144678    0.0182304 
   2.583550000     0.0050601    0.0101015     0.0000480    0.0000263     0.0000481    0.0000085    -0.0157798    0.0178987 
   2.603500000     0.0061837    0.0120099     0.0000068    0.0000235     0.0000163    0.0000215    -0.0155016    0.0175369 
   2.623450000     0.0044365    0.0141022    -0.0000177    0.0000037    -0.0000166    0.0000247    -0.0148303    0.0187640 
   2.643400000     0.0014129    0.0134738    -0.0000252    0.0000020    -0.0000446   -0.0000029    -0.0154993    0.0207313 
   2.663350000     0.0005331    0.0101467    -0.0000380    0.0000007    -0.0000491   -0.0000211    -0.0174369    0.0222172 
   2.683300000     0.0030490    0.0079453    -0.0000708   -0.0000141    -0.0000511   -0.0000328    -0.0188995    0.0222281 
   2.703250000     0.0063391    0.0094605    -0.0000673   -0.0000455    -0.0000499   -0.0000262    -0.0189227    0.0219681 
   2.723200000     0.0063815    0.0131167    -0.0000459   -0.0000579    -0.0000496   -0.0000455    -0.0184888    0.0222859 
   2.743150000     0.0027226    0.0146096    -0.0000243   -0.0000350    -0.0000373   -0.0000520    -0.0185698    0.0237974 
   2.763100000    -0.0002785    0.0121317    -0.0000336   -0.0000176    -0.0000181   -0.0000346    -0.0193932    0.0256230 
   2.783050000     0.0005263    0.0085365    -0.0000289   -0.0000218    -0.0000186   -0.0000174    -0.0206152    0.0266450 
   2.803000000     0.0037926    0.0079567    -0.0000199   -0.0000058    -0.0000245    0.0000018    -0.0217706    0.0273044 
   2.822950000     0.0053012    0.0106392    -0.0000235    0.0000193    -0.0000296    0.0000073    -0.0221591    0.0272363 
   2.842900000     0.0036852    0.0131648    -0.0000462    0.0000332    -0.0000428    0.0000256    -0.0221892    0.0277323 
   2.862850000     0.0008631    0.0130761    -0.0000550    0.0000248    -0.0000639    0.0000301    -0.0215201    0.0289910 
   2.882800000    -0.0004242    0.0107551    -0.0000643    0.0000227    -0.0000618    0.0000219    -0.0219112    0.0312215 
   2.902750000     0.0004450    0.0086642    -0.0000629    0.0000247    -0.0000659    0.0000271    -0.0233551    0.0327058 
   2.922700000     0.0024384    0.0086941    -0.0000744    0.0000370    -0.0000732    0.0000325    -0.0249408    0.0324467 
   2.942650000     0.0036588    0.0103838    -0.0000897    0.0000224    -0.0000905    0.0000243    -0.0242576    0.0324506 
   2.962600000     0.0024579    0.0129555    -0.0000842    0.0000023    -0.0000977   -0.0000032    -0.0227959    0.0339666 
   2.982550000    -0.0007737    0.0136689    -0.0000749   -0.0000204    -0.0000639   -0.0000287    -0.0234071    0.0370783 
   3.002500000    -0.0035098    0.0111357    -0.0000563   -0.0000143    -0.0000562   -0.0000059    -0.0257370    0.0387567 
   3.022450000    -0.0027090    0.0072727    -0.0000628    0.0000009    -0.0000596   -0.0000056    -0.0269892    0.0379992 
   3.042400000     0.0011356    0.0065938    -0.0000642   -0.0000149    -0.0000660   -0.0000171    -0.0253706    0.0373482 
   3.062350000     0.0032334    0.0103195    -0.0000545   -0.0000212    -0.0000606   -0.0000319    -0.0230546    0.0400278 
   3.082300000     0.0003710    0.0141517    -0.0000459   -0.0000075    -0.0000413   -0.0000135    -0.0239918    0.0445362 
   3.102250000    -0.0047374    0.0127346    -0.0000607    0.0000118    -0.0000451    0.0000012    -0.0271011    0.0464121 
   3.122200000    -0.0056695    0.0078781    -0.0000812    0.0000353    -0.0000796    0.0000196    -0.0288428    0.0451851 
   3.142150000    -0.0016272    0.0056484    -0.0000832    0.0000057    -0.0000868    0.0000134    -0.0266472    0.0447227 
