! 9/28/2016 1:17:09 PM
! C:\USERS\ANRITSUUSER\DESKTOP\SWITCHES\OUTPUT1-RF1-ON.S2P
! CHANNEL.1
! TR.MEASUREMENT
! CORRECTED.DATA
# GHZ S RI R 50.0
! FREQ.GHZ         S11RE         S11IM         S21RE         S21IM         S12RE         S12IM         S22RE         S22IM         
!; PortSelection: Port_12
   0.010000000     0.0718053   -0.0037832     0.9179309   -0.0703009     0.9162953   -0.0795496     0.0717817   -0.0109609 
   0.029950000     0.0722226   -0.0076684     0.8957697   -0.1932219     0.8943739   -0.1909297     0.0679376   -0.0219811 
   0.049900000     0.0726010   -0.0150574     0.8596280   -0.3109333     0.8583871   -0.3086615     0.0613390   -0.0367524 
   0.069850000     0.0723778   -0.0225425     0.8082535   -0.4226781     0.8075366   -0.4201143     0.0514034   -0.0499116 
   0.089800000     0.0705469   -0.0302236     0.7428823   -0.5256892     0.7424890   -0.5230948     0.0378013   -0.0599469 
   0.109750000     0.0664828   -0.0385139     0.6646785   -0.6187733     0.6646826   -0.6164301     0.0210823   -0.0669734 
   0.129700000     0.0605322   -0.0480650     0.5755726   -0.7007480     0.5759870   -0.6980098     0.0032862   -0.0712323 
   0.149650000     0.0537367   -0.0561682     0.4755334   -0.7697239     0.4761828   -0.7670183    -0.0138321   -0.0706240 
   0.169600000     0.0458185   -0.0607485     0.3687378   -0.8242806     0.3693771   -0.8216544    -0.0312936   -0.0639326 
   0.189550000     0.0357862   -0.0635546     0.2550797   -0.8641363     0.2559550   -0.8615195    -0.0494493   -0.0529054 
   0.209500000     0.0246589   -0.0666850     0.1383023   -0.8889127     0.1395744   -0.8861262    -0.0666892   -0.0406254 
   0.229450000     0.0139491   -0.0685573     0.0179907   -0.8973185     0.0197190   -0.8950164    -0.0798445   -0.0263523 
   0.249400000     0.0046738   -0.0667794    -0.1006662   -0.8899214    -0.0985493   -0.8877427    -0.0871277   -0.0080314 
   0.269350000    -0.0055450   -0.0610153    -0.2170894   -0.8655213    -0.2147438   -0.8639631    -0.0900753    0.0137719 
   0.289300000    -0.0161825   -0.0541727    -0.3281886   -0.8287539    -0.3252948   -0.8265569    -0.0908350    0.0360138 
   0.309250000    -0.0248827   -0.0471299    -0.4354055   -0.7761211    -0.4312421   -0.7745898    -0.0874147    0.0580082 
   0.329200000    -0.0298575   -0.0384248    -0.5332729   -0.7089157    -0.5285255   -0.7090163    -0.0787108    0.0788161 
   0.349150000    -0.0314544   -0.0267839    -0.6182356   -0.6294363    -0.6154156   -0.6306173    -0.0652650    0.0981947 
   0.369100000    -0.0316948   -0.0144676    -0.6932998   -0.5445808    -0.6905167   -0.5439522    -0.0490102    0.1153210 
   0.389050000    -0.0298623   -0.0040858    -0.7601904   -0.4475324    -0.7547443   -0.4476642    -0.0302880    0.1274761 
   0.409000000    -0.0248776    0.0040804    -0.8104540   -0.3394471    -0.8054359   -0.3437289    -0.0078892    0.1347743 
   0.428950000    -0.0170948    0.0122012    -0.8411095   -0.2294149    -0.8406438   -0.2342102     0.0165449    0.1392898 
   0.448900000    -0.0077732    0.0187827    -0.8620718   -0.1228368    -0.8622739   -0.1234648     0.0410062    0.1395929 
   0.468850000     0.0006136    0.0211887    -0.8748154   -0.0089299    -0.8705117   -0.0098992     0.0630492    0.1333932 
   0.488800000     0.0090763    0.0189230    -0.8661624    0.1110802    -0.8627304    0.1049081     0.0835671    0.1199526 
   0.508750000     0.0184871    0.0147741    -0.8372920    0.2214808    -0.8395794    0.2157707     0.1031809    0.1036114 
   0.528700000     0.0272058    0.0103823    -0.8015351    0.3224732    -0.8038678    0.3223891     0.1204789    0.0845266 
   0.548650000     0.0319434    0.0045934    -0.7584882    0.4251435    -0.7560255    0.4246441     0.1306557    0.0627471 
   0.568600000     0.0328218   -0.0044631    -0.6943024    0.5266498    -0.6923709    0.5210862     0.1345466    0.0366466 
   0.588550000     0.0321249   -0.0143562    -0.6139177    0.6105119    -0.6173136    0.6056551     0.1337890    0.0103332 
   0.608500000     0.0296863   -0.0226549    -0.5295673    0.6806785    -0.5331768    0.6805997     0.1289547   -0.0148386 
   0.628450000     0.0234872   -0.0276072    -0.4411103    0.7466716    -0.4402704    0.7462963     0.1160790   -0.0373132 
   0.648400000     0.0143724   -0.0314126    -0.3360268    0.8026639    -0.3358606    0.7984980     0.0964079   -0.0590415 
   0.668350000     0.0042058   -0.0343461    -0.2241542    0.8383058    -0.2277998    0.8346877     0.0728529   -0.0781978 
   0.688300000    -0.0041123   -0.0336090    -0.1125748    0.8570535    -0.1153728    0.8571404     0.0479429   -0.0918043 
   0.708250000    -0.0121538   -0.0280898    -0.0006723    0.8668902    -0.0007776    0.8655668     0.0202984   -0.0968984 
   0.728200000    -0.0206640   -0.0187457     0.1182030    0.8604568     0.1165431    0.8564731    -0.0110443   -0.0942947 
   0.748150000    -0.0265463   -0.0074572     0.2340426    0.8336436     0.2284437    0.8313795    -0.0441678   -0.0868393 
   0.768100000    -0.0270232    0.0039241     0.3400957    0.7903157     0.3365671    0.7918792    -0.0743147   -0.0740634 
   0.788050000    -0.0234284    0.0165758     0.4387868    0.7396275     0.4384282    0.7387776    -0.0997546   -0.0542281 
   0.808000000    -0.0172823    0.0299908     0.5360763    0.6748139     0.5321423    0.6701566    -0.1210884   -0.0271358 
   0.827950000    -0.0083298    0.0412729     0.6226373    0.5917366     0.6136321    0.5912298    -0.1383514    0.0041780 
   0.847900000     0.0054405    0.0480052     0.6893937    0.4974939     0.6833551    0.5022504    -0.1489739    0.0375402 
   0.867850000     0.0230500    0.0505727     0.7424344    0.4030900     0.7403144    0.4063518    -0.1510625    0.0731425 
   0.887800000     0.0420121    0.0509580     0.7880931    0.3034197     0.7834926    0.3034496    -0.1461179    0.1104122 
   0.907750000     0.0597592    0.0467220     0.8212278    0.1928641     0.8130651    0.1971871    -0.1349804    0.1471775 
   0.927700000     0.0760670    0.0360277     0.8314062    0.0786485     0.8261361    0.0880869    -0.1173650    0.1799960 
   0.947650000     0.0915358    0.0194832     0.8248082   -0.0275894     0.8250183   -0.0179362    -0.0922262    0.2081420 
   0.967600000     0.1032839   -0.0001962     0.8114561   -0.1279315     0.8136042   -0.1208461    -0.0621725    0.2314561 
   0.987550000     0.1096040   -0.0214313     0.7902704   -0.2313163     0.7916916   -0.2252379    -0.0290362    0.2499989 
   1.007500000     0.1101625   -0.0455700     0.7498578   -0.3359477     0.7509675   -0.3270014     0.0070375    0.2613737 
   1.027450000     0.1060834   -0.0709949     0.6890103   -0.4268950     0.6966820   -0.4155088     0.0459560    0.2649119 
   1.047400000     0.0976375   -0.0948263     0.6250297   -0.4986648     0.6411518   -0.4952520     0.0859621    0.2613609 
   1.067350000     0.0839332   -0.1144603     0.5658695   -0.5677083     0.5762998   -0.5769247     0.1220649    0.2516990 
   1.087300000     0.0635713   -0.1319835     0.4952035   -0.6451301     0.4927615   -0.6499279     0.1565701    0.2355279 
   1.107250000     0.0398586   -0.1455533     0.3968818   -0.7075684     0.4008016   -0.7010482     0.1880057    0.2103441 
   1.127200000     0.0148551   -0.1549506     0.2980658   -0.7395449     0.3153602   -0.7430982     0.2170646    0.1813758 
   1.147150000    -0.0109566   -0.1570408     0.2160366   -0.7631831     0.2209377   -0.7847795     0.2379577    0.1495770 
   1.167100000    -0.0385700   -0.1539859     0.1267837   -0.8008117     0.1108484   -0.8110391     0.2516082    0.1151636 
   1.187050000    -0.0655294   -0.1443160     0.0089426   -0.8220968     0.0028246   -0.8124096     0.2549865    0.0746219 
   1.207000000    -0.0869732   -0.1321107    -0.1057757   -0.8045901    -0.0955005   -0.8064666     0.2532055    0.0327492 
   1.226950000    -0.1034333   -0.1150670    -0.1952100   -0.7773772    -0.2000504   -0.7944121     0.2456569   -0.0083814 
   1.246900000    -0.1160357   -0.0944091    -0.2869530   -0.7638449    -0.3077095   -0.7643668     0.2301106   -0.0449179 
   1.266850000    -0.1245903   -0.0707101    -0.4014346   -0.7300213    -0.4082466   -0.7135710     0.2031812   -0.0782279 
   1.286800000    -0.1263700   -0.0499559    -0.5032440   -0.6597590    -0.4966762   -0.6542562     0.1695184   -0.1061756 
   1.306750000    -0.1222790   -0.0316542    -0.5767312   -0.5844008    -0.5795581   -0.5846497     0.1331058   -0.1294373 
   1.326700000    -0.1135619   -0.0143328    -0.6514328   -0.5143095    -0.6546254   -0.5035570     0.0916052   -0.1429545 
   1.346650000    -0.1019446    0.0003773    -0.7273833   -0.4203535    -0.7168685   -0.4108282     0.0465177   -0.1446043 
   1.366600000    -0.0892855    0.0082498    -0.7774580   -0.3064825    -0.7673498   -0.3104527    -0.0002983   -0.1366717 
   1.386550000    -0.0771153    0.0083242    -0.8023878   -0.1989745    -0.8017068   -0.2020555    -0.0447987   -0.1226531 
   1.406500000    -0.0659284    0.0039938    -0.8236672   -0.0946117    -0.8187878   -0.0913823    -0.0859477   -0.0990526 
   1.426450000    -0.0573710   -0.0032204    -0.8325830    0.0248296    -0.8216172    0.0190901    -0.1200405   -0.0645321 
   1.446400000    -0.0538727   -0.0135812    -0.8104599    0.1446051    -0.8105041    0.1302194    -0.1472953   -0.0224330 
   1.466350000    -0.0563584   -0.0265845    -0.7716340    0.2448174    -0.7826286    0.2404051    -0.1663133    0.0231906 
   1.486300000    -0.0641925   -0.0385025    -0.7336716    0.3381153    -0.7364479    0.3435862    -0.1755213    0.0716618 
   1.506250000    -0.0766873   -0.0466080    -0.6824650    0.4405423    -0.6771539    0.4361276    -0.1728368    0.1220931 
   1.526200000    -0.0950010   -0.0521604    -0.5977309    0.5292749    -0.6074864    0.5176051    -0.1612716    0.1706946 
   1.546150000    -0.1186667   -0.0536367    -0.5067696    0.5805125    -0.5290739    0.5889523    -0.1392157    0.2186054 
   1.566100000    -0.1431131   -0.0485466    -0.4420173    0.6195355    -0.4415146    0.6484624    -0.1091142    0.2616924 
   1.586050000    -0.1660896   -0.0354746    -0.3730218    0.6864906    -0.3486746    0.6943661    -0.0711508    0.2978024 
   1.606000000    -0.1866985   -0.0154206    -0.2529633    0.7394204    -0.2503107    0.7253039    -0.0299850    0.3236982 
   1.625950000    -0.2066386    0.0099839    -0.1365540    0.7262879    -0.1526426    0.7389639     0.0143306    0.3428346 
   1.645900000    -0.2207063    0.0424496    -0.0836501    0.7040215    -0.0635663    0.7402358     0.0677850    0.3530897 
   1.665850000    -0.2253661    0.0760239    -0.0357185    0.7494834     0.0225177    0.7426218     0.1204639    0.3510174 
   1.685800000    -0.2250630    0.1131510     0.1094777    0.7906016     0.1216773    0.7343928     0.1690812    0.3435084 
   1.705750000    -0.2177556    0.1503441     0.2525601    0.7077659     0.2167920    0.6982605     0.2114661    0.3283737 
   1.725700000    -0.2045565    0.1907419     0.2740736    0.6160970     0.2842772    0.6520784     0.2596077    0.3062825 
   1.745650000    -0.1758854    0.2228562     0.2739115    0.6420079     0.3453942    0.6262138     0.3004543    0.2635241 
   1.765600000    -0.1509094    0.2491299     0.4248234    0.7008045     0.4305564    0.5924754     0.3297606    0.2317634 
   1.785550000    -0.1156461    0.2753867     0.6087873    0.5486697     0.5104541    0.5216956     0.3549895    0.1927607 
   1.805500000    -0.0807294    0.2954534     0.5754839    0.3822057     0.5520616    0.4473198     0.3739797    0.1515433 
   1.825450000    -0.0333618    0.3016234     0.5196772    0.4075323     0.5943474    0.3993743     0.3780159    0.0841936 
   1.845400000    -0.0017964    0.2997142     0.6968292    0.4720429     0.6632329    0.3373958     0.3690742    0.0397112 
   1.865350000     0.0454896    0.2998516     0.8771645    0.1993142     0.7168536    0.2358924     0.3723848   -0.0158375 
   1.885300000     0.0810905    0.2870059     0.7218767    0.0137755     0.7286616    0.1367114     0.3556210   -0.0642167 
   1.905250000     0.1214926    0.2663751     0.6538206    0.0745484     0.7391182    0.0609733     0.3199401   -0.1124069 
   1.925200000     0.1421531    0.2384164     0.8274543    0.0548950     0.7625107   -0.0291937     0.2807696   -0.1357444 
   1.945150000     0.1684009    0.2148712     0.8598683   -0.2309906     0.7626373   -0.1395127     0.2464104   -0.1720411 
   1.965100000     0.1860116    0.1809553     0.6863554   -0.3394440     0.7395451   -0.2423642     0.1922237   -0.1959642 
   1.985050000     0.1910467    0.1459919     0.6452545   -0.3241237     0.7102590   -0.3420219     0.1331127   -0.2016085 
   2.005000000     0.1891895    0.1193987     0.6907461   -0.4229385     0.6610388   -0.4452423     0.0792330   -0.1983987 
   2.024950000     0.1847462    0.0948457     0.6018093   -0.5951321     0.5919480   -0.5327855     0.0215953   -0.1900718 
   2.044900000     0.1761796    0.0748495     0.4543904   -0.6415646     0.5193874   -0.6100067    -0.0349094   -0.1668926 
   2.064850000     0.1597138    0.0611955     0.3918117   -0.6527328     0.4331050   -0.6863151    -0.0775677   -0.1254521 
   2.084800000     0.1468471    0.0593344     0.3301577   -0.7309003     0.3208606   -0.7463781    -0.1116761   -0.0825855 
   2.104750000     0.1372948    0.0571174     0.1871414   -0.7905121     0.2044014   -0.7715524    -0.1402307   -0.0272588 
   2.124700000     0.1319582    0.0634125     0.0569403   -0.7616432     0.1017544   -0.7795479    -0.1575138    0.0315817 
   2.144650000     0.1345201    0.0702330    -0.0021760   -0.7381282     0.0055827   -0.7884273    -0.1566542    0.0941761 
   2.164600000     0.1384773    0.0820988    -0.0815909   -0.7702895    -0.1087907   -0.7902979    -0.1462829    0.1443174 
   2.184550000     0.1544228    0.0911039    -0.2297986   -0.7642245    -0.2282673   -0.7559486    -0.1260816    0.2014937 
   2.204500000     0.1729523    0.0939880    -0.3387483   -0.6672255    -0.3192905   -0.6950031    -0.0918149    0.2494799 
   2.224450000     0.1990606    0.0906455    -0.3618147   -0.5973520    -0.3858142   -0.6485722    -0.0462336    0.2922434 
   2.244400000     0.2222378    0.0827030    -0.4089679   -0.5990493    -0.4741104   -0.6082391    -0.0028859    0.3182378 
   2.264350000     0.2553816    0.0695925    -0.5389537   -0.5708794    -0.5677798   -0.5268561     0.0460520    0.3495080 
   2.284300000     0.2818592    0.0410454    -0.6353211   -0.4323715    -0.6169521   -0.4220687     0.1054182    0.3589818 
   2.304250000     0.3053341    0.0104960    -0.6228098   -0.3190542    -0.6416517   -0.3468464     0.1599176    0.3610255 
   2.324200000     0.3216889   -0.0265163    -0.6216090   -0.2901269    -0.6869970   -0.2761325     0.2104922    0.3526825 
   2.344150000     0.3359679   -0.0687748    -0.6993112   -0.2505236    -0.7265700   -0.1729275     0.2609913    0.3427127 
   2.364100000     0.3372702   -0.1217622    -0.7674765   -0.1132827    -0.7267144   -0.0655288     0.3128226    0.3156520 
   2.384050000     0.3288257   -0.1724447    -0.7334628    0.0257794    -0.7160540    0.0196882     0.3538508    0.2821873 
   2.404000000     0.3146650   -0.2223738    -0.6842912    0.0854586    -0.7063125    0.1050059     0.3888190    0.2474846 
   2.423950000     0.2921811   -0.2703555    -0.6910793    0.1279962    -0.6837862    0.1916095     0.4194500    0.2080944 
   2.443900000     0.2589212   -0.3144425    -0.7171765    0.2272183    -0.6564790    0.2716889     0.4427458    0.1610888 
   2.463850000     0.2145116   -0.3525988    -0.6767491    0.3652912    -0.6198418    0.3632212     0.4573058    0.1067413 
   2.483800000     0.1643260   -0.3797297    -0.5795256    0.4497290    -0.5476128    0.4436304     0.4606500    0.0538232 
   2.503750000     0.1144955   -0.4025175    -0.5095910    0.4786626    -0.4739285    0.4825461     0.4617926    0.0062930 
   2.523700000     0.0584559   -0.4167193    -0.4896005    0.5249593    -0.4354711    0.5189648     0.4547141   -0.0433498 
   2.543650000     0.0016916   -0.4194460    -0.4432803    0.6320707    -0.3837376    0.5942363     0.4360876   -0.0917317 
   2.563600000    -0.0551653   -0.4077051    -0.3106560    0.7131730    -0.2797620    0.6491985     0.4029061   -0.1382421 
   2.583550000    -0.1006107   -0.3904751    -0.1865655    0.7023592    -0.1887102    0.6504697     0.3698238   -0.1719450 
   2.603500000    -0.1500518   -0.3686991    -0.1372836    0.6918415    -0.1372399    0.6627955     0.3332662   -0.2090183 
   2.623450000    -0.1901682   -0.3327076    -0.0777437    0.7482016    -0.0611012    0.7052277     0.2829678   -0.2365366 
   2.643400000    -0.2205429   -0.2930549     0.0645543    0.7865297     0.0508867    0.7159158     0.2249407   -0.2526151 
   2.663350000    -0.2371479   -0.2573164     0.1948831    0.7312974     0.1427293    0.6898078     0.1704741   -0.2567115 
   2.683300000    -0.2540939   -0.2206966     0.2530876    0.6814377     0.2165522    0.6772362     0.1152647   -0.2579997 
   2.703250000    -0.2562936   -0.1811618     0.3277571    0.6765671     0.3144766    0.6597812     0.0594980   -0.2416311 
   2.723200000    -0.2492833   -0.1480187     0.4467662    0.6363323     0.4102367    0.6088604     0.0076801   -0.2091925 
   2.743150000    -0.2393297   -0.1254497     0.5302890    0.5444433     0.4845997    0.5470677    -0.0390427   -0.1671402 
   2.763100000    -0.2299085   -0.1061705     0.5794525    0.4746202     0.5605624    0.4880776    -0.0805336   -0.1155665 
   2.783050000    -0.2161112   -0.0966476     0.6488581    0.4053554     0.6389299    0.3996609    -0.1054275   -0.0589734 
   2.803000000    -0.2061973   -0.0965562     0.7051600    0.3018388     0.6835090    0.2913537    -0.1166756    0.0008878 
   2.822950000    -0.2044397   -0.1032285     0.7264405    0.2024554     0.7002981    0.1953530    -0.1147172    0.0657187 
   2.842900000    -0.2075770   -0.1087802     0.7529017    0.1129193     0.7221991    0.1111412    -0.0949230    0.1298267 
   2.862850000    -0.2150709   -0.1186967     0.7675465   -0.0021677     0.7421222    0.0008181    -0.0644272    0.1852543 
   2.882800000    -0.2342719   -0.1232467     0.7444397   -0.1095739     0.7158820   -0.1241878    -0.0243821    0.2340166 
   2.902750000    -0.2637383   -0.1194323     0.7239905   -0.1958004     0.6558086   -0.2032631     0.0250525    0.2742731 
   2.922700000    -0.2933483   -0.1098072     0.7011564   -0.3056249     0.6280852   -0.2551842     0.0781627    0.2985531 
   2.942650000    -0.3278254   -0.0995574     0.6284288   -0.4081504     0.6123932   -0.3431213     0.1345292    0.3170613 
   2.962600000    -0.3606263   -0.0731635     0.5555491   -0.4606450     0.5339743   -0.4458496     0.1960225    0.3199663 
   2.982550000    -0.3869342   -0.0336700     0.5136494   -0.5248696     0.4370161   -0.4728198     0.2544776    0.3116737 
   3.002500000    -0.4071654    0.0056819     0.4274640   -0.6200483     0.4012336   -0.4872918     0.3035941    0.2954355 
   3.022450000    -0.4310535    0.0522941     0.2963977   -0.6479170     0.3675095   -0.5543231     0.3582240    0.2753083 
   3.042400000    -0.4369472    0.1074697     0.2287616   -0.6329404     0.2637725   -0.6147645     0.4054344    0.2380612 
   3.062350000    -0.4303935    0.1632421     0.1844205   -0.6769248     0.1752276   -0.6000924     0.4418143    0.1992458 
   3.082300000    -0.4205278    0.2152455     0.0592351   -0.7288913     0.1418529   -0.6060200     0.4693929    0.1605237 
   3.102250000    -0.4045545    0.2762006    -0.0701586   -0.6749698     0.0759671   -0.6574645     0.4983786    0.1094778 
   3.122200000    -0.3693039    0.3269417    -0.1026078   -0.6228681    -0.0408397   -0.6604242     0.5098801    0.0526111 
   3.142150000    -0.3273459    0.3701536    -0.1481260   -0.6503592    -0.1051755   -0.6202933     0.5187086    0.0016847 
