! 9/28/2016 1:18:38 PM
! C:\USERS\ANRITSUUSER\DESKTOP\SWITCHES\OUTPUT1-RF1-OFF.S2P
! CHANNEL.1
! TR.MEASUREMENT
! CORRECTED.DATA
# GHZ S RI R 50.0
! FREQ.GHZ         S11RE         S11IM         S21RE         S21IM         S12RE         S12IM         S22RE         S22IM         
!; PortSelection: Port_12
   0.010000000     0.0657955   -0.0023979     0.0000179   -0.0000138     0.0000127    0.0000008    -0.0261910    0.0059254 
   0.029950000     0.0670320   -0.0044619    -0.0000010    0.0000374     0.0000045    0.0000467    -0.0235557    0.0097882 
   0.049900000     0.0685360   -0.0102177     0.0000175    0.0000623     0.0000111    0.0000650    -0.0211678    0.0132651 
   0.069850000     0.0697298   -0.0165697     0.0000346    0.0000972     0.0000397    0.0000908    -0.0186022    0.0168599 
   0.089800000     0.0691773   -0.0234686     0.0000676    0.0001223     0.0000714    0.0001215    -0.0168139    0.0203872 
   0.109750000     0.0665641   -0.0310984     0.0000933    0.0001378     0.0000945    0.0001438    -0.0158901    0.0230384 
   0.129700000     0.0626346   -0.0398468     0.0001295    0.0001481     0.0001257    0.0001433    -0.0142955    0.0241573 
   0.149650000     0.0583283   -0.0480963     0.0001723    0.0001626     0.0001768    0.0001515    -0.0109775    0.0255166 
   0.169600000     0.0522620   -0.0540685     0.0002209    0.0001516     0.0002228    0.0001503    -0.0076886    0.0285656 
   0.189550000     0.0432246   -0.0583786     0.0002690    0.0001482     0.0002684    0.0001502    -0.0063354    0.0322623 
   0.209500000     0.0323631   -0.0624383     0.0003301    0.0001159     0.0003180    0.0001104    -0.0057193    0.0341897 
   0.229450000     0.0221068   -0.0651382     0.0003749    0.0000759     0.0003730    0.0000694    -0.0036722    0.0344594 
   0.249400000     0.0129822   -0.0644772     0.0004256    0.0000322     0.0004214    0.0000327    -0.0000705    0.0356852 
   0.269350000     0.0029491   -0.0599265     0.0004635   -0.0000194     0.0004623   -0.0000185     0.0034134    0.0383728 
   0.289300000    -0.0073517   -0.0540471     0.0004892   -0.0001008     0.0004867   -0.0000980     0.0057216    0.0406939 
   0.309250000    -0.0151808   -0.0474287     0.0005115   -0.0001652     0.0005016   -0.0001722     0.0081766    0.0417585 
   0.329200000    -0.0196217   -0.0393699     0.0004993   -0.0002526     0.0005082   -0.0002494     0.0116596    0.0422935 
   0.349150000    -0.0212351   -0.0284115     0.0005012   -0.0003245     0.0004964   -0.0003258     0.0157432    0.0436300 
   0.369100000    -0.0220930   -0.0172568     0.0004773   -0.0004127     0.0004762   -0.0004155     0.0186992    0.0450050 
   0.389050000    -0.0208193   -0.0080195     0.0004470   -0.0005084     0.0004349   -0.0005012     0.0208911    0.0442591 
   0.409000000    -0.0154652   -0.0007887     0.0003959   -0.0005816     0.0003944   -0.0005841     0.0246286    0.0424379 
   0.428950000    -0.0071340    0.0058204     0.0003527   -0.0006635     0.0003420   -0.0006419     0.0290743    0.0410804 
   0.448900000     0.0013850    0.0116854     0.0002733   -0.0007344     0.0002711   -0.0007253     0.0320454    0.0404127 
   0.468850000     0.0089174    0.0137235     0.0001974   -0.0008019     0.0001947   -0.0008000     0.0331544    0.0379003 
   0.488800000     0.0170453    0.0110825     0.0000971   -0.0008573     0.0001018   -0.0008440     0.0347379    0.0333332 
   0.508750000     0.0264727    0.0058205    -0.0000155   -0.0008924    -0.0000208   -0.0008900     0.0371557    0.0288463 
   0.528700000     0.0345265    0.0001333    -0.0001460   -0.0009244    -0.0001437   -0.0009100     0.0389712    0.0253952 
   0.548650000     0.0383240   -0.0068390    -0.0002823   -0.0009405    -0.0002902   -0.0009330     0.0378238    0.0224158 
   0.568600000     0.0388118   -0.0164981    -0.0004346   -0.0009266    -0.0004344   -0.0009224     0.0349703    0.0176913 
   0.588550000     0.0378465   -0.0276580    -0.0005886   -0.0008984    -0.0005726   -0.0008965     0.0325423    0.0120713 
   0.608500000     0.0348411   -0.0368219    -0.0007453   -0.0008591    -0.0007444   -0.0008391     0.0299675    0.0082760 
   0.628450000     0.0282432   -0.0430341    -0.0009033   -0.0007479    -0.0008946   -0.0007412     0.0250448    0.0066073 
   0.648400000     0.0179893   -0.0477479    -0.0009957   -0.0006480    -0.0009837   -0.0006478     0.0170151    0.0046073 
   0.668350000     0.0062618   -0.0515997    -0.0010901   -0.0005535    -0.0010785   -0.0005492     0.0090156    0.0017316 
   0.688300000    -0.0042618   -0.0518966    -0.0012082   -0.0004400    -0.0011970   -0.0004349     0.0024094    0.0006880 
   0.708250000    -0.0143051   -0.0473221    -0.0013040   -0.0002944    -0.0012947   -0.0002878    -0.0045123    0.0034387 
   0.728200000    -0.0246051   -0.0388613    -0.0013872   -0.0001095    -0.0013690   -0.0001120    -0.0137813    0.0084759 
   0.748150000    -0.0329293   -0.0287148    -0.0014376    0.0000980    -0.0014262    0.0000987    -0.0240174    0.0137158 
   0.768100000    -0.0368309   -0.0172321    -0.0014639    0.0003218    -0.0014543    0.0003251    -0.0325559    0.0192451 
   0.788050000    -0.0365118   -0.0033668    -0.0014510    0.0005238    -0.0014496    0.0005247    -0.0387180    0.0277272 
   0.808000000    -0.0331664    0.0111943    -0.0013988    0.0007329    -0.0013949    0.0007245    -0.0437267    0.0391223 
   0.827950000    -0.0267933    0.0234488    -0.0013204    0.0009297    -0.0013070    0.0009148    -0.0484421    0.0521053 
   0.847900000    -0.0157378    0.0317909    -0.0012059    0.0011138    -0.0011906    0.0011010    -0.0511395    0.0647827 
   0.867850000    -0.0000774    0.0373843    -0.0010654    0.0012744    -0.0010595    0.0012646    -0.0504020    0.0786501 
   0.887800000     0.0173417    0.0409096    -0.0008849    0.0014305    -0.0008825    0.0014152    -0.0471051    0.0943508 
   0.907750000     0.0336908    0.0395607    -0.0006834    0.0015782    -0.0006753    0.0015540    -0.0424224    0.1102280 
   0.927700000     0.0488589    0.0319976    -0.0004622    0.0016844    -0.0004602    0.0016789    -0.0355838    0.1242238 
   0.947650000     0.0634671    0.0190312    -0.0002377    0.0017837    -0.0002442    0.0017675    -0.0252154    0.1366073 
   0.967600000     0.0763756    0.0031750    -0.0000110    0.0018177    -0.0000214    0.0018268    -0.0118383    0.1483392 
   0.987550000     0.0837721   -0.0150837     0.0002577    0.0018399     0.0002369    0.0018312     0.0032055    0.1586336 
   1.007500000     0.0856087   -0.0363629     0.0004855    0.0017896     0.0004744    0.0017778     0.0192959    0.1656241 
   1.027450000     0.0827754   -0.0594082     0.0006956    0.0016972     0.0006757    0.0016918     0.0379751    0.1691152 
   1.047400000     0.0760536   -0.0816748     0.0008723    0.0015820     0.0008646    0.0015884     0.0579714    0.1705236 
   1.067350000     0.0638865   -0.1005243     0.0010370    0.0014609     0.0010498    0.0014741     0.0770316    0.1692269 
   1.087300000     0.0454623   -0.1163458     0.0012226    0.0013586     0.0012354    0.0013446     0.0947118    0.1637529 
   1.107250000     0.0235781   -0.1292326     0.0014015    0.0012259     0.0013790    0.0012262     0.1125403    0.1529904 
   1.127200000    -0.0000144   -0.1378006     0.0015395    0.0010671     0.0015295    0.0010930     0.1307044    0.1403686 
   1.147150000    -0.0243906   -0.1388308     0.0016752    0.0009618     0.0016983    0.0009587     0.1461307    0.1270736 
   1.167100000    -0.0499595   -0.1340956     0.0018718    0.0008288     0.0018991    0.0007955     0.1560799    0.1116560 
   1.187050000    -0.0751064   -0.1249622     0.0020579    0.0005783     0.0020417    0.0005536     0.1612796    0.0923179 
   1.207000000    -0.0962564   -0.1123512     0.0021433    0.0002808     0.0021155    0.0002930     0.1644230    0.0692532 
   1.226950000    -0.1117324   -0.0944136     0.0021704    0.0000134     0.0021962   -0.0000005     0.1659577    0.0462154 
   1.246900000    -0.1229228   -0.0724824     0.0022155   -0.0002576     0.0022225   -0.0002992     0.1625214    0.0258176 
   1.266850000    -0.1296132   -0.0485770     0.0022477   -0.0005716     0.0022055   -0.0005980     0.1526867    0.0061988 
   1.286800000    -0.1311717   -0.0268005     0.0022142   -0.0009115     0.0021759   -0.0009103     0.1381794   -0.0131166 
   1.306750000    -0.1256850   -0.0065920     0.0021363   -0.0012242     0.0021124   -0.0012182     0.1216110   -0.0306785 
   1.326700000    -0.1149420    0.0117849     0.0020363   -0.0015280     0.0020015   -0.0015471     0.1026699   -0.0429521 
   1.346650000    -0.1017139    0.0268642     0.0018570   -0.0018398     0.0018143   -0.0018345     0.0795843   -0.0492589 
   1.366600000    -0.0877323    0.0357726     0.0015905   -0.0021368     0.0015648   -0.0020966     0.0523549   -0.0516615 
   1.386550000    -0.0724841    0.0375509     0.0012663   -0.0023541     0.0012533   -0.0023268     0.0245384   -0.0504237 
   1.406500000    -0.0571825    0.0341397     0.0009205   -0.0025198     0.0009135   -0.0024938    -0.0009073   -0.0436297 
   1.426450000    -0.0449723    0.0272313     0.0005324   -0.0026426     0.0005283   -0.0026176    -0.0248376   -0.0300252 
   1.446400000    -0.0374029    0.0163239     0.0001149   -0.0027074     0.0001286   -0.0026978    -0.0472279   -0.0101517 
   1.466350000    -0.0359029    0.0027046    -0.0002628   -0.0027268    -0.0002672   -0.0027352    -0.0666627    0.0137868 
   1.486300000    -0.0393032   -0.0118452    -0.0006406   -0.0027207    -0.0006550   -0.0027087    -0.0806203    0.0410826 
   1.506250000    -0.0478092   -0.0236774    -0.0010356   -0.0026354    -0.0010219   -0.0026240    -0.0885206    0.0713596 
   1.526200000    -0.0629372   -0.0321913    -0.0013710   -0.0024739    -0.0013575   -0.0024739    -0.0899912    0.1042949 
   1.546150000    -0.0828101   -0.0364486    -0.0016229   -0.0022512    -0.0016306   -0.0022898    -0.0851975    0.1381808 
   1.566100000    -0.1045237   -0.0360721    -0.0018185   -0.0020466    -0.0018831   -0.0020560    -0.0738534    0.1713511 
   1.586050000    -0.1263260   -0.0285467    -0.0020827   -0.0018170    -0.0021098   -0.0017567    -0.0567611    0.2028503 
   1.606000000    -0.1472315   -0.0134641    -0.0023531   -0.0014671    -0.0023005   -0.0014490    -0.0351265    0.2304579 
   1.625950000    -0.1663994    0.0076508    -0.0024468   -0.0010675    -0.0024690   -0.0011204    -0.0082062    0.2525866 
   1.645900000    -0.1810027    0.0332046    -0.0024555   -0.0008228    -0.0025504   -0.0008092     0.0245221    0.2689382 
   1.665850000    -0.1892717    0.0628445    -0.0026439   -0.0006640    -0.0026454   -0.0005017     0.0613383    0.2810609 
   1.685800000    -0.1906705    0.0963633    -0.0029072   -0.0002520    -0.0027581   -0.0001619     0.0984216    0.2879737 
   1.705750000    -0.1854172    0.1314072    -0.0028571    0.0002617    -0.0027609    0.0001682     0.1343391    0.2875155 
   1.725700000    -0.1735643    0.1656292    -0.0026081    0.0004350    -0.0027064    0.0003988     0.1705996    0.2783735 
   1.745650000    -0.1542147    0.1960901    -0.0026616    0.0004220    -0.0026930    0.0006258     0.2081065    0.2625463 
   1.765600000    -0.1278022    0.2241377    -0.0029825    0.0007739    -0.0026700    0.0009606     0.2436834    0.2439827 
   1.785550000    -0.0963327    0.2470394    -0.0027762    0.0015636    -0.0025146    0.0013365     0.2727107    0.2216718 
   1.805500000    -0.0620803    0.2632724    -0.0021316    0.0017725    -0.0023094    0.0015760     0.2932425    0.1925667 
   1.825450000    -0.0247346    0.2715192    -0.0020376    0.0016175    -0.0021546    0.0018236     0.3095457    0.1533531 
   1.845400000     0.0145349    0.2723333    -0.0024646    0.0020740    -0.0019864    0.0022257     0.3240879    0.1108060 
   1.865350000     0.0529775    0.2659301    -0.0018820    0.0032094    -0.0016818    0.0026157     0.3336467    0.0675184 
   1.885300000     0.0883987    0.2528072    -0.0008880    0.0030643    -0.0013278    0.0028184     0.3332628    0.0262168 
   1.905250000     0.1193464    0.2323808    -0.0009079    0.0026691    -0.0010599    0.0030072     0.3215773   -0.0124077 
   1.925200000     0.1457953    0.2069689    -0.0012019    0.0032303    -0.0007563    0.0032412     0.3041559   -0.0487767 
   1.945150000     0.1652931    0.1780241    -0.0003090    0.0040072    -0.0003433    0.0034268     0.2805293   -0.0844422 
   1.965100000     0.1774707    0.1478563     0.0005590    0.0035454     0.0001015    0.0034879     0.2505432   -0.1142649 
   1.985050000     0.1816342    0.1174771     0.0006452    0.0031974     0.0005406    0.0034945     0.2121108   -0.1369901 
   2.005000000     0.1790661    0.0890124     0.0008584    0.0034430     0.0010565    0.0034447     0.1677787   -0.1534555 
   2.024950000     0.1704716    0.0643948     0.0016892    0.0035496     0.0015577    0.0032982     0.1194069   -0.1627287 
   2.044900000     0.1584898    0.0462246     0.0023650    0.0030297     0.0020722    0.0031234     0.0703756   -0.1625727 
   2.064850000     0.1435650    0.0347181     0.0025858    0.0025991     0.0025952    0.0028344     0.0236701   -0.1507568 
   2.084800000     0.1283461    0.0304679     0.0029233    0.0024250     0.0030546    0.0024295    -0.0209940   -0.1274582 
   2.104750000     0.1155132    0.0317968     0.0033951    0.0020062     0.0033429    0.0019644    -0.0609684   -0.0936348 
   2.124700000     0.1074304    0.0384873     0.0035949    0.0013452     0.0035256    0.0014989    -0.0943421   -0.0513473 
   2.144650000     0.1053346    0.0490713     0.0035462    0.0008896     0.0036767    0.0010349    -0.1185201   -0.0031864 
   2.164600000     0.1093330    0.0609873     0.0036568    0.0005549     0.0038024    0.0005176    -0.1310132    0.0490008 
   2.184550000     0.1195133    0.0711035     0.0037833   -0.0000140     0.0037699   -0.0000470    -0.1308238    0.1031647 
   2.204500000     0.1366990    0.0777611     0.0035734   -0.0006663     0.0036137   -0.0005190    -0.1191101    0.1575830 
   2.224450000     0.1594501    0.0797293     0.0032791   -0.0009466     0.0034884   -0.0009197    -0.0960708    0.2102286 
   2.244400000     0.1850974    0.0753337     0.0032762   -0.0011266     0.0034478   -0.0013653    -0.0641355    0.2567936 
   2.264350000     0.2118051    0.0639816     0.0033700   -0.0016373     0.0032753   -0.0018665    -0.0236167    0.2954669 
   2.284300000     0.2373933    0.0443303     0.0030514   -0.0022783     0.0029624   -0.0022278     0.0230860    0.3246023 
   2.304250000     0.2610219    0.0175884     0.0025681   -0.0024658     0.0027165   -0.0024589     0.0751150    0.3453609 
   2.324200000     0.2792397   -0.0157796     0.0024352   -0.0024653     0.0025073   -0.0027701     0.1287577    0.3560373 
   2.344150000     0.2912338   -0.0548881     0.0024283   -0.0028177     0.0021516   -0.0031192     0.1835897    0.3559790 
   2.364100000     0.2952988   -0.0984454     0.0020222   -0.0034295     0.0016983   -0.0033411     0.2371612    0.3460263 
   2.384050000     0.2919149   -0.1445490     0.0013314   -0.0036664     0.0012922   -0.0035123     0.2898810    0.3277824 
   2.404000000     0.2800620   -0.1906012     0.0009439   -0.0035962     0.0008954   -0.0037024     0.3369995    0.3027894 
   2.423950000     0.2599835   -0.2336934     0.0007925   -0.0037289     0.0004725   -0.0038284     0.3779639    0.2706377 
   2.443900000     0.2302137   -0.2734101     0.0003956   -0.0041682     0.0000145   -0.0039557     0.4119776    0.2306608 
   2.463850000     0.1924315   -0.3081885    -0.0003911   -0.0044503    -0.0005520   -0.0040654     0.4397263    0.1833722 
   2.483800000     0.1485751   -0.3366140    -0.0011042   -0.0042259    -0.0011344   -0.0039545     0.4617130    0.1317104 
   2.503750000     0.1009208   -0.3568689    -0.0014693   -0.0039243    -0.0015516   -0.0037208     0.4763495    0.0784311 
   2.523700000     0.0518008   -0.3677050    -0.0017960   -0.0039342    -0.0018935   -0.0036107     0.4815976    0.0261905 
   2.543650000     0.0012013   -0.3679888    -0.0025479   -0.0040170    -0.0024884   -0.0035023     0.4756495   -0.0263958 
   2.563600000    -0.0484596   -0.3598129    -0.0034508   -0.0034973    -0.0031144   -0.0030647     0.4599178   -0.0798794 
   2.583550000    -0.0946506   -0.3429165    -0.0037850   -0.0026476    -0.0033853   -0.0025519     0.4359958   -0.1323892 
   2.603500000    -0.1345854   -0.3190411    -0.0038400   -0.0022599    -0.0036551   -0.0022122     0.4035911   -0.1792150 
   2.623450000    -0.1665079   -0.2883053    -0.0043457   -0.0020701    -0.0041344   -0.0018130     0.3616863   -0.2197510 
   2.643400000    -0.1919092   -0.2540335    -0.0050065   -0.0012783    -0.0044753   -0.0011492     0.3098588   -0.2534896 
   2.663350000    -0.2075960   -0.2185879    -0.0049691   -0.0002139    -0.0045553   -0.0005203     0.2509890   -0.2789821 
   2.683300000    -0.2155355   -0.1845262    -0.0046847    0.0002830    -0.0046288    0.0000175     0.1892480   -0.2930634 
   2.703250000    -0.2149190   -0.1534619    -0.0048235    0.0006774    -0.0047267    0.0006736     0.1264059   -0.2929674 
   2.723200000    -0.2088944   -0.1273443    -0.0048397    0.0015475    -0.0045904    0.0013720     0.0615262   -0.2766060 
   2.743150000    -0.1983876   -0.1085993    -0.0043490    0.0023313    -0.0043287    0.0019552    -0.0025568   -0.2461095 
   2.763100000    -0.1870823   -0.0976107    -0.0039247    0.0027256    -0.0040670    0.0025531    -0.0611398   -0.2037995 
   2.783050000    -0.1759229   -0.0936636    -0.0036867    0.0031774    -0.0036738    0.0031801    -0.1074724   -0.1506438 
   2.803000000    -0.1689026   -0.0953429    -0.0031963    0.0037408    -0.0031199    0.0036532    -0.1391389   -0.0864043 
   2.822950000    -0.1677797   -0.1021885    -0.0026000    0.0040402    -0.0025940    0.0039277    -0.1541145   -0.0141734 
   2.842900000    -0.1730578   -0.1119800    -0.0021877    0.0042980    -0.0021525    0.0042090    -0.1541598    0.0615958 
   2.862850000    -0.1840353   -0.1212037    -0.0016372    0.0045886    -0.0015793    0.0045065    -0.1376378    0.1356286 
   2.882800000    -0.2025352   -0.1256528    -0.0009763    0.0047105    -0.0008383    0.0046078    -0.1054364    0.2031859 
   2.902750000    -0.2283309   -0.1249232    -0.0004720    0.0047706    -0.0002543    0.0044659    -0.0602617    0.2614174 
   2.922700000    -0.2595994   -0.1182994     0.0001287    0.0049547     0.0000982    0.0044504    -0.0045077    0.3070437 
   2.942650000    -0.2915774   -0.1057637     0.0008943    0.0048747     0.0006106    0.0046023     0.0588199    0.3394181 
   2.962600000    -0.3213528   -0.0831685     0.0013962    0.0046143     0.0013665    0.0044508     0.1273808    0.3574085 
   2.982550000    -0.3486904   -0.0506233     0.0018678    0.0046031     0.0018117    0.0040110     0.1957723    0.3630534 
   3.002500000    -0.3735341   -0.0112045     0.0027088    0.0045046     0.0020312    0.0039007     0.2626428    0.3546885 
   3.022450000    -0.3922566    0.0319752     0.0033286    0.0038653     0.0025354    0.0039383     0.3257303    0.3348546 
   3.042400000    -0.4005037    0.0787726     0.0034621    0.0033946     0.0032259    0.0035278     0.3846990    0.3040341 
   3.062350000    -0.3980759    0.1300856     0.0039006    0.0032960     0.0034695    0.0029283     0.4357922    0.2677286 
   3.082300000    -0.3880611    0.1834325     0.0047790    0.0026890     0.0036805    0.0027368     0.4783675    0.2236504 
   3.102250000    -0.3711249    0.2342927     0.0049248    0.0016154     0.0042666    0.0024608     0.5116792    0.1718023 
   3.122200000    -0.3452689    0.2806945     0.0047019    0.0011797     0.0047088    0.0017068     0.5375937    0.1141309 
   3.142150000    -0.3091052    0.3221290     0.0051227    0.0009857     0.0047190    0.0011288     0.5564994    0.0559898 
