! 9/28/2016 1:20:37 PM
! C:\USERS\ANRITSUUSER\DESKTOP\SWITCHES\OUTPUT1-RF2-ON.S2P
! CHANNEL.1
! TR.MEASUREMENT
! CORRECTED.DATA
# GHZ S RI R 50.0
! FREQ.GHZ         S11RE         S11IM         S21RE         S21IM         S12RE         S12IM         S22RE         S22IM         
!; PortSelection: Port_12
   0.010000000     0.0718987   -0.0036255     0.9179512   -0.0701081     0.9165702   -0.0791954     0.0718916   -0.0106859 
   0.029950000     0.0723680   -0.0071605     0.8960502   -0.1923820     0.8945448   -0.1900896     0.0683218   -0.0214427 
   0.049900000     0.0727571   -0.0144017     0.8601556   -0.3095036     0.8590584   -0.3073027     0.0620515   -0.0359564 
   0.069850000     0.0725303   -0.0216021     0.8093404   -0.4208232     0.8085621   -0.4183904     0.0526063   -0.0492418 
   0.089800000     0.0705903   -0.0289600     0.7444818   -0.5234844     0.7440473   -0.5209346     0.0398118   -0.0596084 
   0.109750000     0.0664496   -0.0367893     0.6669307   -0.6164931     0.6669389   -0.6141139     0.0238355   -0.0673904 
   0.129700000     0.0606445   -0.0456430     0.5786123   -0.6984327     0.5789608   -0.6956382     0.0067106   -0.0725651 
   0.149650000     0.0542036   -0.0530461     0.4793479   -0.7674687     0.4799002   -0.7647609    -0.0099214   -0.0729435 
   0.169600000     0.0468637   -0.0569510     0.3733951   -0.8223190     0.3740438   -0.8197060    -0.0270379   -0.0675629 
   0.189550000     0.0374534   -0.0591837     0.2605053   -0.8625684     0.2614250   -0.8600717    -0.0453381   -0.0579486 
   0.209500000     0.0271488   -0.0618824     0.1444641   -0.8880504     0.1457905   -0.8854353    -0.0630992   -0.0472015 
   0.229450000     0.0175417   -0.0634089     0.0249952   -0.8974125     0.0265137   -0.8951735    -0.0771596   -0.0346532 
   0.249400000     0.0094799   -0.0615487    -0.0932878   -0.8910567    -0.0911766   -0.8889613    -0.0855894   -0.0178123 
   0.269350000     0.0003647   -0.0558653    -0.2094128   -0.8678722    -0.2071284   -0.8663065    -0.0902309    0.0027369 
   0.289300000    -0.0087332   -0.0495368    -0.3202065   -0.8323717    -0.3177197   -0.8301855    -0.0929091    0.0240327 
   0.309250000    -0.0160328   -0.0431020    -0.4275505   -0.7812598    -0.4236053   -0.7796204    -0.0917938    0.0453431 
   0.329200000    -0.0199617   -0.0355250    -0.5258794   -0.7153600    -0.5212221   -0.7153581    -0.0854623    0.0658721 
   0.349150000    -0.0203231   -0.0250309    -0.6116562   -0.6371820    -0.6087995   -0.6383057    -0.0746519    0.0855007 
   0.369100000    -0.0195438   -0.0141951    -0.6873030   -0.5534958    -0.6847317   -0.5529317    -0.0611516    0.1034280 
   0.389050000    -0.0169749   -0.0054028    -0.7550985   -0.4580766    -0.7500889   -0.4575199    -0.0450133    0.1171098 
   0.409000000    -0.0116389    0.0011715    -0.8071930   -0.3512074    -0.8017148   -0.3548971    -0.0249711    0.1264310 
   0.428950000    -0.0037429    0.0073749    -0.8395669   -0.2412914    -0.8383289   -0.2463335    -0.0026538    0.1333088 
   0.448900000     0.0052038    0.0120443    -0.8617015   -0.1349961    -0.8618340   -0.1362359     0.0204143    0.1365226 
   0.468850000     0.0130179    0.0126401    -0.8754812   -0.0221316    -0.8716645   -0.0228330     0.0414841    0.1336542 
   0.488800000     0.0207165    0.0084522    -0.8696526    0.0973292    -0.8652653    0.0917377     0.0618724    0.1237779 
   0.508750000     0.0292408    0.0028383    -0.8428873    0.2086740    -0.8439463    0.2022631     0.0815944    0.1110454 
   0.528700000     0.0365502   -0.0031119    -0.8079553    0.3104118    -0.8106773    0.3090291     0.0999424    0.0956730 
   0.548650000     0.0396546   -0.0097062    -0.7662961    0.4126169    -0.7648065    0.4124155     0.1122823    0.0771380 
   0.568600000     0.0390157   -0.0196000    -0.7049931    0.5145279    -0.7025302    0.5094777     0.1189784    0.0540177 
   0.588550000     0.0366526   -0.0299723    -0.6266399    0.6004977    -0.6291033    0.5946844     0.1215320    0.0301660 
   0.608500000     0.0327011   -0.0388477    -0.5430059    0.6721773    -0.5473471    0.6705235     0.1206333    0.0071297 
   0.628450000     0.0249867   -0.0443562    -0.4559211    0.7385784    -0.4565364    0.7384512     0.1121437   -0.0142017 
   0.648400000     0.0142651   -0.0484852    -0.3533908    0.7961063    -0.3531978    0.7928594     0.0969773   -0.0357313 
   0.668350000     0.0026002   -0.0514029    -0.2429428    0.8348240    -0.2460897    0.8307799     0.0781780   -0.0557213 
   0.688300000    -0.0071520   -0.0506687    -0.1315363    0.8560135    -0.1351342    0.8555112     0.0580993   -0.0708404 
   0.708250000    -0.0166625   -0.0450993    -0.0203794    0.8676886    -0.0215346    0.8671833     0.0348836   -0.0784396 
   0.728200000    -0.0268908   -0.0358240     0.0969460    0.8639838     0.0956206    0.8613418     0.0073479   -0.0791613 
   0.748150000    -0.0348344   -0.0245733     0.2127502    0.8412594     0.2081251    0.8389124    -0.0224866   -0.0759146 
   0.768100000    -0.0371308   -0.0128141     0.3202325    0.8014716     0.3165716    0.8025587    -0.0504408   -0.0679675 
   0.788050000    -0.0351378    0.0003557     0.4204029    0.7531297     0.4193009    0.7530558    -0.0746169   -0.0536794 
   0.808000000    -0.0308647    0.0144963     0.5182841    0.6911536     0.5151682    0.6876339    -0.0960300   -0.0324414 
   0.827950000    -0.0237937    0.0268435     0.6069165    0.6120538     0.5993707    0.6115544    -0.1143747   -0.0067718 
   0.847900000    -0.0119848    0.0348531     0.6774710    0.5207616     0.6719733    0.5246259    -0.1272671    0.0212884 
   0.867850000     0.0039487    0.0391021     0.7343578    0.4275671     0.7321106    0.4308041    -0.1328133    0.0517915 
   0.887800000     0.0211926    0.0410321     0.7829943    0.3291000     0.7789990    0.3291499    -0.1321058    0.0845970 
   0.907750000     0.0372392    0.0388423     0.8197477    0.2203982     0.8123686    0.2239324    -0.1261196    0.1176530 
   0.927700000     0.0521466    0.0305914     0.8350268    0.1065001     0.8298022    0.1149556    -0.1138791    0.1479464 
   0.947650000     0.0667228    0.0166249     0.8331109   -0.0012376     0.8328896    0.0077808    -0.0947505    0.1750287 
   0.967600000     0.0780764   -0.0002405     0.8227484   -0.1034837     0.8246784   -0.0969574    -0.0706499    0.1983254 
   0.987550000     0.0840647   -0.0186531     0.8044236   -0.2080289     0.8050917   -0.2025668    -0.0436191    0.2179229 
   1.007500000     0.0845507   -0.0398755     0.7679599   -0.3141842     0.7682173   -0.3058113    -0.0133043    0.2312739 
   1.027450000     0.0812456   -0.0622239     0.7108994   -0.4089274     0.7173328   -0.3974410     0.0204556    0.2380570 
   1.047400000     0.0738665   -0.0833597     0.6480502   -0.4855247     0.6632432   -0.4811029     0.0561969    0.2390308 
   1.067350000     0.0612949   -0.1008946     0.5885478   -0.5568798     0.5989158   -0.5651046     0.0884480    0.2343850 
   1.087300000     0.0424334   -0.1162845     0.5193022   -0.6354595     0.5169711   -0.6402090     0.1196547    0.2240146 
   1.107250000     0.0205201   -0.1278367     0.4239025   -0.7018355     0.4270225   -0.6946765     0.1492987    0.2049459 
   1.127200000    -0.0023190   -0.1354401     0.3246639   -0.7390426     0.3417299   -0.7408386     0.1778323    0.1821475 
   1.147150000    -0.0260002   -0.1361291     0.2399100   -0.7648198     0.2462168   -0.7851905     0.1993715    0.1564684 
   1.167100000    -0.0517648   -0.1319363     0.1510726   -0.8022341     0.1363814   -0.8134153     0.2143247    0.1287261 
   1.187050000    -0.0767431   -0.1213247     0.0363269   -0.8267990     0.0289514   -0.8176084     0.2205407    0.0945326 
   1.207000000    -0.0961976   -0.1082776    -0.0799828   -0.8152003    -0.0700210   -0.8152806     0.2228076    0.0581372 
   1.226950000    -0.1103894   -0.0905409    -0.1733005   -0.7894214    -0.1758276   -0.8061158     0.2204937    0.0215091 
   1.246900000    -0.1209717   -0.0696643    -0.2646002   -0.7751034    -0.2845092   -0.7779967     0.2111896   -0.0110279 
   1.266850000    -0.1277707   -0.0459030    -0.3763224   -0.7454067    -0.3851772   -0.7300749     0.1916037   -0.0413684 
   1.286800000    -0.1277127   -0.0250383    -0.4805777   -0.6815426    -0.4748666   -0.6743297     0.1654463   -0.0681817 
   1.306750000    -0.1221036   -0.0064943    -0.5585077   -0.6077971    -0.5597553   -0.6081894     0.1365728   -0.0916719 
   1.326700000    -0.1115712    0.0109579    -0.6332300   -0.5387327    -0.6373016   -0.5301182     0.1031320   -0.1073094 
   1.346650000    -0.0984916    0.0257835    -0.7098092   -0.4509734    -0.7023072   -0.4401903     0.0656974   -0.1128726 
   1.366600000    -0.0844508    0.0343993    -0.7663194   -0.3427058    -0.7560579   -0.3430688     0.0257069   -0.1105715 
   1.386550000    -0.0701170    0.0351212    -0.7978427   -0.2354353    -0.7942007   -0.2377668    -0.0130784   -0.1031006 
   1.406500000    -0.0565178    0.0312957    -0.8222098   -0.1314945    -0.8166482   -0.1296421    -0.0499443   -0.0876435 
   1.426450000    -0.0451791    0.0242900    -0.8360825   -0.0158251    -0.8257813   -0.0206698    -0.0822500   -0.0621528 
   1.446400000    -0.0385143    0.0138363    -0.8233265    0.1031583    -0.8208399    0.0907518    -0.1089941   -0.0292220 
   1.466350000    -0.0373540    0.0006243    -0.7919769    0.2077147    -0.7991796    0.2015042    -0.1292120    0.0071550 
   1.486300000    -0.0414805   -0.0125194    -0.7579929    0.3045697    -0.7598491    0.3066151    -0.1417038    0.0471624 
   1.506250000    -0.0501725   -0.0224965    -0.7119347    0.4082161    -0.7076089    0.4025527    -0.1445318    0.0899491 
   1.526200000    -0.0646301   -0.0307320    -0.6368532    0.5005680    -0.6424440    0.4914201    -0.1393026    0.1327788 
   1.546150000    -0.0847345   -0.0351960    -0.5487653    0.5636892    -0.5691813    0.5676407    -0.1256466    0.1750317 
   1.566100000    -0.1065289   -0.0343526    -0.4818282    0.6097893    -0.4848545    0.6334937    -0.1039938    0.2147646 
   1.586050000    -0.1274667   -0.0261087    -0.4133637    0.6783296    -0.3939953    0.6863185    -0.0747714    0.2496816 
   1.606000000    -0.1469694   -0.0108732    -0.2992623    0.7380250    -0.2968535    0.7249675    -0.0420490    0.2761460 
   1.625950000    -0.1661151    0.0094568    -0.1807109    0.7379200    -0.1981696    0.7468855    -0.0063233    0.2969849 
   1.645900000    -0.1807995    0.0365082    -0.1180732    0.7208170    -0.1056226    0.7551424     0.0391269    0.3105392 
   1.665850000    -0.1867381    0.0655683    -0.0667603    0.7619176    -0.0157961    0.7621992     0.0854654    0.3129649 
   1.685800000    -0.1879055    0.0980454     0.0697302    0.8076318     0.0860807    0.7585285     0.1285648    0.3106528 
   1.705750000    -0.1825484    0.1311199     0.2184126    0.7413254     0.1850672    0.7284894     0.1663041    0.3011716 
   1.725700000    -0.1723536    0.1673305     0.2565869    0.6516302     0.2595103    0.6863015     0.2094941    0.2862757 
   1.745650000    -0.1476306    0.1967146     0.2625788    0.6657910     0.3270335    0.6609440     0.2490364    0.2507021 
   1.765600000    -0.1257737    0.2206240     0.3989737    0.7220615     0.4156836    0.6275648     0.2772378    0.2244690 
   1.785550000    -0.0941436    0.2445308     0.5871210    0.5943118     0.4996122    0.5589201     0.3028951    0.1927861 
   1.805500000    -0.0633983    0.2622787     0.5783585    0.4254682     0.5480065    0.4853006     0.3222480    0.1601544 
   1.825450000    -0.0207406    0.2683157     0.5270145    0.4305965     0.5957063    0.4347478     0.3298103    0.1009714 
   1.845400000     0.0082821    0.2665164     0.6792336    0.4906916     0.6667432    0.3706644     0.3218020    0.0606264 
   1.865350000     0.0523238    0.2653027     0.8692705    0.2558838     0.7229772    0.2691829     0.3274503    0.0117293 
   1.885300000     0.0827721    0.2524098     0.7460376    0.0548243     0.7391831    0.1685334     0.3165615   -0.0330435 
   1.905250000     0.1198065    0.2343438     0.6721947    0.0913493     0.7517902    0.0898908     0.2893073   -0.0774596 
   1.925200000     0.1394228    0.2066029     0.8194889    0.0783946     0.7761997   -0.0014528     0.2568286   -0.0976210 
   1.945150000     0.1612201    0.1836310     0.8735175   -0.1777118     0.7784562   -0.1117522     0.2306144   -0.1276478 
   1.965100000     0.1763189    0.1526596     0.7227938   -0.3077284     0.7586656   -0.2152707     0.1860661   -0.1508683 
   1.985050000     0.1808574    0.1195361     0.6705283   -0.3083674     0.7322806   -0.3159721     0.1347767   -0.1583113 
   2.005000000     0.1779790    0.0935006     0.7054713   -0.3952226     0.6862558   -0.4200402     0.0884551   -0.1585132 
   2.024950000     0.1719684    0.0698259     0.6371433   -0.5575569     0.6216513   -0.5093765     0.0404145   -0.1548714 
   2.044900000     0.1621926    0.0506623     0.5019382   -0.6229767     0.5523489   -0.5901557    -0.0074546   -0.1392139 
   2.064850000     0.1455840    0.0371829     0.4308937   -0.6445420     0.4688813   -0.6689690    -0.0457302   -0.1066178 
   2.084800000     0.1315529    0.0344921     0.3674605   -0.7168908     0.3617164   -0.7318914    -0.0764410   -0.0723646 
   2.104750000     0.1201139    0.0319925     0.2390752   -0.7796828     0.2509425   -0.7635351    -0.1037450   -0.0286347 
   2.124700000     0.1122003    0.0377908     0.1114350   -0.7694221     0.1495495   -0.7809521    -0.1221830    0.0189369 
   2.144650000     0.1112244    0.0451551     0.0421797   -0.7543677     0.0515501   -0.7957895    -0.1259211    0.0710923 
   2.164600000     0.1121586    0.0573027    -0.0399164   -0.7841315    -0.0615327   -0.8017214    -0.1204257    0.1135286 
   2.184550000     0.1231236    0.0675961    -0.1800214   -0.7853895    -0.1788849   -0.7769569    -0.1074778    0.1617839 
   2.204500000     0.1371812    0.0730400    -0.2948977   -0.7056207    -0.2751482   -0.7276544    -0.0827038    0.2042382 
   2.224450000     0.1589317    0.0738812    -0.3333080   -0.6392186    -0.3498175   -0.6854389    -0.0473996    0.2438011 
   2.244400000     0.1790306    0.0698039    -0.3849835   -0.6353961    -0.4403850   -0.6477867    -0.0121923    0.2686863 
   2.264350000     0.2079692    0.0624057    -0.5092143   -0.6114431    -0.5373027   -0.5753654     0.0259672    0.2986152 
   2.284300000     0.2331015    0.0408851    -0.6143200   -0.4887028    -0.5983651   -0.4780032     0.0761855    0.3115333 
   2.304250000     0.2556555    0.0169572    -0.6203750   -0.3747767    -0.6337686   -0.4016679     0.1223735    0.3172074 
   2.324200000     0.2725864   -0.0137723    -0.6255310   -0.3361967    -0.6845110   -0.3300891     0.1664118    0.3130767 
   2.344150000     0.2877421   -0.0490778    -0.7005180   -0.2955633    -0.7317686   -0.2292973     0.2098755    0.3082310 
   2.364100000     0.2925496   -0.0953487    -0.7750265   -0.1677219    -0.7433948   -0.1208322     0.2567209    0.2889102 
   2.384050000     0.2878682   -0.1408056    -0.7581932   -0.0263240    -0.7410851   -0.0300738     0.2942386    0.2619239 
   2.404000000     0.2779619   -0.1856768    -0.7162338    0.0455184    -0.7372913    0.0604237     0.3264313    0.2340058 
   2.423950000     0.2608599   -0.2294105    -0.7210104    0.0951394    -0.7205072    0.1526801     0.3551060    0.2018659 
   2.443900000     0.2331265   -0.2697906    -0.7473333    0.1931202    -0.6971875    0.2389870     0.3777921    0.1623878 
   2.463850000     0.1948261   -0.3053410    -0.7166372    0.3314890    -0.6643753    0.3359347     0.3927847    0.1156821 
   2.483800000     0.1499559   -0.3311034    -0.6276120    0.4270909    -0.5967151    0.4241158     0.3977237    0.0691301 
   2.503750000     0.1058926   -0.3521728    -0.5558061    0.4681752    -0.5233276    0.4733177     0.3999539    0.0276600 
   2.523700000     0.0563597   -0.3664480    -0.5297773    0.5182026    -0.4812281    0.5162756     0.3957359   -0.0156318 
   2.543650000     0.0057412   -0.3699917    -0.4844484    0.6226473    -0.4279928    0.5943378     0.3807997   -0.0579184 
   2.563600000    -0.0454820   -0.3599994    -0.3606040    0.7101108    -0.3253426    0.6548558     0.3529396   -0.0993482 
   2.583550000    -0.0856192   -0.3446372    -0.2344345    0.7138199    -0.2311326    0.6639994     0.3241462   -0.1282861 
   2.603500000    -0.1295675   -0.3260464    -0.1744587    0.7080816    -0.1738950    0.6796001     0.2941382   -0.1602788 
   2.623450000    -0.1654668   -0.2939949    -0.1116162    0.7588718    -0.0950249    0.7224401     0.2518066   -0.1848071 
   2.643400000    -0.1924134   -0.2586327     0.0220061    0.7995024     0.0169170    0.7358659     0.2025144   -0.1991676 
   2.663350000    -0.2064892   -0.2268697     0.1539165    0.7579778     0.1118336    0.7143285     0.1559351   -0.2030408 
   2.683300000    -0.2211226   -0.1953700     0.2233884    0.7118116     0.1893029    0.7028664     0.1105952   -0.2047445 
   2.703250000    -0.2231190   -0.1605060     0.3005009    0.7017577     0.2878808    0.6863506     0.0643172   -0.1924362 
   2.723200000    -0.2168569   -0.1312272     0.4143346    0.6662128     0.3843564    0.6394137     0.0208982   -0.1664575 
   2.743150000    -0.2079048   -0.1113115     0.5026855    0.5843686     0.4616376    0.5807393    -0.0187529   -0.1317507 
   2.763100000    -0.1997141   -0.0943489     0.5601531    0.5155847     0.5393541    0.5245302    -0.0542639   -0.0900227 
   2.783050000    -0.1873047   -0.0861195     0.6301086    0.4464849     0.6193801    0.4417689    -0.0769959   -0.0445578 
   2.803000000    -0.1777672   -0.0861340     0.6893169    0.3500156     0.6702943    0.3398046    -0.0885627    0.0035596 
   2.822950000    -0.1750549   -0.0923787     0.7187424    0.2539282     0.6954124    0.2457911    -0.0894822    0.0565995 
   2.842900000    -0.1768059   -0.0981148     0.7505113    0.1653669     0.7225188    0.1621981    -0.0756919    0.1107031 
   2.862850000    -0.1820364   -0.1076772     0.7718285    0.0544751     0.7486810    0.0557732    -0.0531814    0.1587704 
   2.882800000    -0.1978854   -0.1139265     0.7593374   -0.0523575     0.7356905   -0.0668889    -0.0232032    0.2017823 
   2.902750000    -0.2237244   -0.1132638     0.7461425   -0.1407516     0.6871003   -0.1537344     0.0149954    0.2389544 
   2.922700000    -0.2503895   -0.1074001     0.7323864   -0.2497992     0.6624259   -0.2125053     0.0582389    0.2624452 
   2.942650000    -0.2808617   -0.1022407     0.6732236   -0.3574674     0.6516979   -0.3014111     0.1048106    0.2814143 
   2.962600000    -0.3114494   -0.0829330     0.6068279   -0.4208568     0.5862406   -0.4096859     0.1575506    0.2885756 
   2.982550000    -0.3383709   -0.0505340     0.5683824   -0.4894861     0.4933202   -0.4521573     0.2085585    0.2860058 
   3.002500000    -0.3589720   -0.0165771     0.4933407   -0.5908733     0.4530029   -0.4744951     0.2512214    0.2749262 
   3.022450000    -0.3847130    0.0216364     0.3687993   -0.6375946     0.4211572   -0.5431752     0.2990576    0.2618988 
   3.042400000    -0.3954658    0.0700534     0.2936178   -0.6354700     0.3238905   -0.6140193     0.3437233    0.2315887 
   3.062350000    -0.3946334    0.1206887     0.2477768   -0.6816095     0.2301466   -0.6123281     0.3787316    0.1995986 
   3.082300000    -0.3889158    0.1680914     0.1295760   -0.7447251     0.1898465   -0.6214125     0.4040132    0.1671531 
   3.102250000    -0.3810283    0.2241979    -0.0079991   -0.7110022     0.1251341   -0.6757454     0.4326953    0.1248077 
   3.122200000    -0.3527776    0.2732204    -0.0561753   -0.6628896     0.0066457   -0.6899579     0.4463813    0.0731568 
   3.142150000    -0.3174363    0.3149126    -0.1049739   -0.6881983    -0.0675109   -0.6556231     0.4565442    0.0274514 
