! 9/28/2016 11:55:59 AM
! C:\USERS\ANRITSUUSER\DESKTOP\SWITCHES\SMA-UFL-SHORT.S2P
! CHANNEL.1
! TR.MEASUREMENT
! CORRECTED.DATA
# GHZ S RI R 50.0
! FREQ.GHZ         S11RE         S11IM         S21RE         S21IM         S12RE         S12IM         S22RE         S22IM         
!; PortSelection: Port_12
   0.010000000     0.0041989    0.0017457     0.9965607   -0.0438256     0.9965291   -0.0499803     0.0049744    0.0016132 
   0.029950000     0.0061917    0.0011512     0.9853727   -0.1244781     0.9838477   -0.1224851     0.0059658    0.0011921 
   0.049900000     0.0077073   -0.0008271     0.9708537   -0.2013659     0.9695718   -0.1993317     0.0073637   -0.0005997 
   0.069850000     0.0086280   -0.0027598     0.9506894   -0.2768574     0.9495452   -0.2747539     0.0088592   -0.0031833 
   0.089800000     0.0090938   -0.0042412     0.9247531   -0.3501277     0.9238541   -0.3478692     0.0096079   -0.0052534 
   0.109750000     0.0090371   -0.0061911     0.8931396   -0.4207351     0.8925616   -0.4186392     0.0089008   -0.0069629 
   0.129700000     0.0087460   -0.0102145     0.8571038   -0.4886813     0.8562562   -0.4858950     0.0076495   -0.0096254 
   0.149650000     0.0077220   -0.0144662     0.8151826   -0.5533294     0.8143526   -0.5508732     0.0062658   -0.0122145 
   0.169600000     0.0049180   -0.0169030     0.7687767   -0.6145325     0.7686521   -0.6119518     0.0038758   -0.0144405 
   0.189550000     0.0011194   -0.0178518     0.7174779   -0.6714799     0.7172956   -0.6689420     0.0001590   -0.0159978 
   0.209500000    -0.0017692   -0.0195630     0.6629385   -0.7248534     0.6630095   -0.7220623    -0.0036337   -0.0181572 
   0.229450000    -0.0031682   -0.0219557     0.6036167   -0.7732150     0.6039821   -0.7707906    -0.0064186   -0.0198709 
   0.249400000    -0.0048586   -0.0232512     0.5415221   -0.8176426     0.5421389   -0.8149915    -0.0087425   -0.0194591 
   0.269350000    -0.0091031   -0.0232256     0.4751805   -0.8552244     0.4760943   -0.8528957    -0.0117373   -0.0173079 
   0.289300000    -0.0149505   -0.0231566     0.4078391   -0.8891252     0.4090981   -0.8864771    -0.0163463   -0.0157440 
   0.309250000    -0.0196989   -0.0242143     0.3375579   -0.9172151     0.3387127   -0.9146283    -0.0210175   -0.0149301 
   0.329200000    -0.0220101   -0.0244888     0.2646239   -0.9408450     0.2663738   -0.9381830    -0.0240177   -0.0131758 
   0.349150000    -0.0237304   -0.0220312     0.1900578   -0.9562634     0.1918693   -0.9539283    -0.0253591   -0.0093257 
   0.369100000    -0.0277842   -0.0181756     0.1163127   -0.9672177     0.1183820   -0.9653865    -0.0272973   -0.0045602 
   0.389050000    -0.0328809   -0.0147622     0.0419793   -0.9729304     0.0436786   -0.9705823    -0.0306343   -0.0008904 
   0.409000000    -0.0360168   -0.0123631    -0.0346541   -0.9743081    -0.0320119   -0.9719553    -0.0323116    0.0027671 
   0.428950000    -0.0372967   -0.0097090    -0.1109989   -0.9656764    -0.1080631   -0.9641439    -0.0324495    0.0065307 
   0.448900000    -0.0389310   -0.0042693    -0.1844326   -0.9525811    -0.1817060   -0.9518083    -0.0323236    0.0121504 
   0.468850000    -0.0414974    0.0012506    -0.2549474   -0.9351546    -0.2529418   -0.9339737    -0.0321095    0.0174019 
   0.488800000    -0.0427255    0.0057411    -0.3279432   -0.9140005    -0.3247717   -0.9126428    -0.0302527    0.0214807 
   0.508750000    -0.0424819    0.0092756    -0.3983395   -0.8838536    -0.3946533   -0.8833233    -0.0265863    0.0250922 
   0.528700000    -0.0415063    0.0140501    -0.4647163   -0.8481339    -0.4619470   -0.8487552    -0.0236627    0.0297840 
   0.548650000    -0.0408711    0.0198361    -0.5256160   -0.8095751    -0.5235831   -0.8097748    -0.0212190    0.0353769 
   0.568600000    -0.0394247    0.0243437    -0.5874749   -0.7686109    -0.5844786   -0.7680563    -0.0177936    0.0382465 
   0.588550000    -0.0355100    0.0274156    -0.6457666   -0.7198855    -0.6421348   -0.7201735    -0.0125801    0.0386438 
   0.608500000    -0.0304435    0.0314726    -0.6992307   -0.6654488    -0.6962875   -0.6674162    -0.0064884    0.0395105 
   0.628450000    -0.0263086    0.0366084    -0.7456504   -0.6093087    -0.7438746   -0.6106054    -0.0007520    0.0426405 
   0.648400000    -0.0234203    0.0399271    -0.7900477   -0.5510782    -0.7880186   -0.5515465     0.0039702    0.0441743 
   0.668350000    -0.0203545    0.0405685    -0.8305575   -0.4890701    -0.8273395   -0.4899240     0.0085058    0.0425417 
   0.688300000    -0.0150547    0.0408138    -0.8660427   -0.4222385    -0.8630729   -0.4243459     0.0136733    0.0398833 
   0.708250000    -0.0090626    0.0420732    -0.8944067   -0.3537429    -0.8927233   -0.3557689     0.0194369    0.0382514 
   0.728200000    -0.0039410    0.0432718    -0.9176993   -0.2842392    -0.9164429   -0.2855225     0.0239609    0.0361287 
   0.748150000    -0.0004008    0.0411359    -0.9367920   -0.2139375    -0.9345102   -0.2149722     0.0275646    0.0313181 
   0.768100000     0.0031718    0.0378130    -0.9513093   -0.1409844    -0.9489004   -0.1432497     0.0312692    0.0250915 
   0.788050000     0.0071238    0.0355960    -0.9592983   -0.0661180    -0.9574484   -0.0691085     0.0346513    0.0196689 
   0.808000000     0.0107827    0.0341062    -0.9604064    0.0086370    -0.9592090    0.0060663     0.0370745    0.0158726 
   0.827950000     0.0135875    0.0311395    -0.9555749    0.0815707    -0.9546324    0.0796926     0.0370313    0.0108448 
   0.847900000     0.0158176    0.0255844    -0.9471909    0.1534943    -0.9453200    0.1515573     0.0360644    0.0041949 
   0.867850000     0.0175241    0.0206658    -0.9337413    0.2267050    -0.9316483    0.2238353     0.0351554   -0.0021108 
   0.887800000     0.0185398    0.0173388    -0.9128385    0.2992622    -0.9113477    0.2961048     0.0338773   -0.0069939 
   0.907750000     0.0180882    0.0140786    -0.8850870    0.3682453    -0.8848089    0.3658378     0.0309640   -0.0113502 
   0.927700000     0.0167019    0.0091079    -0.8543840    0.4339767    -0.8533045    0.4317153     0.0267469   -0.0160861 
   0.947650000     0.0152942    0.0036150    -0.8195971    0.4990445    -0.8182207    0.4962481     0.0226549   -0.0205140 
   0.967600000     0.0133462   -0.0004879    -0.7783511    0.5623814    -0.7775451    0.5583612     0.0179110   -0.0234058 
   0.987550000     0.0100083   -0.0030624    -0.7303766    0.6206162    -0.7308514    0.6169446     0.0119801   -0.0241482 
   1.007500000     0.0058827   -0.0062648    -0.6809396    0.6733444    -0.6812713    0.6704845     0.0056590   -0.0252937 
   1.027450000     0.0022521   -0.0095636    -0.6278208    0.7243165    -0.6276087    0.7213265    -0.0002279   -0.0256959 
   1.047400000    -0.0004011   -0.0113996    -0.5693687    0.7729091    -0.5700334    0.7684924    -0.0050363   -0.0249113 
   1.067350000    -0.0046329   -0.0121007    -0.5044789    0.8136328    -0.5065631    0.8099409    -0.0109101   -0.0226901 
   1.087300000    -0.0104720   -0.0120645    -0.4407059    0.8477094    -0.4424179    0.8453491    -0.0171310   -0.0191125 
   1.107250000    -0.0158387   -0.0127096    -0.3755753    0.8788614    -0.3765243    0.8758087    -0.0206331   -0.0153199 
   1.127200000    -0.0197135   -0.0123220    -0.3063315    0.9084148    -0.3087992    0.9042597    -0.0224790   -0.0107577 
   1.147150000    -0.0239398   -0.0104353    -0.2311820    0.9272229    -0.2349267    0.9252771    -0.0240194   -0.0046345 
   1.167100000    -0.0298425   -0.0072514    -0.1583955    0.9387295    -0.1611778    0.9387413    -0.0279485    0.0018536 
   1.187050000    -0.0355327   -0.0042552    -0.0898987    0.9470304    -0.0900569    0.9457093    -0.0304148    0.0086516 
   1.207000000    -0.0391275   -0.0024808    -0.0167852    0.9555076    -0.0188702    0.9514610    -0.0291686    0.0134669 
   1.226950000    -0.0409882    0.0001682     0.0620593    0.9517769     0.0571244    0.9502435    -0.0251131    0.0186549 
   1.246900000    -0.0428744    0.0050281     0.1346200    0.9396943     0.1308895    0.9415348    -0.0216551    0.0253374 
   1.266850000    -0.0457177    0.0109551     0.2023166    0.9246769     0.2037337    0.9257874    -0.0194548    0.0318459 
   1.286800000    -0.0470351    0.0151888     0.2724265    0.9105594     0.2726961    0.9072704    -0.0150685    0.0358815 
   1.306750000    -0.0471770    0.0188612     0.3452381    0.8857836     0.3412319    0.8825783    -0.0079937    0.0383199 
   1.326700000    -0.0465302    0.0238337     0.4128038    0.8519986     0.4085086    0.8540642     0.0001801    0.0412699 
   1.346650000    -0.0463888    0.0310569     0.4708141    0.8158877     0.4724064    0.8179590     0.0069233    0.0454790 
   1.366600000    -0.0462324    0.0374883     0.5320880    0.7825756     0.5347900    0.7791231     0.0123185    0.0475168 
   1.386550000    -0.0449913    0.0399973     0.5940641    0.7401822     0.5913195    0.7334427     0.0190536    0.0457794 
   1.406500000    -0.0428203    0.0423173     0.6502733    0.6879008     0.6437964    0.6861910     0.0279697    0.0415652 
   1.426450000    -0.0397801    0.0466380     0.6965621    0.6341286     0.6936497    0.6360460     0.0362433    0.0382250 
   1.446400000    -0.0368964    0.0510481     0.7412364    0.5826798     0.7419395    0.5808794     0.0429401    0.0348696 
   1.466350000    -0.0339344    0.0538965     0.7869074    0.5264028     0.7836298    0.5202714     0.0486104    0.0301585 
   1.486300000    -0.0313562    0.0547585     0.8278892    0.4611402     0.8190700    0.4582343     0.0535204    0.0226678 
   1.506250000    -0.0281309    0.0568915     0.8575593    0.3933746     0.8505672    0.3958614     0.0578400    0.0143572 
   1.526200000    -0.0241710    0.0587490     0.8808152    0.3308964     0.8799211    0.3291966     0.0604548    0.0057990 
   1.546150000    -0.0194507    0.0590347     0.9075494    0.2658178     0.9028500    0.2611301     0.0615556   -0.0028945 
   1.566100000    -0.0165528    0.0580528     0.9318733    0.1919631     0.9206859    0.1898618     0.0610768   -0.0120483 
   1.586050000    -0.0143467    0.0583924     0.9415830    0.1128194     0.9315203    0.1180904     0.0599074   -0.0216363 
   1.606000000    -0.0120426    0.0593733     0.9401775    0.0421017     0.9366890    0.0464986     0.0575515   -0.0318867 
   1.625950000    -0.0099296    0.0586117     0.9438863   -0.0216579     0.9370726   -0.0241603     0.0531570   -0.0417677 
   1.645900000    -0.0081354    0.0564857     0.9505571   -0.0980561     0.9342330   -0.0953630     0.0484334   -0.0492728 
   1.665850000    -0.0046049    0.0546539     0.9375730   -0.1846112     0.9259605   -0.1689656     0.0422164   -0.0551833 
   1.685800000    -0.0025232    0.0535496     0.9052760   -0.2549172     0.9085572   -0.2420141     0.0338471   -0.0593719 
   1.705750000    -0.0018702    0.0531394     0.8837992   -0.3078396     0.8842610   -0.3104744     0.0224005   -0.0657097 
   1.725700000    -0.0027564    0.0512452     0.8769438   -0.3768952     0.8576106   -0.3741482     0.0111309   -0.0699843 
   1.745650000    -0.0034449    0.0502954     0.8438550   -0.4667990     0.8296049   -0.4391243     0.0037206   -0.0747612 
   1.765600000    -0.0011514    0.0489312     0.7791565   -0.5313042     0.7942194   -0.5051559    -0.0062389   -0.0728407 
   1.785550000    -0.0023087    0.0483876     0.7317427   -0.5619655     0.7488487   -0.5674617    -0.0173674   -0.0694313 
   1.805500000    -0.0017744    0.0485302     0.7192795   -0.6139299     0.7008237   -0.6194351    -0.0323281   -0.0649338 
   1.825450000    -0.0045525    0.0463428     0.6684843   -0.7073127     0.6532200   -0.6694490    -0.0416612   -0.0658739 
   1.845400000    -0.0054840    0.0457755     0.5667799   -0.7545016     0.6032507   -0.7204790    -0.0524716   -0.0606863 
   1.865350000    -0.0083608    0.0467182     0.5081357   -0.7470068     0.5419458   -0.7675893    -0.0531919   -0.0503479 
   1.885300000    -0.0039658    0.0488361     0.5006303   -0.7844992     0.4771214   -0.8045289    -0.0599823   -0.0384053 
   1.905250000    -0.0049665    0.0421330     0.4297148   -0.8741795     0.4139681   -0.8347478    -0.0667033   -0.0298552 
   1.925200000    -0.0102183    0.0452136     0.3078528   -0.8906536     0.3505773   -0.8631859    -0.0775093   -0.0210830 
   1.945150000    -0.0074925    0.0496949     0.2532588   -0.8603635     0.2845114   -0.8877216    -0.0762530   -0.0101742 
   1.965100000    -0.0058351    0.0481460     0.2337430   -0.8893363     0.2154929   -0.9076520    -0.0706256   -0.0020145 
   1.985050000    -0.0087922    0.0470095     0.1546106   -0.9478881     0.1444073   -0.9203985    -0.0687937    0.0083484 
   2.005000000    -0.0108329    0.0490520     0.0401642   -0.9462982     0.0730683   -0.9295455    -0.0681783    0.0214151 
   2.024950000    -0.0088518    0.0504305    -0.0237100   -0.9092443     0.0004429   -0.9304407    -0.0635245    0.0310002 
   2.044900000    -0.0059126    0.0497433    -0.0602154   -0.9100242    -0.0693991   -0.9268891    -0.0554903    0.0361770 
   2.064850000    -0.0068119    0.0496205    -0.1299105   -0.9328380    -0.1375810   -0.9196485    -0.0468275    0.0390974 
   2.084800000    -0.0075754    0.0535464    -0.2303479   -0.9227466    -0.2098681   -0.9112624    -0.0383730    0.0466864 
   2.104750000    -0.0074228    0.0536355    -0.3031407   -0.8764850    -0.2846642   -0.8901429    -0.0280044    0.0509940 
   2.124700000    -0.0065644    0.0536386    -0.3487599   -0.8446293    -0.3528436   -0.8597695    -0.0195219    0.0548296 
   2.144650000    -0.0048596    0.0515404    -0.4033236   -0.8346903    -0.4105984   -0.8292027    -0.0089777    0.0533243 
   2.164600000    -0.0063851    0.0529215    -0.4836793   -0.8120032    -0.4726329   -0.8015379    -0.0008051    0.0509662 
   2.184550000    -0.0057320    0.0559013    -0.5554044   -0.7590798    -0.5384695   -0.7645922     0.0102944    0.0472469 
   2.204500000    -0.0052414    0.0563024    -0.6014200   -0.7040411    -0.5993593   -0.7145680     0.0182625    0.0426617 
   2.224450000    -0.0036142    0.0560574    -0.6437107   -0.6661360    -0.6460972   -0.6626374     0.0270962    0.0370995 
   2.244400000    -0.0052868    0.0547594    -0.7032458   -0.6244086    -0.6916013   -0.6165250     0.0325388    0.0297574 
   2.264350000    -0.0063347    0.0569297    -0.7608829   -0.5605643    -0.7412190   -0.5658036     0.0393630    0.0209500 
   2.284300000    -0.0052769    0.0584801    -0.7964562   -0.4893419    -0.7886478   -0.5034056     0.0438199    0.0100054 
   2.304250000    -0.0042370    0.0608114    -0.8233110   -0.4316027    -0.8221184   -0.4353136     0.0469025    0.0007016 
   2.324200000    -0.0042689    0.0616688    -0.8595074   -0.3735810    -0.8481646   -0.3723969     0.0475031   -0.0091034 
   2.344150000    -0.0066353    0.0631518    -0.8940386   -0.2998984    -0.8750166   -0.3101246     0.0454533   -0.0196487 
   2.364100000    -0.0071826    0.0644032    -0.9094254   -0.2205967    -0.9003063   -0.2413791     0.0400344   -0.0324459 
   2.384050000    -0.0059320    0.0640701    -0.9162689   -0.1526170    -0.9165590   -0.1679453     0.0342995   -0.0431120 
   2.404000000    -0.0040047    0.0654463    -0.9271584   -0.0865010    -0.9244576   -0.0963780     0.0291532   -0.0514248 
   2.423950000    -0.0028165    0.0684296    -0.9364342   -0.0109871    -0.9284910   -0.0258284     0.0226203   -0.0591848 
   2.443900000    -0.0027972    0.0726968    -0.9314436    0.0699217    -0.9270800    0.0450965     0.0122411   -0.0664507 
   2.463850000    -0.0025804    0.0754785    -0.9136302    0.1429276    -0.9200315    0.1149341    -0.0005431   -0.0727302 
   2.483800000    -0.0007667    0.0761433    -0.8958052    0.2048196    -0.9109284    0.1834174    -0.0127862   -0.0749496 
   2.503750000     0.0007584    0.0760907    -0.8835331    0.2695282    -0.8974782    0.2572866    -0.0222360   -0.0751472 
   2.523700000     0.0034674    0.0789311    -0.8638096    0.3445250    -0.8719720    0.3310197    -0.0337626   -0.0746283 
   2.543650000     0.0063708    0.0823494    -0.8224921    0.4168234    -0.8371543    0.3950669    -0.0475275   -0.0737433 
   2.563600000     0.0114473    0.0861809    -0.7766448    0.4668003    -0.8067762    0.4507464    -0.0621380   -0.0703153 
   2.583550000     0.0148105    0.0857527    -0.7478962    0.5111972    -0.7772954    0.5135629    -0.0704739   -0.0630989 
   2.603500000     0.0168116    0.0874418    -0.7216392    0.5757430    -0.7345590    0.5807099    -0.0783669   -0.0571742 
   2.623450000     0.0203118    0.0878995    -0.6635881    0.6445475    -0.6786425    0.6351367    -0.0876473   -0.0470180 
   2.643400000     0.0241386    0.0882815    -0.5945024    0.6814923    -0.6282006    0.6788991    -0.0977513   -0.0364867 
   2.663350000     0.0295060    0.0871839    -0.5498725    0.7044870    -0.5791664    0.7259140    -0.1036134   -0.0251529 
   2.683300000     0.0338945    0.0876404    -0.5157624    0.7533957    -0.5214965    0.7749924    -0.1073289   -0.0164332 
   2.703250000     0.0408822    0.0880602    -0.4477066    0.8098069    -0.4541061    0.8112963    -0.1091945   -0.0025511 
   2.723200000     0.0454261    0.0865982    -0.3662146    0.8329831    -0.3931770    0.8417472    -0.1088469    0.0124607 
   2.743150000     0.0468779    0.0836033    -0.3107424    0.8385015    -0.3282061    0.8722765    -0.1083234    0.0236349 
   2.763100000     0.0482894    0.0808899    -0.2654756    0.8691140    -0.2555011    0.8983466    -0.1104826    0.0328456 
   2.783050000     0.0532505    0.0767012    -0.1899228    0.9030340    -0.1829981    0.9077799    -0.1058235    0.0443616 
   2.803000000     0.0587842    0.0726246    -0.1063718    0.9100857    -0.1195345    0.9211095    -0.0956684    0.0546437 
   2.822950000     0.0623854    0.0687039    -0.0437995    0.9035129    -0.0454452    0.9347386    -0.0849744    0.0621319 
   2.842900000     0.0643876    0.0659829     0.0153356    0.9147230     0.0375077    0.9367754    -0.0807570    0.0713201 
   2.862850000     0.0660285    0.0597638     0.0931614    0.9175354     0.1095595    0.9172149    -0.0715821    0.0797655 
   2.882800000     0.0659694    0.0532493     0.1684513    0.9026213     0.1689476    0.9087907    -0.0591826    0.0839155 
   2.902750000     0.0661130    0.0487669     0.2307859    0.8856502     0.2398855    0.9024466    -0.0472921    0.0847259 
   2.922700000     0.0687857    0.0458583     0.3011056    0.8768131     0.3232055    0.8811217    -0.0374312    0.0881879 
   2.942650000     0.0692131    0.0400827     0.3780238    0.8482904     0.3898660    0.8378056    -0.0257043    0.0883276 
   2.962600000     0.0670530    0.0372124     0.4396391    0.8094200     0.4418598    0.8061940    -0.0158274    0.0853919 
   2.982550000     0.0616803    0.0339183     0.4948479    0.7778207     0.5020000    0.7793707    -0.0070656    0.0801108 
   3.002500000     0.0566386    0.0296697     0.5638852    0.7440429     0.5726098    0.7391133     0.0029760    0.0739569 
   3.022450000     0.0509387    0.0229247     0.6278647    0.6877303     0.6276854    0.6809763     0.0134607    0.0645026 
   3.042400000     0.0488951    0.0198836     0.6722222    0.6305345     0.6707842    0.6295502     0.0207933    0.0568745 
   3.062350000     0.0475278    0.0198871     0.7154732    0.5837985     0.7160667    0.5819141     0.0262315    0.0508664 
   3.082300000     0.0438925    0.0212117     0.7687141    0.5278643     0.7662824    0.5245954     0.0292370    0.0434600 
   3.102250000     0.0357167    0.0210598     0.8088597    0.4554557     0.8036037    0.4571542     0.0288285    0.0315075 
   3.122200000     0.0306944    0.0204302     0.8337065    0.3883569     0.8316213    0.3928846     0.0280602    0.0204510 
   3.142150000     0.0293107    0.0194356     0.8605694    0.3274649     0.8591432    0.3306246     0.0272471    0.0109080 
