! 9/28/2016 3:35:16 PM
! C:\USERS\ANRITSUUSER\DESKTOP\SWITCHES\SMA-500MM-FLEXIBLE.S2P
! CHANNEL.1
! TR.MEASUREMENT
! CORRECTED.DATA
# GHZ S RI R 50.0
! FREQ.GHZ         S11RE         S11IM         S21RE         S21IM         S12RE         S12IM         S22RE         S22IM         
!; PortSelection: Port_12
   0.010000000     0.0055660    0.0015727     0.9849617   -0.1423004     0.9806294   -0.1538160     0.0063128    0.0005839 
   0.029950000     0.0075583   -0.0032893     0.9037653   -0.4056105     0.9026436   -0.4025214     0.0073205   -0.0028371 
   0.049900000     0.0051230   -0.0095445     0.7591000   -0.6328964     0.7584206   -0.6297614     0.0054021   -0.0088129 
   0.069850000    -0.0000914   -0.0126892     0.5589757   -0.8133835     0.5593761   -0.8098432     0.0001658   -0.0131448 
   0.089800000    -0.0059048   -0.0127025     0.3180690   -0.9316802     0.3195977   -0.9285386    -0.0066953   -0.0129579 
   0.109750000    -0.0120801   -0.0104517     0.0551026   -0.9812058     0.0571574   -0.9786385    -0.0131027   -0.0096670 
   0.129700000    -0.0175032   -0.0054386    -0.2100299   -0.9585775    -0.2071028   -0.9564615    -0.0172405   -0.0053120 
   0.149650000    -0.0175460    0.0027835    -0.4607321   -0.8656110    -0.4574467   -0.8642598    -0.0168263    0.0002444 
   0.169600000    -0.0123598    0.0102014    -0.6749076   -0.7080472    -0.6716802   -0.7079124    -0.0123865    0.0072449 
   0.189550000    -0.0069828    0.0126452    -0.8395292   -0.4999645    -0.8362613   -0.5008203    -0.0057556    0.0121034 
   0.209500000    -0.0027888    0.0107409    -0.9418989   -0.2558976    -0.9393597   -0.2576770     0.0003585    0.0117393 
   0.229450000     0.0027509    0.0068002    -0.9753807    0.0075755    -0.9731349    0.0050270     0.0051649    0.0069540 
   0.249400000     0.0085897    0.0019690    -0.9361629    0.2694448    -0.9345306    0.2662026     0.0072947    0.0022449 
   0.269350000     0.0090988   -0.0032924    -0.8281385    0.5095963    -0.8275338    0.5062582     0.0064168   -0.0010420 
   0.289300000     0.0027085   -0.0080911    -0.6607821    0.7134451    -0.6609418    0.7098070     0.0016934   -0.0052541 
   0.309250000    -0.0050804   -0.0119180    -0.4439268    0.8637674    -0.4449456    0.8602608    -0.0055021   -0.0088093 
   0.329200000    -0.0102563   -0.0123252    -0.1948527    0.9508491    -0.1970996    0.9474924    -0.0110445   -0.0070946 
   0.349150000    -0.0129149   -0.0075711     0.0675561    0.9659119     0.0646970    0.9637964    -0.0125798   -0.0005635 
   0.369100000    -0.0149672    0.0008642     0.3239191    0.9124175     0.3204596    0.9113101    -0.0125207    0.0067620 
   0.389050000    -0.0143479    0.0084257     0.5569324    0.7908902     0.5532636    0.7902985    -0.0116156    0.0120993 
   0.409000000    -0.0099216    0.0121849     0.7486694    0.6115417     0.7446501    0.6123265    -0.0056320    0.0150809 
   0.428950000    -0.0032807    0.0132462     0.8835945    0.3871910     0.8805738    0.3891589     0.0029560    0.0148728 
   0.448900000     0.0036985    0.0115049     0.9547025    0.1365321     0.9520658    0.1390044     0.0094164    0.0114102 
   0.468850000     0.0072556    0.0050547     0.9559625   -0.1250271     0.9536459   -0.1219012     0.0099027    0.0047028 
   0.488800000     0.0066410   -0.0038384     0.8860733   -0.3772790     0.8851442   -0.3737118     0.0068582   -0.0036231 
   0.508750000     0.0033512   -0.0105047     0.7524006   -0.6004171     0.7520558   -0.5967447     0.0031105   -0.0099937 
   0.528700000    -0.0025400   -0.0125119     0.5624160   -0.7808545     0.5632278   -0.7771592    -0.0030978   -0.0119567 
   0.548650000    -0.0122185   -0.0111003     0.3316898   -0.9014941     0.3342731   -0.8982729    -0.0134423   -0.0083153 
   0.568600000    -0.0213573   -0.0063010     0.0775372   -0.9569442     0.0803176   -0.9545697    -0.0216967   -0.0008331 
   0.588550000    -0.0236428    0.0018951    -0.1811358   -0.9427830    -0.1781089   -0.9403313    -0.0223410    0.0066121 
   0.608500000    -0.0194079    0.0121375    -0.4291900   -0.8578677    -0.4249068   -0.8571018    -0.0171695    0.0145326 
   0.628450000    -0.0133283    0.0217654    -0.6415819   -0.7099369    -0.6375598   -0.7105151    -0.0096892    0.0236623 
   0.648400000    -0.0069555    0.0258499    -0.8081117   -0.5122596    -0.8046849   -0.5134706    -0.0004117    0.0276427 
   0.668350000     0.0006424    0.0221049    -0.9157601   -0.2766821    -0.9122148   -0.2788519     0.0086698    0.0222895 
   0.688300000     0.0084847    0.0139178    -0.9556620   -0.0205512    -0.9533247   -0.0239837     0.0144874    0.0122422 
   0.708250000     0.0120259    0.0059247    -0.9263982    0.2361671    -0.9249256    0.2326209     0.0163015    0.0032747 
   0.728200000     0.0084644   -0.0009909    -0.8286669    0.4765124    -0.8279805    0.4728532     0.0122185   -0.0055849 
   0.748150000    -0.0016938   -0.0052432    -0.6692788    0.6817805    -0.6698358    0.6771190     0.0014458   -0.0135998 
   0.768100000    -0.0113502   -0.0052474    -0.4613182    0.8343344    -0.4634244    0.8310253    -0.0113924   -0.0160596 
   0.788050000    -0.0177942    0.0005112    -0.2213502    0.9282104    -0.2235356    0.9255249    -0.0210029   -0.0107529 
   0.808000000    -0.0207110    0.0107168     0.0374217    0.9533879     0.0349471    0.9499518    -0.0268927   -0.0006310 
   0.827950000    -0.0199552    0.0220469     0.2929069    0.9065440     0.2878705    0.9046522    -0.0289979    0.0112715 
   0.847900000    -0.0127322    0.0298067     0.5229691    0.7926793     0.5188892    0.7933599    -0.0248151    0.0213866 
   0.867850000    -0.0003922    0.0321548     0.7156910    0.6248969     0.7119028    0.6256738    -0.0144261    0.0281109 
   0.887800000     0.0118841    0.0293558     0.8574734    0.4098397     0.8530903    0.4112295    -0.0026619    0.0299495 
   0.907750000     0.0197511    0.0207620     0.9356209    0.1643059     0.9322707    0.1678784     0.0060098    0.0257462 
   0.927700000     0.0223176    0.0076051     0.9443559   -0.0925321     0.9425066   -0.0883500     0.0104501    0.0163594 
   0.947650000     0.0196547   -0.0059036     0.8851947   -0.3420489     0.8841122   -0.3375901     0.0111577    0.0060231 
   0.967600000     0.0116538   -0.0142320     0.7610344   -0.5673967     0.7615383   -0.5627382     0.0072532   -0.0007407 
   0.987550000    -0.0018716   -0.0159620     0.5797854   -0.7512408     0.5809516   -0.7477332    -0.0017917   -0.0027192 
   1.007500000    -0.0161064   -0.0113320     0.3567513   -0.8788571     0.3586923   -0.8743693    -0.0124854   -0.0012737 
   1.027450000    -0.0244318   -0.0023489     0.1059773   -0.9417530     0.1109291   -0.9386868    -0.0193072    0.0043960 
   1.047400000    -0.0245586    0.0088171    -0.1504235   -0.9337211    -0.1462982   -0.9334799    -0.0200149    0.0133729 
   1.067350000    -0.0192694    0.0212515    -0.3942704   -0.8571751    -0.3914987   -0.8565373    -0.0166492    0.0246320 
   1.087300000    -0.0092044    0.0298685    -0.6081615   -0.7215480    -0.6031554   -0.7206211    -0.0099907    0.0313026 
   1.107250000     0.0037462    0.0299644    -0.7809510   -0.5318034    -0.7757626   -0.5343529    -0.0019499    0.0302447 
   1.127200000     0.0159884    0.0222980    -0.8940192   -0.3023493    -0.8907883   -0.3054708     0.0070034    0.0249013 
   1.147150000     0.0232209    0.0120065    -0.9412962   -0.0518250    -0.9385918   -0.0553242     0.0142663    0.0182424 
   1.167100000     0.0220296   -0.0000046    -0.9213158    0.2021067    -0.9199052    0.1972788     0.0150543    0.0104891 
   1.187050000     0.0128640   -0.0118672    -0.8334465    0.4421008    -0.8338488    0.4380625     0.0078834    0.0026545 
   1.207000000    -0.0005085   -0.0191520    -0.6847970    0.6508850    -0.6853232    0.6465828    -0.0015940   -0.0019828 
   1.226950000    -0.0129910   -0.0173866    -0.4825213    0.8113737    -0.4850199    0.8066829    -0.0092898   -0.0012217 
   1.246900000    -0.0226393   -0.0068627    -0.2446854    0.9093953    -0.2496173    0.9066346    -0.0156437    0.0050009 
   1.266850000    -0.0286111    0.0083898     0.0064407    0.9375539     0.0043338    0.9372753    -0.0208683    0.0161146 
   1.286800000    -0.0264853    0.0221857     0.2559291    0.9043082     0.2538105    0.9014179    -0.0189424    0.0271651 
   1.306750000    -0.0159095    0.0319474     0.4917439    0.8011736     0.4852206    0.7994837    -0.0104583    0.0338767 
   1.326700000     0.0000551    0.0362634     0.6869141    0.6366843     0.6813645    0.6405642     0.0006028    0.0364794 
   1.346650000     0.0157070    0.0340158     0.8282946    0.4317047     0.8270589    0.4340732     0.0105771    0.0361734 
   1.366600000     0.0257651    0.0238707     0.9175608    0.1965973     0.9136692    0.1978078     0.0183233    0.0300043 
   1.386550000     0.0286761    0.0086491     0.9381057   -0.0594289     0.9344600   -0.0536852     0.0218510    0.0188981 
   1.406500000     0.0249009   -0.0063307     0.8859586   -0.3094445     0.8865232   -0.3036745     0.0194817    0.0086966 
   1.426450000     0.0140379   -0.0162800     0.7702667   -0.5358369     0.7715367   -0.5314876     0.0134928    0.0032839 
   1.446400000    -0.0004516   -0.0193803     0.5965866   -0.7230459     0.5989134   -0.7189260     0.0045528    0.0013669 
   1.466350000    -0.0143836   -0.0148098     0.3805980   -0.8556888     0.3837276   -0.8536087    -0.0050154    0.0036404 
   1.486300000    -0.0226598   -0.0042247     0.1367399   -0.9263465     0.1379088   -0.9233562    -0.0107409    0.0110181 
   1.506250000    -0.0244037    0.0104923    -0.1184208   -0.9289228    -0.1127694   -0.9234962    -0.0109585    0.0207883 
   1.526200000    -0.0201363    0.0252327    -0.3604377   -0.8593270    -0.3569257   -0.8585401    -0.0068424    0.0293770 
   1.546150000    -0.0070703    0.0340566    -0.5745323   -0.7302421    -0.5717558   -0.7340611     0.0009781    0.0333905 
   1.566100000     0.0075836    0.0323346    -0.7502677   -0.5542803    -0.7481124   -0.5530280     0.0105749    0.0314199 
   1.586050000     0.0198370    0.0247981    -0.8750411   -0.3308382    -0.8674757   -0.3326360     0.0191271    0.0266937 
   1.606000000     0.0271666    0.0147500    -0.9295853   -0.0814174    -0.9265826   -0.0895107     0.0244916    0.0196767 
   1.625950000     0.0272775    0.0017110    -0.9170535    0.1682474    -0.9190849    0.1641584     0.0243067    0.0096560 
   1.645900000     0.0205557   -0.0117821    -0.8405232    0.4097834    -0.8396319    0.4076438     0.0191677    0.0012046 
   1.665850000     0.0083993   -0.0200293    -0.6973527    0.6217017    -0.6975149    0.6166698     0.0122805   -0.0024139 
   1.685800000    -0.0037877   -0.0189168    -0.5059981    0.7839377    -0.5072551    0.7812431     0.0048420   -0.0011115 
   1.705750000    -0.0136856   -0.0107494    -0.2756331    0.8953223    -0.2761477    0.8897510    -0.0035684    0.0035004 
   1.725700000    -0.0199890    0.0011087    -0.0184066    0.9307384    -0.0266369    0.9256094    -0.0083408    0.0101598 
   1.745650000    -0.0174357    0.0142105     0.2233706    0.8944487     0.2181685    0.8994744    -0.0033866    0.0162452 
   1.765600000    -0.0096030    0.0221283     0.4486760    0.8136926     0.4526404    0.8103690     0.0039981    0.0213416 
   1.785550000     0.0012444    0.0249592     0.6664898    0.6657454     0.6547436    0.6567294     0.0109308    0.0259665 
   1.805500000     0.0091310    0.0218047     0.8160299    0.4465967     0.8041254    0.4581717     0.0152537    0.0247459 
   1.825450000     0.0159791    0.0137685     0.8959920    0.2212095     0.9012421    0.2280491     0.0155864    0.0129967 
   1.845400000     0.0212151    0.0024272     0.9345462   -0.0245709     0.9312470   -0.0261541     0.0148171    0.0029041 
   1.865350000     0.0117407   -0.0107609     0.8897017   -0.2852600     0.8862299   -0.2763699     0.0147162   -0.0047064 
   1.885300000     0.0018080   -0.0086512     0.7762505   -0.5068462     0.7781757   -0.5042296     0.0086282   -0.0070879 
   1.905250000    -0.0018486   -0.0132911     0.6143305   -0.7019193     0.6116402   -0.6936367    -0.0018080   -0.0052392 
   1.925200000    -0.0175332   -0.0110574     0.3899475   -0.8355089     0.4015187   -0.8290900    -0.0114142    0.0000823 
   1.945150000    -0.0180739    0.0074930     0.1657918   -0.8949561     0.1677792   -0.9037476    -0.0142029    0.0069375 
   1.965100000    -0.0123332    0.0159902    -0.0724068   -0.9272053    -0.0794171   -0.9173300    -0.0128000    0.0134593 
   1.985050000    -0.0086528    0.0231786    -0.3406284   -0.8718623    -0.3221667   -0.8614509    -0.0076009    0.0233530 
   2.005000000     0.0014889    0.0280889    -0.5516765   -0.7295697    -0.5410087   -0.7448407     0.0023825    0.0281576 
   2.024950000     0.0145026    0.0225169    -0.7133124   -0.5687014    -0.7210983   -0.5724550     0.0093279    0.0266696 
   2.044900000     0.0231523    0.0124771    -0.8552646   -0.3653324    -0.8504336   -0.3603375     0.0138867    0.0234646 
   2.064850000     0.0272064    0.0003725    -0.9263037   -0.1085249    -0.9188585   -0.1155124     0.0192987    0.0162942 
   2.084800000     0.0229806   -0.0091914    -0.9110765    0.1450877    -0.9129477    0.1383134     0.0192827    0.0064780 
   2.104750000     0.0151304   -0.0169255    -0.8405814    0.3791674    -0.8408884    0.3760027     0.0174375   -0.0000655 
   2.124700000     0.0045108   -0.0209820    -0.7079702    0.5947689    -0.7095504    0.5906252     0.0121115   -0.0040816 
   2.144650000    -0.0070903   -0.0178924    -0.5201052    0.7601792    -0.5206583    0.7587587     0.0038358   -0.0032040 
   2.164600000    -0.0132129   -0.0083342    -0.2994231    0.8719382    -0.2984111    0.8656484    -0.0005284    0.0002852 
   2.184550000    -0.0163999    0.0011392    -0.0522663    0.9237410    -0.0591351    0.9157254    -0.0025743    0.0028990 
   2.204500000    -0.0137624    0.0102343     0.2015916    0.8974901     0.1928521    0.8988325    -0.0018221    0.0068628 
   2.224450000    -0.0052573    0.0166478     0.4265611    0.8090191     0.4244310    0.8102278     0.0030764    0.0133473 
   2.244400000     0.0047636    0.0163676     0.6284277    0.6723253     0.6244727    0.6712307     0.0085134    0.0158500 
   2.264350000     0.0135099    0.0124775     0.7936694    0.4770049     0.7865579    0.4789125     0.0131546    0.0145638 
   2.284300000     0.0177929    0.0057516     0.8894514    0.2398766     0.8862501    0.2461575     0.0169791    0.0082376 
   2.304250000     0.0201389   -0.0019252     0.9179891   -0.0037264     0.9176014   -0.0000058     0.0204294    0.0011912 
   2.324200000     0.0183744   -0.0108539     0.8865876   -0.2502654     0.8848501   -0.2475632     0.0204639   -0.0055434 
   2.344150000     0.0110375   -0.0166403     0.7841889   -0.4821900     0.7832049   -0.4772777     0.0150764   -0.0102290 
   2.364100000     0.0036011   -0.0148486     0.6238787   -0.6712747     0.6252494   -0.6676285     0.0077858   -0.0116985 
   2.384050000    -0.0019128   -0.0106093     0.4232645   -0.8149096     0.4245052   -0.8110917     0.0009283   -0.0131295 
   2.404000000    -0.0052380   -0.0064323     0.1861280   -0.8993300     0.1906448   -0.8940799    -0.0042591   -0.0110038 
   2.423950000    -0.0057521   -0.0012143    -0.0631413   -0.9121392    -0.0556214   -0.9117342    -0.0063326   -0.0044628 
   2.443900000    -0.0031544    0.0020660    -0.3007815   -0.8613808    -0.2974144   -0.8633646    -0.0074280    0.0033158 
   2.463850000     0.0029884    0.0035846    -0.5230973   -0.7534952    -0.5194048   -0.7531435    -0.0069116    0.0095622 
   2.483800000     0.0103814    0.0017906    -0.7108962   -0.5828431    -0.7051411   -0.5847118    -0.0024057    0.0123320 
   2.503750000     0.0152616   -0.0025618    -0.8394378   -0.3660707    -0.8361871   -0.3708296     0.0051700    0.0098355 
   2.523700000     0.0166792   -0.0081736    -0.9044557   -0.1300350    -0.9027503   -0.1331495     0.0124151    0.0064264 
   2.543650000     0.0160890   -0.0151184    -0.9096071    0.1178525    -0.9064020    0.1148415     0.0172981    0.0021918 
   2.563600000     0.0139580   -0.0212089    -0.8425536    0.3616751    -0.8407788    0.3567792     0.0181401   -0.0051362 
   2.583550000     0.0113338   -0.0231107    -0.7099020    0.5721174    -0.7102829    0.5676494     0.0146759   -0.0137867 
   2.603500000     0.0077455   -0.0225753    -0.5331881    0.7405537    -0.5341279    0.7355652     0.0088482   -0.0211143 
   2.623450000     0.0002989   -0.0203328    -0.3114724    0.8583929    -0.3163114    0.8531054     0.0013373   -0.0228001 
   2.643400000    -0.0070064   -0.0178360    -0.0687138    0.9073908    -0.0746280    0.9056983    -0.0069433   -0.0200413 
   2.663350000    -0.0073180   -0.0181037     0.1750747    0.8907818     0.1724952    0.8904492    -0.0144821   -0.0152005 
   2.683300000    -0.0036385   -0.0195200     0.4078316    0.8157433     0.4050138    0.8130767    -0.0195213   -0.0088480 
   2.703250000     0.0011206   -0.0185341     0.6157362    0.6721964     0.6102614    0.6724831    -0.0173675   -0.0015941 
   2.723200000     0.0036765   -0.0137862     0.7706092    0.4808430     0.7679748    0.4840681    -0.0103821    0.0044496 
   2.743150000     0.0051285   -0.0121371     0.8726622    0.2571065     0.8692865    0.2576194    -0.0004602    0.0078815 
   2.763100000     0.0059915   -0.0170402     0.9111964    0.0108710     0.9052113    0.0143116     0.0081034    0.0068453 
   2.783050000     0.0081649   -0.0250796     0.8776341   -0.2352575     0.8748847   -0.2291866     0.0144232    0.0013435 
   2.803000000     0.0095305   -0.0299201     0.7819297   -0.4618329     0.7806020   -0.4582099     0.0175916   -0.0082369 
   2.822950000     0.0087458   -0.0305854     0.6269207   -0.6552022     0.6254718   -0.6490639     0.0155107   -0.0201094 
   2.842900000     0.0037102   -0.0337208     0.4251707   -0.7986881     0.4296869   -0.7916194     0.0071238   -0.0309865 
   2.862850000    -0.0058912   -0.0387982     0.1963352   -0.8807328     0.2028900   -0.8773670    -0.0035967   -0.0354343 
   2.882800000    -0.0139065   -0.0420148    -0.0485845   -0.9036688    -0.0442952   -0.9023860    -0.0140147   -0.0342585 
   2.902750000    -0.0175327   -0.0422461    -0.2902328   -0.8530527    -0.2861759   -0.8504492    -0.0258764   -0.0308194 
   2.922700000    -0.0201352   -0.0384269    -0.5059837   -0.7447419    -0.5004883   -0.7425253    -0.0370518   -0.0211523 
   2.942650000    -0.0210425   -0.0289109    -0.6886972   -0.5825004    -0.6818447   -0.5839272    -0.0360100   -0.0084579 
   2.962600000    -0.0189483   -0.0190471    -0.8214915   -0.3740335    -0.8179020   -0.3773696    -0.0266003    0.0003357 
   2.982550000    -0.0174429   -0.0138940    -0.8902070   -0.1371513    -0.8856077   -0.1392119    -0.0181437    0.0059133 
   3.002500000    -0.0140937   -0.0129217    -0.8941363    0.1075270    -0.8880525    0.1025467    -0.0097602    0.0073480 
   3.022450000    -0.0043555   -0.0186628    -0.8315874    0.3447993    -0.8292183    0.3360581     0.0002244   -0.0014983 
   3.042400000     0.0054753   -0.0279861    -0.7080075    0.5570072    -0.7089214    0.5504054     0.0063940   -0.0178684 
   3.062350000     0.0070624   -0.0353285    -0.5270326    0.7275176    -0.5313545    0.7209236     0.0031048   -0.0306785 
   3.082300000    -0.0007832   -0.0416316    -0.3097184    0.8370196    -0.3142712    0.8338492    -0.0063889   -0.0372896 
   3.102250000    -0.0155734   -0.0525046    -0.0779362    0.8882295    -0.0816914    0.8843239    -0.0227027   -0.0437872 
   3.122200000    -0.0291872   -0.0594248     0.1663017    0.8819879     0.1602613    0.8770015    -0.0398502   -0.0454650 
   3.142150000    -0.0354313   -0.0563800     0.4022361    0.7978733     0.3941405    0.7975345    -0.0497356   -0.0374483 
