! 9/28/2016 11:54:27 AM
! C:\USERS\ANRITSUUSER\DESKTOP\SWITCHES\SMA-UFL-LONG.S2P
! CHANNEL.1
! TR.MEASUREMENT
! CORRECTED.DATA
# GHZ S RI R 50.0
! FREQ.GHZ         S11RE         S11IM         S21RE         S21IM         S12RE         S12IM         S22RE         S22IM         
!; PortSelection: Port_12
   0.010000000     0.0063317    0.0035449     0.9921025   -0.0841069     0.9919895   -0.0900823     0.0071216    0.0033407 
   0.029950000     0.0106065    0.0025980     0.9598340   -0.2388783     0.9588211   -0.2367962     0.0102098    0.0025162 
   0.049900000     0.0130406   -0.0007876     0.9084463   -0.3837952     0.9079446   -0.3817504     0.0122312   -0.0008457 
   0.069850000     0.0141021   -0.0044223     0.8364185   -0.5191768     0.8358471   -0.5168269     0.0126870   -0.0053529 
   0.089800000     0.0141180   -0.0082319     0.7443644   -0.6406214     0.7443286   -0.6384770     0.0109005   -0.0090375 
   0.109750000     0.0126259   -0.0128698     0.6349387   -0.7464057     0.6351900   -0.7441963     0.0071193   -0.0117956 
   0.129700000     0.0086156   -0.0185439     0.5119638   -0.8337629     0.5125802   -0.8310248     0.0022125   -0.0140383 
   0.149650000     0.0025914   -0.0221410     0.3763163   -0.9015211     0.3770816   -0.8991950    -0.0027884   -0.0146808 
   0.169600000    -0.0041694   -0.0217489     0.2330042   -0.9468558     0.2341550   -0.9444788    -0.0086686   -0.0121322 
   0.189550000    -0.0110955   -0.0205408     0.0837621   -0.9691368     0.0853227   -0.9669723    -0.0154053   -0.0072071 
   0.209500000    -0.0175247   -0.0196225    -0.0652367   -0.9697225    -0.0632048   -0.9676910    -0.0214500   -0.0007267 
   0.229450000    -0.0228356   -0.0179168    -0.2142345   -0.9463947    -0.2118587   -0.9452417    -0.0242577    0.0053801 
   0.249400000    -0.0267687   -0.0117453    -0.3562136   -0.9009829    -0.3537143   -0.9000335    -0.0241211    0.0124240 
   0.269350000    -0.0306277   -0.0011171    -0.4890140   -0.8332019    -0.4865811   -0.8329163    -0.0231919    0.0203176 
   0.289300000    -0.0329020    0.0092200    -0.6098146   -0.7485290    -0.6068588   -0.7483355    -0.0213164    0.0281311 
   0.309250000    -0.0327188    0.0168638    -0.7171124   -0.6442946    -0.7141162   -0.6450517    -0.0164844    0.0343446 
   0.329200000    -0.0276997    0.0238053    -0.8057635   -0.5257238    -0.8031810   -0.5270679    -0.0085328    0.0388482 
   0.349150000    -0.0192139    0.0307219    -0.8745411   -0.3956120    -0.8722156   -0.3968892    -0.0004652    0.0410112 
   0.369100000    -0.0096376    0.0369725    -0.9240544   -0.2583209    -0.9218457   -0.2597460     0.0057326    0.0421807 
   0.389050000    -0.0002244    0.0391547    -0.9525099   -0.1125353    -0.9503188   -0.1145859     0.0114666    0.0406021 
   0.409000000     0.0098982    0.0378728    -0.9562480    0.0351577    -0.9550470    0.0327018     0.0184768    0.0359863 
   0.428950000     0.0200436    0.0333555    -0.9376698    0.1792875    -0.9368137    0.1770558     0.0243971    0.0298004 
   0.448900000     0.0280995    0.0264255    -0.8999183    0.3196073    -0.8990450    0.3174562     0.0262368    0.0238518 
   0.468850000     0.0325302    0.0161597    -0.8404887    0.4543133    -0.8397924    0.4517137     0.0239744    0.0177427 
   0.488800000     0.0332746    0.0037625    -0.7583631    0.5779466    -0.7581158    0.5751259     0.0197129    0.0114872 
   0.508750000     0.0318207   -0.0084950    -0.6611798    0.6849175    -0.6611772    0.6817061     0.0149211    0.0061324 
   0.528700000     0.0264595   -0.0184979    -0.5482643    0.7784021    -0.5493923    0.7755671     0.0086266    0.0032596 
   0.548650000     0.0162533   -0.0264299    -0.4218594    0.8525434    -0.4238239    0.8506517    -0.0009294    0.0039329 
   0.568600000     0.0029745   -0.0317404    -0.2855037    0.9060065    -0.2862467    0.9037843    -0.0105759    0.0071608 
   0.588550000    -0.0099117   -0.0327334    -0.1446753    0.9384746    -0.1464635    0.9348306    -0.0169563    0.0122205 
   0.608500000    -0.0225583   -0.0269187     0.0034816    0.9493017    -0.0009998    0.9471985    -0.0212920    0.0201226 
   0.628450000    -0.0348678   -0.0161938     0.1489846    0.9343717     0.1452418    0.9348390    -0.0254152    0.0314256 
   0.648400000    -0.0461001   -0.0033243     0.2886041    0.8976987     0.2867163    0.8981490    -0.0285851    0.0438402 
   0.668350000    -0.0524063    0.0094680     0.4197960    0.8444300     0.4173008    0.8430965    -0.0264200    0.0540169 
   0.688300000    -0.0515158    0.0244694     0.5462309    0.7696545     0.5421438    0.7696814    -0.0200718    0.0626171 
   0.708250000    -0.0449904    0.0415726     0.6570101    0.6736880     0.6534054    0.6755876    -0.0112919    0.0709989 
   0.728200000    -0.0352440    0.0581377     0.7475442    0.5631937     0.7463812    0.5654649    -0.0019419    0.0786302 
   0.748150000    -0.0220448    0.0686323     0.8217934    0.4458399     0.8205194    0.4465238     0.0091623    0.0814533 
   0.768100000    -0.0057424    0.0729154     0.8820873    0.3165909     0.8795810    0.3171090     0.0211727    0.0796105 
   0.788050000     0.0123507    0.0734861     0.9207280    0.1759677     0.9172696    0.1781009     0.0324044    0.0754454 
   0.808000000     0.0306465    0.0697947     0.9341272    0.0319784     0.9316458    0.0359263     0.0411875    0.0705931 
   0.827950000     0.0464977    0.0596511     0.9255624   -0.1081394     0.9252643   -0.1049759     0.0463716    0.0630288 
   0.847900000     0.0581863    0.0432009     0.8995383   -0.2453152     0.8988709   -0.2437469     0.0485620    0.0528491 
   0.867850000     0.0649791    0.0243820     0.8532912   -0.3807627     0.8518066   -0.3776206     0.0483532    0.0424631 
   0.887800000     0.0659933    0.0056741     0.7847037   -0.5079296     0.7844344   -0.5034667     0.0451275    0.0341747 
   0.907750000     0.0601659   -0.0128911     0.6962062   -0.6222245     0.6978308   -0.6185536     0.0382637    0.0284796 
   0.927700000     0.0477473   -0.0310796     0.5923682   -0.7202361     0.5942433   -0.7166341     0.0288595    0.0248952 
   0.947650000     0.0306522   -0.0456623     0.4748909   -0.8018669     0.4788642   -0.7992201     0.0193874    0.0240623 
   0.967600000     0.0103366   -0.0522461     0.3471324   -0.8652674     0.3508780   -0.8646151     0.0104880    0.0278234 
   0.987550000    -0.0123051   -0.0509081     0.2087418   -0.9089642     0.2102090   -0.9085386     0.0025602    0.0356291 
   1.007500000    -0.0350269   -0.0440507     0.0655848   -0.9289011     0.0689212   -0.9258433    -0.0039013    0.0451721 
   1.027450000    -0.0543282   -0.0314482    -0.0798758   -0.9246361    -0.0721876   -0.9257936    -0.0063039    0.0564231 
   1.047400000    -0.0673055   -0.0136919    -0.2178875   -0.8972065    -0.2157267   -0.9043210    -0.0048069    0.0689636 
   1.067350000    -0.0752118    0.0099736    -0.3492900   -0.8517787    -0.3540212   -0.8539008    -0.0001877    0.0828160 
   1.087300000    -0.0755095    0.0352192    -0.4738676   -0.7910698    -0.4735681   -0.7855958     0.0080349    0.0931991 
   1.107250000    -0.0685999    0.0583074    -0.5929407   -0.7071971    -0.5853757   -0.7081723     0.0189044    0.0992046 
   1.127200000    -0.0534043    0.0783498    -0.6905828   -0.6027219    -0.6897985   -0.6096627     0.0324694    0.1027947 
   1.147150000    -0.0326358    0.0961571    -0.7651395   -0.4907772    -0.7714285   -0.4903385     0.0477167    0.1055994 
   1.167100000    -0.0079414    0.1055936    -0.8296766   -0.3774726    -0.8275046   -0.3702958     0.0614490    0.1034756 
   1.187050000     0.0154084    0.1061244    -0.8850804   -0.2479803    -0.8758339   -0.2480707     0.0714349    0.0965430 
   1.207000000     0.0405337    0.0977802    -0.9120187   -0.1028653    -0.9083115   -0.1103855     0.0804403    0.0856942 
   1.226950000     0.0639033    0.0826536    -0.9083338    0.0360644    -0.9114220    0.0324391     0.0872968    0.0739634 
   1.246900000     0.0819036    0.0620766    -0.8928736    0.1646237    -0.8931094    0.1657365     0.0902564    0.0624936 
   1.266850000     0.0901294    0.0384588    -0.8667349    0.2984183    -0.8626389    0.2968559     0.0877458    0.0511521 
   1.286800000     0.0904058    0.0113655    -0.8121324    0.4352144    -0.8116246    0.4290006     0.0816043    0.0396318 
   1.306750000     0.0825193   -0.0157779    -0.7305861    0.5554132    -0.7350786    0.5507061     0.0729293    0.0307381 
   1.326700000     0.0680742   -0.0384353    -0.6354701    0.6567271    -0.6406514    0.6569048     0.0636765    0.0278368 
   1.346650000     0.0456954   -0.0549701    -0.5318157    0.7451676    -0.5339472    0.7468982     0.0523481    0.0295730 
   1.366600000     0.0166326   -0.0637455    -0.4112243    0.8220423    -0.4115612    0.8240296     0.0388777    0.0331365 
   1.386550000    -0.0129860   -0.0639420    -0.2775356    0.8772647    -0.2770553    0.8772802     0.0276824    0.0400092 
   1.406500000    -0.0398310   -0.0551789    -0.1343250    0.9066342    -0.1354280    0.9063719     0.0229459    0.0508946 
   1.426450000    -0.0634856   -0.0370525     0.0064495    0.9099641     0.0043906    0.9121085     0.0225059    0.0650802 
   1.446400000    -0.0817709   -0.0115306     0.1414595    0.8941409     0.1441295    0.8994552     0.0243811    0.0800965 
   1.466350000    -0.0905975    0.0188357     0.2724010    0.8647391     0.2811230    0.8628106     0.0291780    0.0944201 
   1.486300000    -0.0887782    0.0488824     0.4056669    0.8140716     0.4068495    0.8033463     0.0383719    0.1048848 
   1.506250000    -0.0781390    0.0787975     0.5269855    0.7346295     0.5171913    0.7303736     0.0515722    0.1129000 
   1.526200000    -0.0586550    0.1056380     0.6219861    0.6379237     0.6209909    0.6437228     0.0678417    0.1167097 
   1.546150000    -0.0313564    0.1238652     0.7002223    0.5457620     0.7087948    0.5445606     0.0834822    0.1160555 
   1.566100000    -0.0005897    0.1311079     0.7827734    0.4458765     0.7817298    0.4305139     0.0974311    0.1113617 
   1.586050000     0.0314286    0.1306951     0.8534696    0.3135487     0.8348185    0.3085712     0.1101162    0.1037714 
   1.606000000     0.0622951    0.1218400     0.8803081    0.1673062     0.8709478    0.1828597     0.1214945    0.0923706 
   1.625950000     0.0883091    0.1018943     0.8801677    0.0455598     0.8923209    0.0540220     0.1277239    0.0765595 
   1.645900000     0.1063360    0.0747282     0.8918757   -0.0698401     0.8979169   -0.0841153     0.1281799    0.0636445 
   1.665850000     0.1193261    0.0409785     0.8934718   -0.2179770     0.8745833   -0.2259878     0.1273053    0.0523314 
   1.685800000     0.1198555    0.0063399     0.8390386   -0.3749963     0.8266679   -0.3541093     0.1205643    0.0421135 
   1.705750000     0.1077086   -0.0261542     0.7499982   -0.4897317     0.7703052   -0.4739931     0.1093413    0.0314000 
   1.725700000     0.0850993   -0.0507819     0.6740415   -0.5783190     0.6920475   -0.5965724     0.0944414    0.0262543 
   1.745650000     0.0565557   -0.0736334     0.5977318   -0.6785728     0.5821176   -0.7013135     0.0859953    0.0268939 
   1.765600000     0.0191256   -0.0824038     0.4894082   -0.7832701     0.4645342   -0.7741212     0.0755316    0.0322245 
   1.785550000    -0.0172348   -0.0800143     0.3426056   -0.8596356     0.3431319   -0.8391687     0.0643540    0.0437833 
   1.805500000    -0.0498631   -0.0665254     0.1858546   -0.8836567     0.2017419   -0.8841962     0.0517666    0.0551473 
   1.825450000    -0.0833560   -0.0450861     0.0615099   -0.8682505     0.0572502   -0.8925219     0.0510046    0.0686272 
   1.845400000    -0.1002551   -0.0057578    -0.0241082   -0.8826765    -0.0680569   -0.8843477     0.0617904    0.0748592 
   1.865350000    -0.1064151    0.0288155    -0.1808834   -0.9285251    -0.2022680   -0.8689178     0.0711538    0.0897919 
   1.885300000    -0.1043316    0.0633284    -0.3947356   -0.8533392    -0.3372974   -0.8205377     0.0825956    0.1068300 
   1.905250000    -0.0971663    0.1039400    -0.4740722   -0.6995906    -0.4488369   -0.7478650     0.0988227    0.1231366 
   1.925200000    -0.0610882    0.1341456    -0.4888547   -0.6679297    -0.5443867   -0.6781617     0.1132471    0.1157694 
   1.945150000    -0.0310703    0.1481411    -0.6355097   -0.6713008    -0.6432304   -0.5936134     0.1225290    0.1133041 
   1.965100000     0.0037658    0.1633341    -0.8119507   -0.5067968    -0.7244387   -0.4901252     0.1444760    0.1096827 
   1.985050000     0.0485519    0.1643845    -0.8134653   -0.3081767    -0.7888784   -0.3796234     0.1652288    0.0967976 
   2.005000000     0.0859749    0.1456898    -0.7890499   -0.2391241    -0.8416821   -0.2583241     0.1712791    0.0803162 
   2.024950000     0.1150014    0.1207927    -0.8636513   -0.1790309    -0.8709636   -0.1277027     0.1742580    0.0684233 
   2.044900000     0.1402947    0.0912342    -0.9424749   -0.0046974    -0.8853567   -0.0013878     0.1789034    0.0553524 
   2.064850000     0.1574416    0.0472276    -0.8967177    0.1931862    -0.8898334    0.1393456     0.1803531    0.0340722 
   2.084800000     0.1523391    0.0056656    -0.8123873    0.3004476    -0.8531881    0.2898585     0.1680463    0.0210801 
   2.104750000     0.1418597   -0.0336675    -0.7760940    0.3792617    -0.7872688    0.4109367     0.1600173    0.0123512 
   2.124700000     0.1174635   -0.0677237    -0.7485213    0.5050430    -0.7252540    0.5209230     0.1469982    0.0052660 
   2.144650000     0.0843956   -0.0956547    -0.6605003    0.6491860    -0.6407646    0.6416508     0.1364961    0.0005921 
   2.164600000     0.0388769   -0.1050593    -0.5233415    0.7471665    -0.5144765    0.7342714     0.1201443    0.0013228 
   2.184550000    -0.0028311   -0.1061140    -0.3940891    0.7986552    -0.3960888    0.7882252     0.1120872    0.0111085 
   2.204500000    -0.0457138   -0.0931449    -0.2794003    0.8359877    -0.2782523    0.8437033     0.1057545    0.0191089 
   2.224450000    -0.0800604   -0.0661905    -0.1645020    0.8758658    -0.1338531    0.8782389     0.1023026    0.0318500 
   2.244400000    -0.0997116   -0.0255708    -0.0251713    0.9089335     0.0027044    0.8690857     0.1014724    0.0429953 
   2.264350000    -0.1101263    0.0112902     0.1360497    0.9057274     0.1166551    0.8571175     0.1051269    0.0582925 
   2.284300000    -0.1119597    0.0579698     0.2840178    0.8482224     0.2486739    0.8416352     0.1179130    0.0679402 
   2.304250000    -0.0957770    0.1005870     0.3846223    0.7791262     0.3802119    0.7851458     0.1302316    0.0745716 
   2.324200000    -0.0656707    0.1337390     0.4787325    0.7327062     0.4810477    0.7123507     0.1436781    0.0775712 
   2.344150000    -0.0318091    0.1551599     0.6044877    0.6735032     0.5776689    0.6457862     0.1554286    0.0790295 
   2.364100000     0.0116108    0.1692361     0.7232703    0.5531276     0.6805168    0.5549167     0.1722502    0.0731848 
   2.384050000     0.0586890    0.1649552     0.7808154    0.4122632     0.7585191    0.4401630     0.1853905    0.0603079 
   2.404000000     0.1005544    0.1475441     0.8095362    0.3021802     0.8153016    0.3224221     0.1947622    0.0487731 
   2.423950000     0.1355620    0.1201619     0.8547239    0.2011522     0.8587621    0.1954892     0.2012929    0.0373751 
   2.443900000     0.1617690    0.0833814     0.9004241    0.0651489     0.8794218    0.0630447     0.2040282    0.0233778 
   2.463850000     0.1751421    0.0381083     0.9002860   -0.0967061     0.8868672   -0.0715421     0.2025472    0.0069443 
   2.483800000     0.1714541   -0.0104098     0.8537853   -0.2369575     0.8699918   -0.2209860     0.1955571   -0.0081968 
   2.503750000     0.1537280   -0.0532044     0.8004919   -0.3462146     0.8094338   -0.3591719     0.1873350   -0.0153835 
   2.523700000     0.1237628   -0.0915055     0.7569170   -0.4537015     0.7387115   -0.4642605     0.1773284   -0.0205159 
   2.543650000     0.0841151   -0.1184281     0.6927735   -0.5800818     0.6694359   -0.5728617     0.1648055   -0.0226804 
   2.563600000     0.0382976   -0.1311307     0.5836443   -0.6966761     0.5652701   -0.6790884     0.1517276   -0.0251332 
   2.583550000    -0.0052449   -0.1258224     0.4505469   -0.7692782     0.4419537   -0.7442684     0.1410529   -0.0179751 
   2.603500000    -0.0511510   -0.1085187     0.3312601   -0.8112124     0.3353669   -0.7918638     0.1377161   -0.0084695 
   2.623450000    -0.0914770   -0.0737137     0.2198318   -0.8516793     0.2138407   -0.8411853     0.1342478    0.0021764 
   2.643400000    -0.1181948   -0.0312614     0.0916780   -0.8952321     0.0768106   -0.8596854     0.1319288    0.0126502 
   2.663350000    -0.1265574    0.0112936    -0.0692644   -0.9057072    -0.0472972   -0.8531377     0.1334634    0.0245231 
   2.683300000    -0.1214313    0.0590708    -0.2191210   -0.8622234    -0.1690664   -0.8461707     0.1456487    0.0323464 
   2.703250000    -0.0962384    0.1054732    -0.3282967   -0.8008572    -0.3027073   -0.8115821     0.1591524    0.0367127 
   2.723200000    -0.0617137    0.1432640    -0.4300708   -0.7620534    -0.4168385   -0.7559566     0.1720321    0.0411762 
   2.743150000    -0.0224011    0.1706560    -0.5643580   -0.7015401    -0.5290502   -0.6929069     0.1861232    0.0450975 
   2.763100000     0.0277793    0.1813139    -0.6786003   -0.5825564    -0.6400218   -0.6023138     0.2000158    0.0382080 
   2.783050000     0.0779231    0.1697488    -0.7334843   -0.4572653    -0.7178921   -0.4884744     0.2091071    0.0284111 
   2.803000000     0.1247989    0.1459971    -0.7818341   -0.3631319    -0.7837555   -0.3862051     0.2173729    0.0177328 
   2.822950000     0.1649195    0.1120108    -0.8475991   -0.2461244    -0.8538977   -0.2534153     0.2260765    0.0050289 
   2.842900000     0.1890090    0.0651361    -0.8765626   -0.0956033    -0.8712305   -0.0961554     0.2275367   -0.0123897 
   2.862850000     0.1969495    0.0173550    -0.8639803    0.0360092    -0.8543391    0.0245381     0.2266410   -0.0257586 
   2.882800000     0.1927769   -0.0354538    -0.8549374    0.1528989    -0.8578284    0.1432756     0.2241229   -0.0390629 
   2.902750000     0.1709710   -0.0876513    -0.8319509    0.2911716    -0.8259020    0.2972977     0.2188005   -0.0499683 
   2.922700000     0.1335277   -0.1248160    -0.7649722    0.4224762    -0.7399249    0.4144931     0.2082641   -0.0543725 
   2.942650000     0.0904788   -0.1521099    -0.6869354    0.5192414    -0.6756195    0.4926590     0.2003578   -0.0584134 
   2.962600000     0.0357646   -0.1635547    -0.6160696    0.6166328    -0.6127082    0.6021473     0.1882239   -0.0620926 
   2.982550000    -0.0204761   -0.1559767    -0.5151422    0.7202654    -0.4945465    0.6956781     0.1765518   -0.0618982 
   3.002500000    -0.0672513   -0.1368985    -0.3814815    0.7928608    -0.3812866    0.7391845     0.1703577   -0.0545679 
   3.022450000    -0.1095417   -0.1062133    -0.2541184    0.8242633    -0.2905011    0.7894425     0.1701024   -0.0504340 
   3.042400000    -0.1336139   -0.0559197    -0.1414906    0.8539699    -0.1600499    0.8454278     0.1662806   -0.0433386 
   3.062350000    -0.1412281    0.0016063    -0.0078269    0.8826876    -0.0223780    0.8456184     0.1643059   -0.0319508 
   3.082300000    -0.1384270    0.0563712     0.1499583    0.8749089     0.0881423    0.8424692     0.1686036   -0.0208744 
   3.102250000    -0.1176718    0.1081557     0.2865444    0.8154826     0.2236923    0.8410704     0.1764168   -0.0216496 
   3.122200000    -0.0759627    0.1413669     0.3836680    0.7568127     0.3680678    0.7859496     0.1818363   -0.0202154 
   3.142150000    -0.0219189    0.1628888     0.4916591    0.7129654     0.4711787    0.7148543     0.1933848   -0.0164355 
