! 9/28/2016 11:59:28 AM
! C:\USERS\ANRITSUUSER\DESKTOP\SWITCHES\SMA-UFL-BLACK.S2P
! CHANNEL.1
! TR.MEASUREMENT
! CORRECTED.DATA
# GHZ S RI R 50.0
! FREQ.GHZ         S11RE         S11IM         S21RE         S21IM         S12RE         S12IM         S22RE         S22IM         
!; PortSelection: Port_12
   0.010000000     0.0043635    0.0029253     0.9958325   -0.0526661     0.9957275   -0.0592314     0.0051175    0.0027871 
   0.029950000     0.0072776    0.0035788     0.9812364   -0.1492115     0.9798256   -0.1470232     0.0067741    0.0036182 
   0.049900000     0.0096664    0.0025299     0.9607431   -0.2412084     0.9595450   -0.2392108     0.0086946    0.0026086 
   0.069850000     0.0115579    0.0013828     0.9320427   -0.3309858     0.9311039   -0.3286080     0.0106083    0.0006653 
   0.089800000     0.0131864    0.0003037     0.8951375   -0.4170349     0.8947285   -0.4146423     0.0116409   -0.0009081 
   0.109750000     0.0142905   -0.0016949     0.8505407   -0.4989176     0.8500301   -0.4967366     0.0110221   -0.0023799 
   0.129700000     0.0150961   -0.0063827     0.7993779   -0.5761051     0.7987394   -0.5733708     0.0095036   -0.0047324 
   0.149650000     0.0147304   -0.0114900     0.7403232   -0.6483054     0.7398641   -0.6457188     0.0075978   -0.0067387 
   0.169600000     0.0126920   -0.0145246     0.6754156   -0.7143595     0.6754851   -0.7116962     0.0046555   -0.0077538 
   0.189550000     0.0093752   -0.0162899     0.6040357   -0.7737122     0.6042550   -0.7710444     0.0001763   -0.0081695 
   0.209500000     0.0064663   -0.0194222     0.5287101   -0.8263659     0.5293638   -0.8236867    -0.0045129   -0.0092701 
   0.229450000     0.0042752   -0.0235420     0.4478638   -0.8715001     0.4484424   -0.8690946    -0.0084983   -0.0100035 
   0.249400000     0.0014553   -0.0263927     0.3637258   -0.9094990     0.3648550   -0.9068322    -0.0115421   -0.0079380 
   0.269350000    -0.0042576   -0.0273910     0.2757103   -0.9374883     0.2771794   -0.9352633    -0.0150454   -0.0035950 
   0.289300000    -0.0121222   -0.0277446     0.1871547   -0.9589886     0.1890953   -0.9565032    -0.0198212    0.0005962 
   0.309250000    -0.0191718   -0.0286156     0.0959395   -0.9713110     0.0979700   -0.9690799    -0.0245086    0.0042352 
   0.329200000    -0.0242688   -0.0282144     0.0035476   -0.9758673     0.0062252   -0.9735505    -0.0273603    0.0086041 
   0.349150000    -0.0289011   -0.0244739    -0.0881807   -0.9689305    -0.0855468   -0.9674051    -0.0285663    0.0149196 
   0.369100000    -0.0351858   -0.0185384    -0.1769566   -0.9561948    -0.1745174   -0.9549249    -0.0294980    0.0223842 
   0.389050000    -0.0417359   -0.0123884    -0.2657926   -0.9353321    -0.2629479   -0.9333659    -0.0309212    0.0290509 
   0.409000000    -0.0459956   -0.0070686    -0.3540415   -0.9058279    -0.3498516   -0.9048648    -0.0297679    0.0353824 
   0.428950000    -0.0488311   -0.0001517    -0.4364443   -0.8645564    -0.4329597   -0.8652057    -0.0277575    0.0416272 
   0.448900000    -0.0503593    0.0100653    -0.5124195   -0.8195339    -0.5103079   -0.8201852    -0.0250618    0.0496347 
   0.468850000    -0.0514927    0.0200803    -0.5855955   -0.7695568    -0.5830567   -0.7687253    -0.0218128    0.0563810 
   0.488800000    -0.0503740    0.0288838    -0.6579796   -0.7110527    -0.6534364   -0.7113615    -0.0164792    0.0604428 
   0.508750000    -0.0465004    0.0364065    -0.7201986   -0.6420284    -0.7167420   -0.6446502    -0.0097231    0.0637746 
   0.528700000    -0.0408382    0.0453328    -0.7731394   -0.5711919    -0.7719459   -0.5734172    -0.0028927    0.0685516 
   0.548650000    -0.0344334    0.0540605    -0.8208092   -0.4994179    -0.8196676   -0.5000352     0.0033896    0.0727022 
   0.568600000    -0.0268872    0.0601055    -0.8670009   -0.4216725    -0.8634068   -0.4225137     0.0093378    0.0734809 
   0.588550000    -0.0169235    0.0629692    -0.9025470   -0.3354599    -0.8994194   -0.3382611     0.0160991    0.0711514 
   0.608500000    -0.0055428    0.0655621    -0.9266582   -0.2481494    -0.9254496   -0.2513607     0.0232825    0.0696349 
   0.628450000     0.0060277    0.0676136    -0.9429534   -0.1635263    -0.9422859   -0.1649304     0.0305082    0.0685696 
   0.648400000     0.0158408    0.0666436    -0.9553144   -0.0768121    -0.9534693   -0.0782315     0.0352650    0.0655301 
   0.668350000     0.0255270    0.0621718    -0.9598504    0.0135827    -0.9573439    0.0111710     0.0389155    0.0603666 
   0.688300000     0.0357136    0.0558197    -0.9530888    0.1045657    -0.9511797    0.1014246     0.0424562    0.0548665 
   0.708250000     0.0449991    0.0487334    -0.9374272    0.1924868    -0.9362747    0.1892895     0.0451506    0.0504073 
   0.728200000     0.0515752    0.0395250    -0.9148133    0.2772282    -0.9142284    0.2743659     0.0452556    0.0450063 
   0.748150000     0.0543226    0.0279893    -0.8864582    0.3608769    -0.8857196    0.3580332     0.0429441    0.0381390 
   0.768100000     0.0565824    0.0159981    -0.8494185    0.4430349    -0.8485925    0.4398613     0.0407863    0.0309584 
   0.788050000     0.0575266    0.0048619    -0.8035148    0.5220830    -0.8033643    0.5178213     0.0385558    0.0262231 
   0.808000000     0.0553015   -0.0061163    -0.7495018    0.5948991    -0.7502823    0.5899029     0.0351948    0.0234904 
   0.827950000     0.0489827   -0.0182763    -0.6898934    0.6612669    -0.6922262    0.6571296     0.0285343    0.0215340 
   0.847900000     0.0406767   -0.0303773    -0.6257626    0.7216918    -0.6279071    0.7184804     0.0213309    0.0197289 
   0.867850000     0.0319366   -0.0400819    -0.5559247    0.7783209    -0.5581121    0.7753038     0.0151829    0.0198665 
   0.887800000     0.0214659   -0.0452571    -0.4795377    0.8273486    -0.4814419    0.8240800     0.0092098    0.0224988 
   0.907750000     0.0082193   -0.0486171    -0.3979022    0.8684648    -0.4010438    0.8650523     0.0022400    0.0263491 
   0.927700000    -0.0073933   -0.0512214    -0.3141385    0.9004854    -0.3189663    0.8971253    -0.0046322    0.0311027 
   0.947650000    -0.0226246   -0.0513000    -0.2275808    0.9247540    -0.2332494    0.9251009    -0.0101741    0.0367790 
   0.967600000    -0.0361996   -0.0465605    -0.1403969    0.9407615    -0.1428735    0.9425268    -0.0136734    0.0448909 
   0.987550000    -0.0493679   -0.0379261    -0.0508605    0.9497570    -0.0515212    0.9485875    -0.0155585    0.0545981 
   1.007500000    -0.0621496   -0.0282103     0.0390342    0.9496155     0.0344979    0.9460333    -0.0172663    0.0636718 
   1.027450000    -0.0725410   -0.0171515     0.1309265    0.9388294     0.1224585    0.9410570    -0.0161283    0.0731487 
   1.047400000    -0.0794241   -0.0043617     0.2164179    0.9168459     0.2137949    0.9248066    -0.0131226    0.0833277 
   1.067350000    -0.0847492    0.0120348     0.2966243    0.8904272     0.3016167    0.8937806    -0.0089643    0.0950929 
   1.087300000    -0.0869249    0.0296976     0.3763116    0.8630201     0.3773631    0.8574439    -0.0030316    0.1042688 
   1.107250000    -0.0862410    0.0462639     0.4612079    0.8238103     0.4529588    0.8224198     0.0045686    0.1102384 
   1.127200000    -0.0807086    0.0624276     0.5359477    0.7691488     0.5315704    0.7771817     0.0148083    0.1154765 
   1.147150000    -0.0731629    0.0798675     0.5955323    0.7109771     0.6027340    0.7161623     0.0254923    0.1225528 
   1.167100000    -0.0621715    0.0961126     0.6526656    0.6606764     0.6581138    0.6537641     0.0370735    0.1276870 
   1.187050000    -0.0505616    0.1074011     0.7181191    0.6034545     0.7112163    0.5953525     0.0467261    0.1285666 
   1.207000000    -0.0355319    0.1153626     0.7767562    0.5256674     0.7672682    0.5299322     0.0583378    0.1260833 
   1.226950000    -0.0178359    0.1213727     0.8128236    0.4428366     0.8147265    0.4507934     0.0704085    0.1226527 
   1.246900000     0.0020260    0.1267042     0.8391200    0.3737432     0.8457571    0.3711061     0.0826544    0.1201373 
   1.266850000     0.0204666    0.1266026     0.8760679    0.3054205     0.8728727    0.2962094     0.0915443    0.1141285 
   1.286800000     0.0374806    0.1223820     0.9104962    0.2179296     0.8987424    0.2183182     0.0988336    0.1057599 
   1.306750000     0.0548908    0.1141239     0.9217744    0.1235537     0.9175051    0.1331598     0.1060893    0.0950935 
   1.326700000     0.0722949    0.1039775     0.9199339    0.0424958     0.9250936    0.0466680     0.1119963    0.0858765 
   1.346650000     0.0865104    0.0914948     0.9241343   -0.0324654     0.9245276   -0.0381828     0.1149585    0.0774376 
   1.366600000     0.0962562    0.0756147     0.9282721   -0.1202654     0.9175681   -0.1217045     0.1147901    0.0669753 
   1.386550000     0.1027644    0.0574096     0.9134405   -0.2157851     0.9051701   -0.2043236     0.1123673    0.0549186 
   1.406500000     0.1070733    0.0378970     0.8814136   -0.3008227     0.8857186   -0.2887958     0.1088734    0.0441216 
   1.426450000     0.1073656    0.0186739     0.8486217   -0.3752877     0.8564202   -0.3734449     0.1041207    0.0371561 
   1.446400000     0.1034746   -0.0006252     0.8162109   -0.4511741     0.8161470   -0.4528811     0.0968033    0.0312861 
   1.466350000     0.0947675   -0.0189139     0.7743020   -0.5316285     0.7720078   -0.5269731     0.0862582    0.0254993 
   1.486300000     0.0831340   -0.0353516     0.7164454   -0.6066149     0.7206781   -0.5994938     0.0753833    0.0210490 
   1.506250000     0.0691071   -0.0480754     0.6522185   -0.6699624     0.6602654   -0.6683493     0.0654717    0.0195700 
   1.526200000     0.0514355   -0.0588468     0.5883490   -0.7227596     0.5895820   -0.7293336     0.0561234    0.0217572 
   1.546150000     0.0296717   -0.0662512     0.5178757   -0.7763484     0.5184777   -0.7804686     0.0462588    0.0271827 
   1.566100000     0.0080558   -0.0693153     0.4433942   -0.8234923     0.4405613   -0.8263446     0.0365056    0.0347082 
   1.586050000    -0.0123850   -0.0671258     0.3606872   -0.8653799     0.3585079   -0.8640280     0.0280538    0.0436007 
   1.606000000    -0.0317031   -0.0605201     0.2702505   -0.8941612     0.2719446   -0.8928263     0.0203780    0.0530312 
   1.625950000    -0.0515226   -0.0505587     0.1795082   -0.9069505     0.1833570   -0.9117664     0.0155125    0.0653551 
   1.645900000    -0.0698207   -0.0359252     0.1021292   -0.9083275     0.0956638   -0.9188941     0.0167669    0.0793294 
   1.665850000    -0.0827518   -0.0177463     0.0293638   -0.9222693     0.0117851   -0.9216753     0.0196607    0.0922967 
   1.685800000    -0.0920099    0.0032305    -0.0669830   -0.9371258    -0.0769877   -0.9189276     0.0227013    0.1061339 
   1.705750000    -0.0978212    0.0256877    -0.1814604   -0.9145275    -0.1681568   -0.9016685     0.0259165    0.1190119 
   1.725700000    -0.1020938    0.0512180    -0.2565013   -0.8553182    -0.2468784   -0.8694823     0.0369181    0.1333382 
   1.745650000    -0.0946028    0.0760902    -0.2895363   -0.8296980    -0.3148990   -0.8437975     0.0555887    0.1384325 
   1.765600000    -0.0866831    0.0958289    -0.3587690   -0.8511058    -0.3931130   -0.8175558     0.0670978    0.1480498 
   1.785550000    -0.0749016    0.1184614    -0.5025182   -0.8228934    -0.4748126   -0.7700095     0.0804908    0.1576941 
   1.805500000    -0.0639030    0.1378965    -0.5857232   -0.6932817    -0.5329348   -0.7103879     0.0913558    0.1660307 
   1.825450000    -0.0384858    0.1544865    -0.5588648   -0.6187725    -0.5814754   -0.6664006     0.1148430    0.1546981 
   1.845400000    -0.0183809    0.1566660    -0.5843189   -0.6641051    -0.6464553   -0.6231853     0.1237469    0.1425623 
   1.865350000     0.0052314    0.1676511    -0.7647500   -0.6458675    -0.7113459   -0.5536452     0.1456797    0.1446232 
   1.885300000     0.0271924    0.1710458    -0.8460880   -0.4341267    -0.7490670   -0.4769512     0.1631597    0.1430674 
   1.905250000     0.0571431    0.1734053    -0.7501327   -0.3317810    -0.7793415   -0.4144245     0.1824574    0.1310758 
   1.925200000     0.0789325    0.1577882    -0.7471848   -0.3863775    -0.8199996   -0.3518396     0.1791300    0.1123886 
   1.945150000     0.0970428    0.1504452    -0.9050289   -0.3538541    -0.8551422   -0.2728487     0.1868439    0.1038858 
   1.965100000     0.1217241    0.1380154    -0.9646568   -0.1457477    -0.8759685   -0.1929366     0.2011984    0.0859888 
   1.985050000     0.1422712    0.1158144    -0.8695804   -0.0328084    -0.8931282   -0.1134982     0.2051540    0.0633562 
   2.005000000     0.1525250    0.0931825    -0.8407224   -0.0376189    -0.9033663   -0.0275062     0.1987731    0.0481643 
   2.024950000     0.1602032    0.0716856    -0.9149466    0.0020538    -0.9007269    0.0560879     0.1944971    0.0354974 
   2.044900000     0.1678628    0.0486175    -0.9547752    0.1521456    -0.8986035    0.1352764     0.1920236    0.0206651 
   2.064850000     0.1690651    0.0161327    -0.8849155    0.2832269    -0.8931126    0.2283073     0.1832857    0.0003702 
   2.084800000     0.1588100   -0.0082917    -0.8162915    0.3291210    -0.8594005    0.3259160     0.1656244   -0.0076787 
   2.104750000     0.1514238   -0.0315446    -0.8059281    0.3667101    -0.8130046    0.3985725     0.1536010   -0.0143398 
   2.124700000     0.1367019   -0.0517926    -0.8046016    0.4570142    -0.7805885    0.4649727     0.1367423   -0.0201673 
   2.144650000     0.1211758   -0.0710443    -0.7515448    0.5653548    -0.7434127    0.5495114     0.1221592   -0.0247944 
   2.164600000     0.0931070   -0.0843638    -0.6655186    0.6351082    -0.6722794    0.6297941     0.1018633   -0.0245918 
   2.184550000     0.0700768   -0.0920222    -0.5970695    0.6768285    -0.5986105    0.6791595     0.0874788   -0.0154330 
   2.204500000     0.0444382   -0.0978927    -0.5394456    0.7225930    -0.5378074    0.7281608     0.0750347   -0.0077223 
   2.224450000     0.0202931   -0.0965519    -0.4741743    0.7749596    -0.4662203    0.7853024     0.0612942    0.0057263 
   2.244400000    -0.0062279   -0.0855958    -0.3965634    0.8200500    -0.3739867    0.8235804     0.0496737    0.0217781 
   2.264350000    -0.0241563   -0.0700103    -0.3129228    0.8593786    -0.2935853    0.8416423     0.0414579    0.0395475 
   2.284300000    -0.0438841   -0.0547347    -0.2156278    0.8827509    -0.2172451    0.8636041     0.0388942    0.0598077 
   2.304250000    -0.0609513   -0.0334386    -0.1255059    0.8804121    -0.1301717    0.8812852     0.0410543    0.0805836 
   2.324200000    -0.0716178   -0.0079103    -0.0581372    0.8731733    -0.0414066    0.8780280     0.0478671    0.1029250 
   2.344150000    -0.0735141    0.0160079     0.0080644    0.8894374     0.0339797    0.8700579     0.0572138    0.1194514 
   2.364100000    -0.0721856    0.0383267     0.1081543    0.9003320     0.1129579    0.8630769     0.0702304    0.1367047 
   2.384050000    -0.0646882    0.0630631     0.2150527    0.8690462     0.1943926    0.8452604     0.0916368    0.1501611 
   2.404000000    -0.0507918    0.0870090     0.2838491    0.8149519     0.2690049    0.8164464     0.1150613    0.1616654 
   2.423950000    -0.0331257    0.1077096     0.3287356    0.7865077     0.3389869    0.7852773     0.1380196    0.1702483 
   2.443900000    -0.0149968    0.1233599     0.3957259    0.7775505     0.4061102    0.7456102     0.1603925    0.1739114 
   2.463850000     0.0058081    0.1334013     0.4933254    0.7433453     0.4650828    0.7038407     0.1840056    0.1715228 
   2.483800000     0.0328378    0.1397901     0.5732290    0.6638539     0.5257645    0.6651330     0.2125360    0.1637865 
   2.503750000     0.0638529    0.1398021     0.6057562    0.5838731     0.5950802    0.6122863     0.2381167    0.1482335 
   2.523700000     0.0920493    0.1362585     0.6247947    0.5448542     0.6444194    0.5395620     0.2585946    0.1334720 
   2.543650000     0.1161686    0.1276661     0.6866944    0.5198347     0.6733075    0.4795526     0.2757394    0.1141716 
   2.563600000     0.1372478    0.1163908     0.7705135    0.4395638     0.7143569    0.4322976     0.2923533    0.0931943 
   2.583550000     0.1613352    0.0944914     0.7936583    0.3174389     0.7672435    0.3605314     0.3076822    0.0593106 
   2.603500000     0.1779803    0.0693597     0.7663441    0.2496142     0.7897595    0.2711533     0.3083853    0.0309517 
   2.623450000     0.1940732    0.0447682     0.7834868    0.2280017     0.7937718    0.2034362     0.3078781    0.0067511 
   2.643400000     0.2048268    0.0188623     0.8491139    0.1611356     0.8143812    0.1440868     0.3018623   -0.0189401 
   2.663350000     0.2096834   -0.0126430     0.8632465    0.0324783     0.8340771    0.0602782     0.2903970   -0.0526854 
   2.683300000     0.2036422   -0.0428074     0.8125618   -0.0487476     0.8251616   -0.0238731     0.2660851   -0.0799546 
   2.703250000     0.1977571   -0.0714943     0.7974155   -0.0801389     0.8136161   -0.0906295     0.2434131   -0.0978583 
   2.723200000     0.1886372   -0.1019549     0.8226848   -0.1458096     0.8089880   -0.1644923     0.2181769   -0.1114320 
   2.743150000     0.1721202   -0.1321922     0.8088690   -0.2523453     0.7843153   -0.2470895     0.1867207   -0.1221137 
   2.763100000     0.1504014   -0.1538820     0.7545197   -0.3247365     0.7486793   -0.3108270     0.1517411   -0.1220157 
   2.783050000     0.1273604   -0.1738413     0.7206499   -0.3685309     0.7249897   -0.3704266     0.1207485   -0.1143353 
   2.803000000     0.0979066   -0.1909268     0.6994558   -0.4316347     0.6896670   -0.4489075     0.0922856   -0.0971670 
   2.822950000     0.0632821   -0.2018668     0.6557772   -0.5018268     0.6234430   -0.5086634     0.0672216   -0.0718572 
   2.842900000     0.0324539   -0.2057620     0.6024993   -0.5583047     0.5721079   -0.5412140     0.0476680   -0.0424281 
   2.862850000     0.0026692   -0.2081023     0.5500508   -0.6068318     0.5389829   -0.5884293     0.0366119   -0.0114382 
   2.882800000    -0.0295545   -0.2017878     0.4935838   -0.6540458     0.4760470   -0.6546173     0.0353860    0.0231792 
   2.902750000    -0.0606994   -0.1867644     0.4346952   -0.6951435     0.3916562   -0.6795143     0.0453078    0.0585211 
   2.922700000    -0.0881800   -0.1708110     0.3685933   -0.7401795     0.3395722   -0.6875907     0.0621146    0.0914733 
   2.942650000    -0.1157514   -0.1519472     0.2896843   -0.7672379     0.2978733   -0.7216301     0.0868278    0.1193369 
   2.962600000    -0.1358766   -0.1255258     0.2238620   -0.7785524     0.2177803   -0.7616760     0.1155694    0.1369831 
   2.982550000    -0.1486878   -0.0969092     0.1658451   -0.8036433     0.1361299   -0.7551135     0.1463383    0.1468768 
   3.002500000    -0.1604641   -0.0719216     0.0758717   -0.8326208     0.0891472   -0.7499921     0.1807956    0.1531674 
   3.022450000    -0.1704982   -0.0415645    -0.0201220   -0.8121429     0.0383579   -0.7696590     0.2212055    0.1486636 
   3.042400000    -0.1679756   -0.0111622    -0.0674948   -0.7861279    -0.0440568   -0.7784994     0.2524387    0.1360319 
   3.062350000    -0.1604172    0.0179962    -0.1178841   -0.8051512    -0.1104285   -0.7543672     0.2770559    0.1216621 
   3.082300000    -0.1535840    0.0451753    -0.2253876   -0.8104285    -0.1571268   -0.7455834     0.2994435    0.1050988 
   3.102250000    -0.1412646    0.0735304    -0.3135974   -0.7428712    -0.2225521   -0.7480975     0.3200993    0.0730357 
   3.122200000    -0.1202967    0.0932460    -0.3342544   -0.6963803    -0.3006908   -0.7242081     0.3292030    0.0428182 
   3.142150000    -0.0954772    0.1098111    -0.3800938   -0.7079849    -0.3546352   -0.6898091     0.3375157    0.0166506 
