! 9/28/2016 3:36:35 PM
! C:\USERS\ANRITSUUSER\DESKTOP\SWITCHES\SMA-500MM-RIGID.S2P
! CHANNEL.1
! TR.MEASUREMENT
! CORRECTED.DATA
# GHZ S RI R 50.0
! FREQ.GHZ         S11RE         S11IM         S21RE         S21IM         S12RE         S12IM         S22RE         S22IM         
!; PortSelection: Port_12
   0.010000000     0.0032937    0.0012009     0.9852147   -0.1551726     0.9807478   -0.1664169     0.0040329    0.0002162 
   0.029950000     0.0041316   -0.0009913     0.8901476   -0.4438886     0.8891307   -0.4409361     0.0040321   -0.0006704 
   0.049900000     0.0026691   -0.0040802     0.7169753   -0.6878017     0.7168190   -0.6844717     0.0032335   -0.0038385 
   0.069850000    -0.0000426   -0.0050532     0.4788549   -0.8698631     0.4798283   -0.8666350     0.0003402   -0.0061619 
   0.089800000    -0.0026091   -0.0047482     0.1981273   -0.9713993     0.1999339   -0.9685763    -0.0035795   -0.0053328 
   0.109750000    -0.0058599   -0.0036209    -0.0998119   -0.9852742    -0.0973220   -0.9833031    -0.0072014   -0.0029474 
   0.129700000    -0.0086859   -0.0003845    -0.3873701   -0.9106848    -0.3841268   -0.9089126    -0.0088748   -0.0004936 
   0.149650000    -0.0067257    0.0046001    -0.6411552   -0.7533282    -0.6377042   -0.7529460    -0.0072104    0.0020586 
   0.169600000    -0.0016785    0.0075106    -0.8347786   -0.5278419    -0.8313641   -0.5285146    -0.0025350    0.0054598 
   0.189550000     0.0006038    0.0067568    -0.9530393   -0.2561768    -0.9498172   -0.2577749     0.0021922    0.0066551 
   0.209500000     0.0013925    0.0042227    -0.9858075    0.0383657    -0.9834888    0.0356678     0.0052740    0.0039167 
   0.229450000     0.0043227    0.0007723    -0.9290319    0.3298137    -0.9277948    0.3267393     0.0058964   -0.0007904 
   0.249400000     0.0072656   -0.0027629    -0.7883320    0.5907343    -0.7880824    0.5872317     0.0052322   -0.0031015 
   0.269350000     0.0049279   -0.0049208    -0.5769469    0.7966086    -0.5774653    0.7932294     0.0029739   -0.0034240 
   0.289300000    -0.0017451   -0.0045410    -0.3147238    0.9325478    -0.3163065    0.9292499    -0.0019365   -0.0040505 
   0.309250000    -0.0070066   -0.0042182    -0.0226253    0.9827850    -0.0252616    0.9800501    -0.0075925   -0.0030345 
   0.329200000    -0.0079232   -0.0027011     0.2702173    0.9448586     0.2665050    0.9429043    -0.0081758    0.0011323 
   0.349150000    -0.0056542    0.0015599     0.5378432    0.8205494     0.5341008    0.8202499    -0.0047772    0.0060598 
   0.369100000    -0.0024245    0.0074714     0.7567736    0.6247881     0.7531700    0.6252303    -0.0021126    0.0097581 
   0.389050000     0.0015393    0.0098070     0.9079317    0.3709331     0.9043830    0.3724891     0.0004156    0.0109804 
   0.409000000     0.0057990    0.0080775     0.9763096    0.0845331     0.9734971    0.0872066     0.0055786    0.0082654 
   0.428950000     0.0099516    0.0047751     0.9568076   -0.2086743     0.9550243   -0.2054032     0.0103741    0.0034726 
   0.448900000     0.0110392    0.0000769     0.8513585   -0.4835601     0.8506145   -0.4798546     0.0101204   -0.0007018 
   0.468850000     0.0070697   -0.0048680     0.6693857   -0.7135491     0.6699867   -0.7096419     0.0048763   -0.0039535 
   0.488800000     0.0013566   -0.0077108     0.4266951   -0.8803135     0.4283693   -0.8770460    -0.0000770   -0.0061907 
   0.508750000    -0.0021723   -0.0069104     0.1467081   -0.9667787     0.1490123   -0.9636562    -0.0037259   -0.0060441 
   0.528700000    -0.0049514   -0.0025238    -0.1482303   -0.9660929    -0.1446266   -0.9638207    -0.0066356   -0.0017194 
   0.548650000    -0.0077141    0.0042547    -0.4262917   -0.8776034    -0.4226328   -0.8770878    -0.0091012    0.0072648 
   0.568600000    -0.0061850    0.0097143    -0.6686424   -0.7123891    -0.6648588   -0.7122460    -0.0070413    0.0124616 
   0.588550000     0.0011648    0.0104501    -0.8491567   -0.4805273    -0.8453583   -0.4816393    -0.0016927    0.0119770 
   0.608500000     0.0094803    0.0095842    -0.9524583   -0.2068240    -0.9492806   -0.2095170     0.0045581    0.0106464 
   0.628450000     0.0141570    0.0077462    -0.9713243    0.0843346    -0.9691996    0.0810373     0.0104587    0.0091398 
   0.648400000     0.0140396    0.0031628    -0.9024266    0.3696838    -0.9010251    0.3657466     0.0117917    0.0037161 
   0.668350000     0.0111236   -0.0046600    -0.7513767    0.6203091    -0.7516807    0.6159153     0.0082943   -0.0031829 
   0.688300000     0.0072699   -0.0097985    -0.5335128    0.8143485    -0.5345815    0.8105686     0.0044267   -0.0067732 
   0.708250000     0.0028315   -0.0085066    -0.2680635    0.9376271    -0.2703767    0.9335052     0.0010214   -0.0062135 
   0.728200000    -0.0025897   -0.0027694     0.0240479    0.9729429     0.0204843    0.9704674    -0.0045378   -0.0027005 
   0.748150000    -0.0050822    0.0040535     0.3105522    0.9214072     0.3061378    0.9202460    -0.0088348    0.0030845 
   0.768100000    -0.0028657    0.0079010     0.5695541    0.7878506     0.5656874    0.7880269    -0.0073876    0.0082136 
   0.788050000     0.0025577    0.0101055     0.7781507    0.5835507     0.7738706    0.5844851    -0.0016605    0.0111037 
   0.808000000     0.0086600    0.0106250     0.9159545    0.3250976     0.9118721    0.3277462     0.0037139    0.0124076 
   0.827950000     0.0132953    0.0071643     0.9702568    0.0391126     0.9676355    0.0429518     0.0081197    0.0099144 
   0.847900000     0.0149883    0.0001125     0.9382749   -0.2500950     0.9368301   -0.2458837     0.0104848    0.0037488 
   0.867850000     0.0135373   -0.0062670     0.8215113   -0.5176233     0.8215884   -0.5126804     0.0104392   -0.0024181 
   0.887800000     0.0085949   -0.0086755     0.6313420   -0.7374907     0.6322694   -0.7335322     0.0063350   -0.0054849 
   0.907750000     0.0014845   -0.0078271     0.3833342   -0.8924397     0.3854946   -0.8886716    -0.0004310   -0.0060541 
   0.927700000    -0.0045726   -0.0054518     0.1006092   -0.9650561     0.1042620   -0.9615380    -0.0058897   -0.0043492 
   0.947650000    -0.0062279   -0.0014311    -0.1901384   -0.9504194    -0.1859588   -0.9493540    -0.0075098   -0.0005594 
   0.967600000    -0.0033077    0.0050576    -0.4623553   -0.8513663    -0.4583594   -0.8502546    -0.0053470    0.0053017 
   0.987550000     0.0015552    0.0105946    -0.6955731   -0.6754193    -0.6903909   -0.6760024    -0.0019628    0.0108348 
   1.007500000     0.0068850    0.0111475    -0.8630401   -0.4376807    -0.8587907   -0.4406427     0.0019222    0.0116075 
   1.027450000     0.0112010    0.0063140    -0.9536455   -0.1626317    -0.9511231   -0.1660522     0.0071989    0.0077734 
   1.047400000     0.0140151    0.0010618    -0.9598324    0.1272797    -0.9576707    0.1234822     0.0118264    0.0024951 
   1.067350000     0.0143833   -0.0037379    -0.8782209    0.4075570    -0.8771418    0.4027313     0.0118868   -0.0017686 
   1.087300000     0.0099327   -0.0079360    -0.7170637    0.6494945    -0.7180122    0.6449907     0.0066914   -0.0049942 
   1.107250000     0.0033644   -0.0094238    -0.4924902    0.8321580    -0.4941739    0.8281671     0.0012250   -0.0070770 
   1.127200000     0.0001963   -0.0068975    -0.2230236    0.9429295    -0.2263314    0.9386212    -0.0019504   -0.0075171 
   1.147150000    -0.0011304   -0.0018617     0.0685225    0.9637932     0.0640479    0.9617220    -0.0035603   -0.0038423 
   1.167100000    -0.0012422    0.0040690     0.3500366    0.8990707     0.3454128    0.8986812    -0.0049270    0.0035061 
   1.187050000     0.0008627    0.0078876     0.6001347    0.7566330     0.5956357    0.7564695    -0.0038988    0.0084429 
   1.207000000     0.0069482    0.0065773     0.7986692    0.5438871     0.7935818    0.5459689    -0.0011531    0.0082721 
   1.226950000     0.0135060    0.0028970     0.9229926    0.2812490     0.9193387    0.2852365     0.0031246    0.0067481 
   1.246900000     0.0168191   -0.0007283     0.9645072   -0.0039606     0.9620816    0.0003701     0.0082048    0.0054087 
   1.266850000     0.0157579   -0.0044833     0.9205372   -0.2906910     0.9194661   -0.2858847     0.0102852    0.0015722 
   1.286800000     0.0115311   -0.0092224     0.7915848   -0.5511982     0.7929051   -0.5465862     0.0079941   -0.0035008 
   1.306750000     0.0069897   -0.0119653     0.5933124   -0.7610047     0.5946949   -0.7569531     0.0053128   -0.0060857 
   1.326700000     0.0045693   -0.0103869     0.3384306   -0.9039587     0.3416881   -0.8999368     0.0043265   -0.0064362 
   1.346650000     0.0024279   -0.0056992     0.0555524   -0.9609369     0.0600373   -0.9580032     0.0013443   -0.0054877 
   1.366600000     0.0013346   -0.0013548    -0.2315118   -0.9340867    -0.2270573   -0.9337121    -0.0032839   -0.0030724 
   1.386550000     0.0031647   -0.0004124    -0.4979499   -0.8250416    -0.4929412   -0.8238658    -0.0036425   -0.0007204 
   1.406500000     0.0069248   -0.0013093    -0.7212959   -0.6382109    -0.7155890   -0.6401381    -0.0013556   -0.0005668 
   1.426450000     0.0109286   -0.0036274    -0.8764545   -0.3949163    -0.8723962   -0.3993030    -0.0005090    0.0000499 
   1.446400000     0.0117356   -0.0071519    -0.9550076   -0.1183209    -0.9525180   -0.1229226    -0.0001369    0.0004116 
   1.466350000     0.0099795   -0.0103283    -0.9479594    0.1718957    -0.9467695    0.1661968     0.0010198   -0.0012757 
   1.486300000     0.0074530   -0.0119039    -0.8524189    0.4453555    -0.8528262    0.4398709     0.0015179   -0.0036826 
   1.506250000     0.0043257   -0.0112858    -0.6823961    0.6771916    -0.6839742    0.6719887     0.0005704   -0.0041233 
   1.526200000    -0.0000819   -0.0093814    -0.4525262    0.8484637    -0.4498475    0.8463659    -0.0009905   -0.0036751 
   1.546150000    -0.0030233   -0.0046011    -0.1756959    0.9442901    -0.1815932    0.9409363    -0.0032579   -0.0036857 
   1.566100000     0.0003587   -0.0021592     0.1104667    0.9520606     0.1060999    0.9512102    -0.0034203   -0.0040453 
   1.586050000     0.0053382   -0.0028989     0.3871149    0.8782176     0.3819591    0.8773279    -0.0030853   -0.0039596 
   1.606000000     0.0080339   -0.0041048     0.6318004    0.7233448     0.6256039    0.7249877    -0.0042015   -0.0022276 
   1.625950000     0.0090550   -0.0059327     0.8175439    0.5023200     0.8128126    0.5066958    -0.0042887   -0.0011787 
   1.645900000     0.0091182   -0.0103134     0.9295326    0.2371099     0.9272251    0.2415430    -0.0045554   -0.0028458 
   1.665850000     0.0073981   -0.0149900     0.9572111   -0.0496895     0.9561838   -0.0451906    -0.0047018   -0.0023404 
   1.685800000     0.0043063   -0.0158324     0.8993072   -0.3300373     0.8996485   -0.3262847    -0.0037469    0.0000631 
   1.705750000     0.0006124   -0.0132627     0.7630970   -0.5837737     0.7624933   -0.5797002    -0.0046093    0.0001544 
   1.725700000    -0.0017451   -0.0097669     0.5521213   -0.7870590     0.5541886   -0.7791668    -0.0058969   -0.0019300 
   1.745650000    -0.0022898   -0.0055975     0.2907147   -0.9103806     0.2984907   -0.9072629    -0.0038279   -0.0032013 
   1.765600000     0.0015346   -0.0027065     0.0144935   -0.9538016     0.0179325   -0.9544505    -0.0000430   -0.0043449 
   1.785550000     0.0056475   -0.0030938    -0.2703000   -0.9214428    -0.2676453   -0.9175509    -0.0014988   -0.0038435 
   1.805500000     0.0069992   -0.0082643    -0.5365534   -0.7980792    -0.5275085   -0.7975206    -0.0072345   -0.0032269 
   1.825450000     0.0046290   -0.0118211    -0.7506369   -0.5997106    -0.7429861   -0.6045744    -0.0130190   -0.0071302 
   1.845400000     0.0075229   -0.0136136    -0.8928974   -0.3448818    -0.8894979   -0.3553390    -0.0181740   -0.0119165 
   1.865350000     0.0025244   -0.0232112    -0.9466780   -0.0678224    -0.9533641   -0.0734805    -0.0188295   -0.0101233 
   1.885300000    -0.0106306   -0.0159284    -0.9317562    0.2087082    -0.9302002    0.2139292    -0.0157691   -0.0057045 
   1.905250000    -0.0034826   -0.0110155    -0.8291560    0.4882880    -0.8211970    0.4783478    -0.0127543   -0.0016808 
   1.925200000    -0.0094355   -0.0150321    -0.6324677    0.7071779    -0.6412546    0.6968064    -0.0107676   -0.0002423 
   1.945150000    -0.0072084   -0.0008039    -0.4038668    0.8497707    -0.4095181    0.8533773    -0.0062781   -0.0003139 
   1.965100000     0.0039382   -0.0000265    -0.1409738    0.9422475    -0.1388046    0.9390967    -0.0037291   -0.0045112 
   1.985050000     0.0056897   -0.0055022     0.1535860    0.9440668     0.1464173    0.9373862    -0.0045041   -0.0075228 
   2.005000000     0.0054528   -0.0098848     0.4274703    0.8520996     0.4183454    0.8533282    -0.0068596   -0.0115494 
   2.024950000     0.0061246   -0.0180166     0.6610957    0.6846191     0.6541035    0.6903084    -0.0133473   -0.0148700 
   2.044900000     0.0027581   -0.0257668     0.8300475    0.4560919     0.8312011    0.4644971    -0.0212094   -0.0139618 
   2.064850000    -0.0052528   -0.0285201     0.9260615    0.1960485     0.9300414    0.1930613    -0.0279099   -0.0095109 
   2.084800000    -0.0124950   -0.0221435     0.9517541   -0.0897619     0.9422241   -0.0899795    -0.0282747   -0.0023537 
   2.104750000    -0.0158232   -0.0149834     0.8773112   -0.3776647     0.8743121   -0.3636076    -0.0244122    0.0033889 
   2.124700000    -0.0152968   -0.0084265     0.7166095   -0.6152682     0.7260597   -0.6093466    -0.0169836    0.0065139 
   2.144650000    -0.0100682   -0.0019942     0.5093301   -0.7929688     0.5114070   -0.7947475    -0.0106395    0.0075538 
   2.164600000    -0.0011565   -0.0009205     0.2538025   -0.9154822     0.2543577   -0.9109553    -0.0031912    0.0010530 
   2.184550000     0.0053089   -0.0059605    -0.0329861   -0.9506565    -0.0269972   -0.9466609    -0.0011388   -0.0111074 
   2.204500000     0.0073364   -0.0148091    -0.3147484   -0.8971362    -0.3078485   -0.8961139    -0.0060661   -0.0226036 
   2.224450000     0.0046490   -0.0234163    -0.5698801   -0.7615361    -0.5614520   -0.7650211    -0.0150805   -0.0254532 
   2.244400000    -0.0008559   -0.0293477    -0.7663861   -0.5509408    -0.7657395   -0.5594369    -0.0251166   -0.0235490 
   2.264350000    -0.0137289   -0.0326095    -0.8877513   -0.3045304    -0.8912243   -0.3044466    -0.0384461   -0.0177409 
   2.284300000    -0.0242425   -0.0240020    -0.9463707   -0.0326848    -0.9414498   -0.0310903    -0.0429466   -0.0065383 
   2.304250000    -0.0267521   -0.0137379    -0.9143638    0.2594272    -0.9097315    0.2521566    -0.0382716    0.0032829 
   2.324200000    -0.0241276   -0.0051392    -0.7855756    0.5161489    -0.7893122    0.5094428    -0.0290954    0.0107389 
   2.344150000    -0.0157394    0.0034295    -0.6024380    0.7171545    -0.6058977    0.7167602    -0.0165867    0.0143928 
   2.364100000    -0.0026511    0.0055667    -0.3682874    0.8692157    -0.3679481    0.8677008    -0.0066243    0.0074081 
   2.384050000     0.0086679    0.0001498    -0.0888286    0.9436428    -0.0921227    0.9398520    -0.0030353   -0.0073038 
   2.404000000     0.0127452   -0.0128699     0.1976454    0.9246725     0.1916719    0.9238470    -0.0068426   -0.0220141 
   2.423950000     0.0080353   -0.0258697     0.4645652    0.8227230     0.4579692    0.8250422    -0.0174076   -0.0303710 
   2.443900000    -0.0031650   -0.0347718     0.6861865    0.6422430     0.6830529    0.6495410    -0.0337645   -0.0290153 
   2.463850000    -0.0171954   -0.0381706     0.8394116    0.4105830     0.8440496    0.4135292    -0.0503312   -0.0197717 
   2.483800000    -0.0321284   -0.0319527     0.9251115    0.1489816     0.9227178    0.1433755    -0.0599090   -0.0042170 
   2.503750000    -0.0399363   -0.0175310     0.9325370   -0.1370098     0.9226586   -0.1305967    -0.0562623    0.0109483 
   2.523700000    -0.0389408   -0.0023346     0.8428805   -0.4097183     0.8466843   -0.3981596    -0.0431132    0.0236177 
   2.543650000    -0.0281823    0.0078837     0.6831330   -0.6325291     0.6881727   -0.6334718    -0.0243756    0.0279459 
   2.563600000    -0.0102707    0.0096684     0.4740560   -0.8097590     0.4715945   -0.8069992    -0.0072747    0.0200879 
   2.583550000     0.0057918    0.0025502     0.2064593   -0.9197723     0.2108075   -0.9147117    -0.0005357    0.0021975 
   2.603500000     0.0144555   -0.0092358    -0.0784757   -0.9373395    -0.0733482   -0.9365042    -0.0035958   -0.0166949 
   2.623450000     0.0089627   -0.0222786    -0.3562087   -0.8700213    -0.3494633   -0.8702788    -0.0162538   -0.0316786 
   2.643400000    -0.0058813   -0.0333530    -0.5989501   -0.7179037    -0.5938414   -0.7250887    -0.0373286   -0.0359755 
   2.663350000    -0.0240165   -0.0419912    -0.7735268   -0.5062070    -0.7788489   -0.5087672    -0.0609893   -0.0281082 
   2.683300000    -0.0415161   -0.0364880    -0.8915368   -0.2668441    -0.8884559   -0.2591569    -0.0756767   -0.0076167 
   2.703250000    -0.0490645   -0.0179731    -0.9380934    0.0184455    -0.9278210    0.0136157    -0.0746463    0.0133450 
   2.723200000    -0.0468826    0.0057016    -0.8781413    0.2982191    -0.8806789    0.2872338    -0.0616095    0.0307323 
   2.743150000    -0.0354859    0.0217969    -0.7534868    0.5330248    -0.7584420    0.5312584    -0.0389682    0.0388390 
   2.763100000    -0.0202239    0.0207407    -0.5711566    0.7411721    -0.5702829    0.7377899    -0.0170076    0.0315238 
   2.783050000    -0.0019069    0.0107697    -0.3178639    0.8814939    -0.3213001    0.8748630    -0.0026149    0.0130890 
   2.803000000     0.0143555   -0.0057828    -0.0383082    0.9343169    -0.0455679    0.9332946    -0.0029943   -0.0130199 
   2.822950000     0.0160414   -0.0243599     0.2429642    0.8969151     0.2389492    0.9008991    -0.0184259   -0.0353550 
   2.842900000    -0.0013926   -0.0382611     0.4935518    0.7816275     0.4919056    0.7853901    -0.0440949   -0.0431890 
   2.862850000    -0.0270048   -0.0412863     0.7015482    0.6019303     0.7004163    0.6046609    -0.0676685   -0.0350019 
   2.882800000    -0.0494676   -0.0349510     0.8487069    0.3635607     0.8478481    0.3643017    -0.0869371   -0.0134587 
   2.902750000    -0.0634902   -0.0176526     0.9096162    0.0992945     0.9057773    0.0998792    -0.0944081    0.0192790 
   2.922700000    -0.0602894    0.0081870     0.9066641   -0.1665712     0.9025573   -0.1612537    -0.0772923    0.0457774 
   2.942650000    -0.0444206    0.0282752     0.8203537   -0.4360192     0.8219987   -0.4304621    -0.0507860    0.0526732 
   2.962600000    -0.0229515    0.0384938     0.6478971   -0.6602702     0.6490080   -0.6572396    -0.0226928    0.0470775 
   2.982550000    -0.0015022    0.0333909     0.4252764   -0.8211775     0.4299280   -0.8152983    -0.0012967    0.0290150 
   3.002500000     0.0122817    0.0107882     0.1572443   -0.9154313     0.1640234   -0.9156275     0.0018745   -0.0021774 
   3.022450000     0.0151087   -0.0208102    -0.1232214   -0.9148540    -0.1213277   -0.9150398    -0.0170750   -0.0337778 
   3.042400000     0.0033144   -0.0427129    -0.3909162   -0.8370670    -0.3859918   -0.8370175    -0.0473172   -0.0477527 
   3.062350000    -0.0186673   -0.0453644    -0.6188326   -0.6719204    -0.6175777   -0.6793964    -0.0765196   -0.0388413 
   3.082300000    -0.0488384   -0.0339844    -0.7743400   -0.4637914    -0.7801785   -0.4624368    -0.1031966   -0.0110153 
   3.102250000    -0.0716240   -0.0111831    -0.8881534   -0.2271300    -0.8803907   -0.2218543    -0.1109640    0.0263499 
   3.122200000    -0.0756959    0.0112637    -0.9219854    0.0619522    -0.9129983    0.0522033    -0.0987866    0.0566646 
   3.142150000    -0.0579342    0.0341014    -0.8482376    0.3271758    -0.8512786    0.3194077    -0.0645974    0.0735192 
